vg      	vd      	ids     
0       	0       	5.4438e-13
0       	0.05    	3.158e-10
0       	0.1     	3.6526e-10
0       	0.15    	3.751e-10
0       	0.2     	3.7888e-10
0       	0.25    	3.8156e-10
0       	0.3     	3.8392e-10
0       	0.35    	3.8607e-10
0       	0.4     	3.8807e-10
0       	0.45    	3.8992e-10
0       	0.5     	3.9166e-10
0       	0.55    	3.933e-10
0       	0.6     	3.9484e-10
0       	0.65    	3.963e-10
0       	0.7     	3.977e-10
0.05    	0       	3.2933e-12
0.05    	0.05    	2.1214e-09
0.05    	0.1     	2.4549e-09
0.05    	0.15    	2.5222e-09
0.05    	0.2     	2.5483e-09
0.05    	0.25    	2.5665e-09
0.05    	0.3     	2.5823e-09
0.05    	0.35    	2.5966e-09
0.05    	0.4     	2.6097e-09
0.05    	0.45    	2.6218e-09
0.05    	0.5     	2.6332e-09
0.05    	0.55    	2.6438e-09
0.05    	0.6     	2.6539e-09
0.05    	0.65    	2.6634e-09
0.05    	0.7     	2.6725e-09
0.1     	0       	2.0908e-11
0.1     	0.05    	1.3853e-08
0.1     	0.1     	1.6095e-08
0.1     	0.15    	1.6548e-08
0.1     	0.2     	1.672e-08
0.1     	0.25    	1.6838e-08
0.1     	0.3     	1.6938e-08
0.1     	0.35    	1.7028e-08
0.1     	0.4     	1.711e-08
0.1     	0.45    	1.7186e-08
0.1     	0.5     	1.7256e-08
0.1     	0.55    	1.7322e-08
0.1     	0.6     	1.7385e-08
0.1     	0.65    	1.7444e-08
0.1     	0.7     	1.7501e-08
0.15    	0       	1.1337e-10
0.15    	0.05    	8.1846e-08
0.15    	0.1     	9.6381e-08
0.15    	0.15    	9.9284e-08
0.15    	0.2     	1.003e-07
0.15    	0.25    	1.0094e-07
0.15    	0.3     	1.0148e-07
0.15    	0.35    	1.0195e-07
0.15    	0.4     	1.0237e-07
0.15    	0.45    	1.0276e-07
0.15    	0.5     	1.0312e-07
0.15    	0.55    	1.0346e-07
0.15    	0.6     	1.0378e-07
0.15    	0.65    	1.0407e-07
0.15    	0.7     	1.0436e-07
0.2     	0       	4.0192e-10
0.2     	0.05    	3.4548e-07
0.2     	0.1     	4.2717e-07
0.2     	0.15    	4.4344e-07
0.2     	0.2     	4.4799e-07
0.2     	0.25    	4.5034e-07
0.2     	0.3     	4.5211e-07
0.2     	0.35    	4.5361e-07
0.2     	0.4     	4.5494e-07
0.2     	0.45    	4.5613e-07
0.2     	0.5     	4.5721e-07
0.2     	0.55    	4.5821e-07
0.2     	0.6     	4.5913e-07
0.2     	0.65    	4.6e-07 
0.2     	0.7     	4.6081e-07
0.25    	0       	7.9532e-10
0.25    	0.05    	8.4285e-07
0.25    	0.1     	1.1595e-06
0.25    	0.15    	1.2352e-06
0.25    	0.2     	1.254e-06
0.25    	0.25    	1.2603e-06
0.25    	0.3     	1.2642e-06
0.25    	0.35    	1.2672e-06
0.25    	0.4     	1.2697e-06
0.25    	0.45    	1.2719e-06
0.25    	0.5     	1.2739e-06
0.25    	0.55    	1.2756e-06
0.25    	0.6     	1.2775e-06
0.25    	0.65    	1.279e-06
0.25    	0.7     	1.2803e-06
0.3     	0       	1.1255e-09
0.3     	0.05    	1.3456e-06
0.3     	0.1     	2.0963e-06
0.3     	0.15    	2.3624e-06
0.3     	0.2     	2.43e-06
0.3     	0.25    	2.448e-06
0.3     	0.3     	2.4557e-06
0.3     	0.35    	2.4607e-06
0.3     	0.4     	2.4651e-06
0.3     	0.45    	2.4684e-06
0.3     	0.5     	2.4712e-06
0.3     	0.55    	2.4738e-06
0.3     	0.6     	2.476e-06
0.3     	0.65    	2.4783e-06
0.3     	0.7     	2.4802e-06
0.35    	0       	1.379e-09
0.35    	0.05    	1.7277e-06
0.35    	0.1     	2.9476e-06
0.35    	0.15    	3.5707e-06
0.35    	0.2     	3.7878e-06
0.35    	0.25    	3.8425e-06
0.35    	0.3     	3.8612e-06
0.35    	0.35    	3.8697e-06
0.35    	0.4     	3.8753e-06
0.35    	0.45    	3.8798e-06
0.35    	0.5     	3.8839e-06
0.35    	0.55    	3.8872e-06
0.35    	0.6     	3.89e-06
0.35    	0.65    	3.8926e-06
0.35    	0.7     	3.8951e-06
0.4     	0       	1.5807e-09
0.4     	0.05    	2.0011e-06
0.4     	0.1     	3.5946e-06
0.4     	0.15    	4.6328e-06
0.4     	0.2     	5.1424e-06
0.4     	0.25    	5.3073e-06
0.4     	0.3     	5.3566e-06
0.4     	0.35    	5.3735e-06
0.4     	0.4     	5.3831e-06
0.4     	0.45    	5.3891e-06
0.4     	0.5     	5.3939e-06
0.4     	0.55    	5.3981e-06
0.4     	0.6     	5.4016e-06
0.4     	0.65    	5.4045e-06
0.4     	0.7     	5.4074e-06
0.45    	0       	1.7476e-09
0.45    	0.05    	2.1999e-06
0.45    	0.1     	4.0579e-06
0.45    	0.15    	5.4417e-06
0.45    	0.2     	6.313e-06
0.45    	0.25    	6.7098e-06
0.45    	0.3     	6.8433e-06
0.45    	0.35    	6.887e-06
0.45    	0.4     	6.9034e-06
0.45    	0.45    	6.913e-06
0.45    	0.5     	6.9191e-06
0.45    	0.55    	6.9242e-06
0.45    	0.6     	6.9281e-06
0.45    	0.65    	6.9315e-06
0.45    	0.7     	6.9346e-06
0.5     	0       	1.8892e-09
0.5     	0.05    	2.3483e-06
0.5     	0.1     	4.3916e-06
0.5     	0.15    	6.0197e-06
0.5     	0.2     	7.1966e-06
0.5     	0.25    	7.888e-06
0.5     	0.3     	8.21e-06
0.5     	0.35    	8.3263e-06
0.5     	0.4     	8.3681e-06
0.5     	0.45    	8.3855e-06
0.5     	0.5     	8.3945e-06
0.5     	0.55    	8.4009e-06
0.5     	0.6     	8.4055e-06
0.5     	0.65    	8.4093e-06
0.5     	0.7     	8.4126e-06
0.55    	0       	2.0111e-09
0.55    	0.05    	2.4609e-06
0.55    	0.1     	4.6377e-06
0.55    	0.15    	6.4317e-06
0.55    	0.2     	7.7612e-06
0.55    	0.25    	8.7192e-06
0.55    	0.3     	9.3118e-06
0.55    	0.35    	9.5885e-06
0.55    	0.4     	9.703e-06
0.55    	0.45    	9.7454e-06
0.55    	0.5     	9.7638e-06
0.55    	0.55    	9.7732e-06
0.55    	0.6     	9.7793e-06
0.55    	0.65    	9.7839e-06
0.55    	0.7     	9.7875e-06
0.6     	0       	2.1097e-09
0.6     	0.05    	2.5391e-06
0.6     	0.1     	4.8146e-06
0.6     	0.15    	6.7244e-06
0.6     	0.2     	8.1847e-06
0.6     	0.25    	9.3007e-06
0.6     	0.3     	1.0054e-05
0.6     	0.35    	1.0544e-05
0.6     	0.4     	1.0804e-05
0.6     	0.45    	1.0919e-05
0.6     	0.5     	1.0967e-05
0.6     	0.55    	1.0989e-05
0.6     	0.6     	1.1e-05 
0.6     	0.65    	1.1007e-05
0.6     	0.7     	1.1011e-05
0.65    	0       	2.1701e-09
0.65    	0.05    	2.5759e-06
0.65    	0.1     	4.9197e-06
0.65    	0.15    	6.9095e-06
0.65    	0.2     	8.5213e-06
0.65    	0.25    	9.6715e-06
0.65    	0.3     	1.054e-05
0.65    	0.35    	1.1167e-05
0.65    	0.4     	1.1553e-05
0.65    	0.45    	1.1796e-05
0.65    	0.5     	1.1922e-05
0.65    	0.55    	1.1985e-05
0.65    	0.6     	1.2013e-05
0.65    	0.65    	1.2029e-05
0.65    	0.7     	1.2037e-05
0.7     	0       	2.2239e-09
0.7     	0.05    	2.5971e-06
0.7     	0.1     	4.9691e-06
0.7     	0.15    	7.0189e-06
0.7     	0.2     	8.6914e-06
0.7     	0.25    	9.8984e-06
0.7     	0.3     	1.0831e-05
0.7     	0.35    	1.1502e-05
0.7     	0.4     	1.2e-05 
0.7     	0.45    	1.2322e-05
0.7     	0.5     	1.2542e-05
0.7     	0.55    	1.2666e-05
0.7     	0.6     	1.2738e-05
0.7     	0.65    	1.2777e-05
0.7     	0.7     	1.2795e-05
