vg      	vd      	ids     
0       	0       	-7.7661e-20
0       	0.05    	9.8372e-16
0       	0.1     	1.1267e-15
0       	0.15    	1.1482e-15
0       	0.2     	1.1519e-15
0       	0.25    	1.1528e-15
0       	0.3     	1.1531e-15
0       	0.35    	1.1532e-15
0       	0.4     	1.1532e-15
0       	0.45    	1.1532e-15
0       	0.5     	1.1532e-15
0       	0.55    	1.1532e-15
0       	0.6     	1.1532e-15
0       	0.65    	1.1532e-15
0       	0.7     	1.1532e-15
0.05    	0       	9.4711e-19
0.05    	0.05    	6.7301e-15
0.05    	0.1     	7.7191e-15
0.05    	0.15    	7.8672e-15
0.05    	0.2     	7.8933e-15
0.05    	0.25    	7.9008e-15
0.05    	0.3     	7.9044e-15
0.05    	0.35    	7.906e-15
0.05    	0.4     	7.9063e-15
0.05    	0.45    	7.9064e-15
0.05    	0.5     	7.9065e-15
0.05    	0.55    	7.9065e-15
0.05    	0.6     	7.9065e-15
0.05    	0.65    	7.9065e-15
0.05    	0.7     	7.9065e-15
0.1     	0       	1.0795e-17
0.1     	0.05    	4.6429e-14
0.1     	0.1     	5.32e-14
0.1     	0.15    	5.4228e-14
0.1     	0.2     	5.4411e-14
0.1     	0.25    	5.4468e-14
0.1     	0.3     	5.4501e-14
0.1     	0.35    	5.4523e-14
0.1     	0.4     	5.4534e-14
0.1     	0.45    	5.4536e-14
0.1     	0.5     	5.4537e-14
0.1     	0.55    	5.4537e-14
0.1     	0.6     	5.4537e-14
0.1     	0.65    	5.4537e-14
0.1     	0.7     	5.4537e-14
0.15    	0       	1.7157e-16
0.15    	0.05    	3.1781e-13
0.15    	0.1     	3.6455e-13
0.15    	0.15    	3.7161e-13
0.15    	0.2     	3.7291e-13
0.15    	0.25    	3.7333e-13
0.15    	0.3     	3.736e-13
0.15    	0.35    	3.738e-13
0.15    	0.4     	3.7395e-13
0.15    	0.45    	3.7402e-13
0.15    	0.5     	3.7404e-13
0.15    	0.55    	3.7404e-13
0.15    	0.6     	3.7404e-13
0.15    	0.65    	3.7404e-13
0.15    	0.7     	3.7405e-13
0.2     	0       	1.4864e-15
0.2     	0.05    	2.1929e-12
0.2     	0.1     	2.5129e-12
0.2     	0.15    	2.5619e-12
0.2     	0.2     	2.571e-12
0.2     	0.25    	2.5741e-12
0.2     	0.3     	2.5762e-12
0.2     	0.35    	2.5779e-12
0.2     	0.4     	2.5792e-12
0.2     	0.45    	2.5802e-12
0.2     	0.5     	2.5807e-12
0.2     	0.55    	2.5808e-12
0.2     	0.6     	2.5808e-12
0.2     	0.65    	2.5808e-12
0.2     	0.7     	2.5809e-12
0.25    	0       	1.6112e-14
0.25    	0.05    	1.5003e-11
0.25    	0.1     	1.7213e-11
0.25    	0.15    	1.7549e-11
0.25    	0.2     	1.7614e-11
0.25    	0.25    	1.7636e-11
0.25    	0.3     	1.7652e-11
0.25    	0.35    	1.7665e-11
0.25    	0.4     	1.7676e-11
0.25    	0.45    	1.7685e-11
0.25    	0.5     	1.7692e-11
0.25    	0.55    	1.7695e-11
0.25    	0.6     	1.7696e-11
0.25    	0.65    	1.7696e-11
0.25    	0.7     	1.7696e-11
0.3     	0       	1.3034e-13
0.3     	0.05    	1.0358e-10
0.3     	0.1     	1.187e-10
0.3     	0.15    	1.2104e-10
0.3     	0.2     	1.215e-10
0.3     	0.25    	1.2166e-10
0.3     	0.3     	1.2178e-10
0.3     	0.35    	1.2188e-10
0.3     	0.4     	1.2196e-10
0.3     	0.45    	1.2204e-10
0.3     	0.5     	1.221e-10
0.3     	0.55    	1.2215e-10
0.3     	0.6     	1.2217e-10
0.3     	0.65    	1.2217e-10
0.3     	0.7     	1.2217e-10
0.35    	0       	-4.4873e-12
0.35    	0.05    	7.0597e-10
0.35    	0.1     	8.1052e-10
0.35    	0.15    	8.2665e-10
0.35    	0.2     	8.2987e-10
0.35    	0.25    	8.311e-10
0.35    	0.3     	8.3195e-10
0.35    	0.35    	8.3268e-10
0.35    	0.4     	8.3332e-10
0.35    	0.45    	8.339e-10
0.35    	0.5     	8.3439e-10
0.35    	0.55    	8.348e-10
0.35    	0.6     	8.351e-10
0.35    	0.65    	8.3524e-10
0.35    	0.7     	8.3527e-10
0.4     	0       	8.2152e-12
0.4     	0.05    	4.8209e-09
0.4     	0.1     	5.5407e-09
0.4     	0.15    	5.6534e-09
0.4     	0.2     	5.6763e-09
0.4     	0.25    	5.6853e-09
0.4     	0.3     	5.6916e-09
0.4     	0.35    	5.6969e-09
0.4     	0.4     	5.7016e-09
0.4     	0.45    	5.7058e-09
0.4     	0.5     	5.7095e-09
0.4     	0.55    	5.7128e-09
0.4     	0.6     	5.7155e-09
0.4     	0.65    	5.7174e-09
0.4     	0.7     	5.7183e-09
0.45    	0       	4.5815e-11
0.45    	0.05    	3.1022e-08
0.45    	0.1     	3.5914e-08
0.45    	0.15    	3.6699e-08
0.45    	0.2     	3.6861e-08
0.45    	0.25    	3.6924e-08
0.45    	0.3     	3.6967e-08
0.45    	0.35    	3.7002e-08
0.45    	0.4     	3.7033e-08
0.45    	0.45    	3.7061e-08
0.45    	0.5     	3.7085e-08
0.45    	0.55    	3.7108e-08
0.45    	0.6     	3.7127e-08
0.45    	0.65    	3.7142e-08
0.45    	0.7     	3.7153e-08
0.5     	0       	2.0747e-10
0.5     	0.05    	1.5562e-07
0.5     	0.1     	1.8775e-07
0.5     	0.15    	1.9326e-07
0.5     	0.2     	1.9436e-07
0.5     	0.25    	1.9473e-07
0.5     	0.3     	1.9495e-07
0.5     	0.35    	1.9512e-07
0.5     	0.4     	1.9527e-07
0.5     	0.45    	1.954e-07
0.5     	0.5     	1.9551e-07
0.5     	0.55    	1.9562e-07
0.5     	0.6     	1.9571e-07
0.5     	0.65    	1.9578e-07
0.5     	0.7     	1.9584e-07
0.55    	0       	4.9937e-10
0.55    	0.05    	4.3408e-07
0.55    	0.1     	6.0045e-07
0.55    	0.15    	6.3847e-07
0.55    	0.2     	6.4597e-07
0.55    	0.25    	6.4787e-07
0.55    	0.3     	6.487e-07
0.55    	0.35    	6.4928e-07
0.55    	0.4     	6.497e-07
0.55    	0.45    	6.5005e-07
0.55    	0.5     	6.5034e-07
0.55    	0.55    	6.5062e-07
0.55    	0.6     	6.5084e-07
0.55    	0.65    	6.5102e-07
0.55    	0.7     	6.5116e-07
0.6     	0       	7.5876e-10
0.6     	0.05    	6.845e-07
0.6     	0.1     	1.1335e-06
0.6     	0.15    	1.3188e-06
0.6     	0.2     	1.371e-06
0.6     	0.25    	1.3831e-06
0.6     	0.3     	1.3864e-06
0.6     	0.35    	1.3879e-06
0.6     	0.4     	1.3889e-06
0.6     	0.45    	1.3896e-06
0.6     	0.5     	1.3901e-06
0.6     	0.55    	1.3906e-06
0.6     	0.6     	1.391e-06
0.6     	0.65    	1.3912e-06
0.6     	0.7     	1.3914e-06
0.65    	0       	8.925e-10
0.65    	0.05    	8.3741e-07
0.65    	0.1     	1.5101e-06
0.65    	0.15    	1.9546e-06
0.65    	0.2     	2.1572e-06
0.65    	0.25    	2.233e-06
0.65    	0.3     	2.2528e-06
0.65    	0.35    	2.2588e-06
0.65    	0.4     	2.2615e-06
0.65    	0.45    	2.2629e-06
0.65    	0.5     	2.2639e-06
0.65    	0.55    	2.2646e-06
0.65    	0.6     	2.265e-06
0.65    	0.65    	2.2652e-06
0.65    	0.7     	2.2652e-06
0.7     	0       	1.0495e-09
0.7     	0.05    	9.3034e-07
0.7     	0.1     	1.7282e-06
0.7     	0.15    	2.3567e-06
0.7     	0.2     	2.7587e-06
0.7     	0.25    	2.9871e-06
0.7     	0.3     	3.0861e-06
0.7     	0.35    	3.1205e-06
0.7     	0.4     	3.133e-06
0.7     	0.45    	3.1381e-06
0.7     	0.5     	3.1404e-06
0.7     	0.55    	3.1415e-06
0.7     	0.6     	3.1418e-06
0.7     	0.65    	3.1419e-06
0.7     	0.7     	3.142e-06
