vg      	vd      	ids     
0       	0       	8.9804e-12
0       	0.05    	5.3168e-10
0       	0.1     	6.1337e-10
0       	0.15    	6.2756e-10
0       	0.2     	6.314e-10
0       	0.25    	6.3356e-10
0       	0.3     	6.3533e-10
0       	0.35    	6.3692e-10
0       	0.4     	6.3838e-10
0       	0.45    	6.3972e-10
0       	0.5     	6.4098e-10
0       	0.55    	6.4216e-10
0       	0.6     	6.4328e-10
0       	0.65    	6.4434e-10
0       	0.7     	6.4535e-10
0.05    	0       	5.8987e-11
0.05    	0.05    	3.4422e-09
0.05    	0.1     	3.9773e-09
0.05    	0.15    	4.0724e-09
0.05    	0.2     	4.0988e-09
0.05    	0.25    	4.1135e-09
0.05    	0.3     	4.1256e-09
0.05    	0.35    	4.1363e-09
0.05    	0.4     	4.1461e-09
0.05    	0.45    	4.1551e-09
0.05    	0.5     	4.1634e-09
0.05    	0.55    	4.1711e-09
0.05    	0.6     	4.1784e-09
0.05    	0.65    	4.1852e-09
0.05    	0.7     	4.1917e-09
0.1     	0       	3.7747e-10
0.1     	0.05    	2.1855e-08
0.1     	0.1     	2.5331e-08
0.1     	0.15    	2.5958e-08
0.1     	0.2     	2.6134e-08
0.1     	0.25    	2.6232e-08
0.1     	0.3     	2.6312e-08
0.1     	0.35    	2.6382e-08
0.1     	0.4     	2.6445e-08
0.1     	0.45    	2.6502e-08
0.1     	0.5     	2.6555e-08
0.1     	0.55    	2.6604e-08
0.1     	0.6     	2.6649e-08
0.1     	0.65    	2.6691e-08
0.1     	0.7     	2.6732e-08
0.15    	0       	2.1387e-09
0.15    	0.05    	1.2778e-07
0.15    	0.1     	1.499e-07
0.15    	0.15    	1.5395e-07
0.15    	0.2     	1.5506e-07
0.15    	0.25    	1.5564e-07
0.15    	0.3     	1.561e-07
0.15    	0.35    	1.565e-07
0.15    	0.4     	1.5685e-07
0.15    	0.45    	1.5718e-07
0.15    	0.5     	1.5747e-07
0.15    	0.55    	1.5773e-07
0.15    	0.6     	1.5798e-07
0.15    	0.65    	1.5821e-07
0.15    	0.7     	1.5842e-07
0.2     	0       	8.1329e-09
0.2     	0.05    	5.5741e-07
0.2     	0.1     	6.7877e-07
0.2     	0.15    	7.0233e-07
0.2     	0.2     	7.0819e-07
0.2     	0.25    	7.1084e-07
0.2     	0.3     	7.1274e-07
0.2     	0.35    	7.1433e-07
0.2     	0.4     	7.1572e-07
0.2     	0.45    	7.1697e-07
0.2     	0.5     	7.1808e-07
0.2     	0.55    	7.1909e-07
0.2     	0.6     	7.2001e-07
0.2     	0.65    	7.2085e-07
0.2     	0.7     	7.2163e-07
0.25    	0       	1.8202e-08
0.25    	0.05    	1.4765e-06
0.25    	0.1     	1.9421e-06
0.25    	0.15    	2.0428e-06
0.25    	0.2     	2.0664e-06
0.25    	0.25    	2.075e-06
0.25    	0.3     	2.0803e-06
0.25    	0.35    	2.0844e-06
0.25    	0.4     	2.0879e-06
0.25    	0.45    	2.091e-06
0.25    	0.5     	2.0938e-06
0.25    	0.55    	2.0962e-06
0.25    	0.6     	2.0984e-06
0.25    	0.65    	2.1004e-06
0.25    	0.7     	2.1023e-06
0.3     	0       	2.9737e-08
0.3     	0.05    	2.6775e-06
0.3     	0.1     	3.8231e-06
0.3     	0.15    	4.1261e-06
0.3     	0.2     	4.1985e-06
0.3     	0.25    	4.2212e-06
0.3     	0.3     	4.2326e-06
0.3     	0.35    	4.2407e-06
0.3     	0.4     	4.2473e-06
0.3     	0.45    	4.253e-06
0.3     	0.5     	4.2587e-06
0.3     	0.55    	4.2632e-06
0.3     	0.6     	4.267e-06
0.3     	0.65    	4.2705e-06
0.3     	0.7     	4.2737e-06
0.35    	0       	4.1288e-08
0.35    	0.05    	3.9353e-06
0.35    	0.1     	6.0412e-06
0.35    	0.15    	6.7323e-06
0.35    	0.2     	6.9174e-06
0.35    	0.25    	6.9687e-06
0.35    	0.3     	6.99e-06
0.35    	0.35    	7.0034e-06
0.35    	0.4     	7.0136e-06
0.35    	0.45    	7.0222e-06
0.35    	0.5     	7.0296e-06
0.35    	0.55    	7.037e-06
0.35    	0.6     	7.0422e-06
0.35    	0.65    	7.0478e-06
0.35    	0.7     	7.0526e-06
0.4     	0       	5.2465e-08
0.4     	0.05    	5.1555e-06
0.4     	0.1     	8.3866e-06
0.4     	0.15    	9.681e-06
0.4     	0.2     	1.0072e-05
0.4     	0.25    	1.0185e-05
0.4     	0.3     	1.0224e-05
0.4     	0.35    	1.0244e-05
0.4     	0.4     	1.0259e-05
0.4     	0.45    	1.027e-05
0.4     	0.5     	1.028e-05
0.4     	0.55    	1.0289e-05
0.4     	0.6     	1.0297e-05
0.4     	0.65    	1.0304e-05
0.4     	0.7     	1.031e-05
0.45    	0       	6.3023e-08
0.45    	0.05    	6.2962e-06
0.45    	0.1     	1.0709e-05
0.45    	0.15    	1.282e-05
0.45    	0.2     	1.3558e-05
0.45    	0.25    	1.3768e-05
0.45    	0.3     	1.3837e-05
0.45    	0.35    	1.3869e-05
0.45    	0.4     	1.3892e-05
0.45    	0.45    	1.3908e-05
0.45    	0.5     	1.3921e-05
0.45    	0.55    	1.3932e-05
0.45    	0.6     	1.3941e-05
0.45    	0.65    	1.395e-05
0.45    	0.7     	1.3957e-05
0.5     	0       	7.3067e-08
0.5     	0.05    	7.3322e-06
0.5     	0.1     	1.283e-05
0.5     	0.15    	1.5997e-05
0.5     	0.2     	1.7225e-05
0.5     	0.25    	1.7634e-05
0.5     	0.3     	1.7763e-05
0.5     	0.35    	1.7806e-05
0.5     	0.4     	1.7841e-05
0.5     	0.45    	1.7851e-05
0.5     	0.5     	1.7879e-05
0.5     	0.55    	1.7889e-05
0.5     	0.6     	1.7897e-05
0.5     	0.65    	1.7908e-05
0.5     	0.7     	1.7916e-05
0.55    	0       	8.1953e-08
0.55    	0.05    	8.2918e-06
0.55    	0.1     	1.4819e-05
0.55    	0.15    	1.9076e-05
0.55    	0.2     	2.1021e-05
0.55    	0.25    	2.1669e-05
0.55    	0.3     	2.1909e-05
0.55    	0.35    	2.1998e-05
0.55    	0.4     	2.2033e-05
0.55    	0.45    	2.2058e-05
0.55    	0.5     	2.2077e-05
0.55    	0.55    	2.2074e-05
0.55    	0.6     	2.21e-05
0.55    	0.65    	2.2105e-05
0.55    	0.7     	2.2123e-05
0.6     	0       	9.0266e-08
0.6     	0.05    	9.0802e-06
0.6     	0.1     	1.6566e-05
0.6     	0.15    	2.1829e-05
0.6     	0.2     	2.465e-05
0.6     	0.25    	2.585e-05
0.6     	0.3     	2.6229e-05
0.6     	0.35    	2.6361e-05
0.6     	0.4     	2.6391e-05
0.6     	0.45    	2.6428e-05
0.6     	0.5     	2.6458e-05
0.6     	0.55    	2.6479e-05
0.6     	0.6     	2.6496e-05
0.6     	0.65    	2.6508e-05
0.6     	0.7     	2.652e-05
0.65    	0       	9.8317e-08
0.65    	0.05    	9.7825e-06
0.65    	0.1     	1.8094e-05
0.65    	0.15    	2.4351e-05
0.65    	0.2     	2.8162e-05
0.65    	0.25    	2.999e-05
0.65    	0.3     	3.0602e-05
0.65    	0.35    	3.087e-05
0.65    	0.4     	3.0958e-05
0.65    	0.45    	3.0995e-05
0.65    	0.5     	3.1037e-05
0.65    	0.55    	3.105e-05
0.65    	0.6     	3.1064e-05
0.65    	0.65    	3.1074e-05
0.65    	0.7     	3.1102e-05
0.7     	0       	1.0565e-07
0.7     	0.05    	1.0409e-05
0.7     	0.1     	1.9454e-05
0.7     	0.15    	2.662e-05
0.7     	0.2     	3.1463e-05
0.7     	0.25    	3.4047e-05
0.7     	0.3     	3.5149e-05
0.7     	0.35    	3.5535e-05
0.7     	0.4     	3.5654e-05
0.7     	0.45    	3.5708e-05
0.7     	0.5     	3.5753e-05
0.7     	0.55    	3.5767e-05
0.7     	0.6     	3.5796e-05
0.7     	0.65    	3.5802e-05
0.7     	0.7     	3.5825e-05
