vg      	vd      	ids     
0       	0       	4.2248e-19
0       	0.05    	1.1201e-15
0       	0.1     	1.2873e-15
0       	0.15    	1.3155e-15
0       	0.2     	1.3234e-15
0       	0.25    	1.3281e-15
0       	0.3     	1.3321e-15
0       	0.35    	1.3359e-15
0       	0.4     	1.3395e-15
0       	0.45    	1.343e-15
0       	0.5     	1.3463e-15
0       	0.55    	1.3494e-15
0       	0.6     	1.3523e-15
0       	0.65    	1.355e-15
0       	0.7     	1.3576e-15
0.05    	0       	2.7675e-18
0.05    	0.05    	7.6995e-15
0.05    	0.1     	8.8452e-15
0.05    	0.15    	9.0404e-15
0.05    	0.2     	9.0954e-15
0.05    	0.25    	9.1286e-15
0.05    	0.3     	9.1573e-15
0.05    	0.35    	9.1841e-15
0.05    	0.4     	9.2095e-15
0.05    	0.45    	9.2337e-15
0.05    	0.5     	9.2567e-15
0.05    	0.55    	9.2787e-15
0.05    	0.6     	9.2995e-15
0.05    	0.65    	9.3191e-15
0.05    	0.7     	9.3375e-15
0.1     	0       	1.8867e-17
0.1     	0.05    	5.2844e-14
0.1     	0.1     	6.0729e-14
0.1     	0.15    	6.2075e-14
0.1     	0.2     	6.2461e-14
0.1     	0.25    	6.2696e-14
0.1     	0.3     	6.2899e-14
0.1     	0.35    	6.3088e-14
0.1     	0.4     	6.3266e-14
0.1     	0.45    	6.3436e-14
0.1     	0.5     	6.3597e-14
0.1     	0.55    	6.3751e-14
0.1     	0.6     	6.3897e-14
0.1     	0.65    	6.4036e-14
0.1     	0.7     	6.4167e-14
0.15    	0       	1.3021e-16
0.15    	0.05    	3.6236e-13
0.15    	0.1     	4.1655e-13
0.15    	0.15    	4.2588e-13
0.15    	0.2     	4.2859e-13
0.15    	0.25    	4.3025e-13
0.15    	0.3     	4.3168e-13
0.15    	0.35    	4.3301e-13
0.15    	0.4     	4.3427e-13
0.15    	0.45    	4.3545e-13
0.15    	0.5     	4.3658e-13
0.15    	0.55    	4.3765e-13
0.15    	0.6     	4.3868e-13
0.15    	0.65    	4.3965e-13
0.15    	0.7     	4.4057e-13
0.2     	0       	1.1436e-15
0.2     	0.05    	2.4731e-12
0.2     	0.1     	2.8453e-12
0.2     	0.15    	2.9098e-12
0.2     	0.2     	2.9289e-12
0.2     	0.25    	2.9406e-12
0.2     	0.3     	2.9507e-12
0.2     	0.35    	2.96e-12
0.2     	0.4     	2.9687e-12
0.2     	0.45    	2.977e-12
0.2     	0.5     	2.9848e-12
0.2     	0.55    	2.9923e-12
0.2     	0.6     	2.9993e-12
0.2     	0.65    	3.0061e-12
0.2     	0.7     	3.0125e-12
0.25    	0       	8.1844e-15
0.25    	0.05    	1.6935e-11
0.25    	0.1     	1.948e-11
0.25    	0.15    	1.9927e-11
0.25    	0.2     	2.0062e-11
0.25    	0.25    	2.0145e-11
0.25    	0.3     	2.0216e-11
0.25    	0.35    	2.0281e-11
0.25    	0.4     	2.0342e-11
0.25    	0.45    	2.0399e-11
0.25    	0.5     	2.0454e-11
0.25    	0.55    	2.0505e-11
0.25    	0.6     	2.0554e-11
0.25    	0.65    	2.0601e-11
0.25    	0.7     	2.0645e-11
0.3     	0       	6.101e-14
0.3     	0.05    	1.1563e-10
0.3     	0.1     	1.331e-10
0.3     	0.15    	1.3619e-10
0.3     	0.2     	1.3714e-10
0.3     	0.25    	1.3773e-10
0.3     	0.3     	1.3822e-10
0.3     	0.35    	1.3868e-10
0.3     	0.4     	1.391e-10
0.3     	0.45    	1.395e-10
0.3     	0.5     	1.3987e-10
0.3     	0.55    	1.4022e-10
0.3     	0.6     	1.4056e-10
0.3     	0.65    	1.4087e-10
0.3     	0.7     	1.4118e-10
0.35    	0       	4.8234e-13
0.35    	0.05    	7.8541e-10
0.35    	0.1     	9.0501e-10
0.35    	0.15    	9.2646e-10
0.35    	0.2     	9.3311e-10
0.35    	0.25    	9.3723e-10
0.35    	0.3     	9.4069e-10
0.35    	0.35    	9.4382e-10
0.35    	0.4     	9.467e-10
0.35    	0.45    	9.4938e-10
0.35    	0.5     	9.5189e-10
0.35    	0.55    	9.5425e-10
0.35    	0.6     	9.5648e-10
0.35    	0.65    	9.5859e-10
0.35    	0.7     	9.606e-10
0.4     	0       	2.3584e-12
0.4     	0.05    	5.2384e-09
0.4     	0.1     	6.0544e-09
0.4     	0.15    	6.2022e-09
0.4     	0.2     	6.248e-09
0.4     	0.25    	6.2758e-09
0.4     	0.3     	6.2988e-09
0.4     	0.35    	6.3192e-09
0.4     	0.4     	6.3378e-09
0.4     	0.45    	6.355e-09
0.4     	0.5     	6.371e-09
0.4     	0.55    	6.3859e-09
0.4     	0.6     	6.3999e-09
0.4     	0.65    	6.4132e-09
0.4     	0.7     	6.4257e-09
0.45    	0       	9.864e-12
0.45    	0.05    	3.1348e-08
0.45    	0.1     	3.6766e-08
0.45    	0.15    	3.775e-08
0.45    	0.2     	3.8034e-08
0.45    	0.25    	3.8193e-08
0.45    	0.3     	3.8318e-08
0.45    	0.35    	3.8427e-08
0.45    	0.4     	3.8524e-08
0.45    	0.45    	3.8613e-08
0.45    	0.5     	3.8695e-08
0.45    	0.55    	3.877e-08
0.45    	0.6     	3.8841e-08
0.45    	0.65    	3.8907e-08
0.45    	0.7     	3.897e-08
0.5     	0       	2.8865e-11
0.5     	0.05    	1.2774e-07
0.5     	0.1     	1.6005e-07
0.5     	0.15    	1.6625e-07
0.5     	0.2     	1.6779e-07
0.5     	0.25    	1.6841e-07
0.5     	0.3     	1.6883e-07
0.5     	0.35    	1.6918e-07
0.5     	0.4     	1.6948e-07
0.5     	0.45    	1.6975e-07
0.5     	0.5     	1.6999e-07
0.5     	0.55    	1.7021e-07
0.5     	0.6     	1.7041e-07
0.5     	0.65    	1.7062e-07
0.5     	0.7     	1.708e-07
0.55    	0       	4.8802e-11
0.55    	0.05    	2.7602e-07
0.55    	0.1     	4.0567e-07
0.55    	0.15    	4.4123e-07
0.55    	0.2     	4.4866e-07
0.55    	0.25    	4.5076e-07
0.55    	0.3     	4.5178e-07
0.55    	0.35    	4.5257e-07
0.55    	0.4     	4.5314e-07
0.55    	0.45    	4.5363e-07
0.55    	0.5     	4.5405e-07
0.55    	0.55    	4.5443e-07
0.55    	0.6     	4.5481e-07
0.55    	0.65    	4.5513e-07
0.55    	0.7     	4.5542e-07
0.6     	0       	6.0527e-11
0.6     	0.05    	3.8007e-07
0.6     	0.1     	6.4911e-07
0.6     	0.15    	7.7971e-07
0.6     	0.2     	8.2052e-07
0.6     	0.25    	8.3057e-07
0.6     	0.3     	8.3345e-07
0.6     	0.35    	8.3498e-07
0.6     	0.4     	8.3592e-07
0.6     	0.45    	8.3664e-07
0.6     	0.5     	8.3731e-07
0.6     	0.55    	8.3783e-07
0.6     	0.6     	8.3829e-07
0.6     	0.65    	8.3871e-07
0.6     	0.7     	8.3911e-07
0.65    	0       	6.7431e-11
0.65    	0.05    	4.3393e-07
0.65    	0.1     	7.9425e-07
0.65    	0.15    	1.044e-06
0.65    	0.2     	1.1773e-06
0.65    	0.25    	1.2245e-06
0.65    	0.3     	1.2367e-06
0.65    	0.35    	1.2409e-06
0.65    	0.4     	1.2427e-06
0.65    	0.45    	1.2439e-06
0.65    	0.5     	1.2448e-06
0.65    	0.55    	1.2455e-06
0.65    	0.6     	1.246e-06
0.65    	0.65    	1.2465e-06
0.65    	0.7     	1.247e-06
0.7     	0       	7.0929e-11
0.7     	0.05    	4.6234e-07
0.7     	0.1     	8.7304e-07
0.7     	0.15    	1.192e-06
0.7     	0.2     	1.4031e-06
0.7     	0.25    	1.541e-06
0.7     	0.3     	1.5956e-06
0.7     	0.35    	1.614e-06
0.7     	0.4     	1.6196e-06
0.7     	0.45    	1.6222e-06
0.7     	0.5     	1.6236e-06
0.7     	0.55    	1.6245e-06
0.7     	0.6     	1.6252e-06
0.7     	0.65    	1.6258e-06
0.7     	0.7     	1.6262e-06
