vg      	vd      	ids     
0       	0       	1.0756e-13
0       	0.05    	2.9646e-10
0       	0.1     	3.4253e-10
0       	0.15    	3.5155e-10
0       	0.2     	3.5498e-10
0       	0.25    	3.574e-10
0       	0.3     	3.5954e-10
0       	0.35    	3.6151e-10
0       	0.4     	3.6335e-10
0       	0.45    	3.6509e-10
0       	0.5     	3.6674e-10
0       	0.55    	3.6831e-10
0       	0.6     	3.698e-10
0       	0.65    	3.7123e-10
0       	0.7     	3.726e-10
0.05    	0       	7.2618e-13
0.05    	0.05    	1.9938e-09
0.05    	0.1     	2.3066e-09
0.05    	0.15    	2.3687e-09
0.05    	0.2     	2.3924e-09
0.05    	0.25    	2.4091e-09
0.05    	0.3     	2.4236e-09
0.05    	0.35    	2.4369e-09
0.05    	0.4     	2.4492e-09
0.05    	0.45    	2.4608e-09
0.05    	0.5     	2.4717e-09
0.05    	0.55    	2.4819e-09
0.05    	0.6     	2.4917e-09
0.05    	0.65    	2.501e-09
0.05    	0.7     	2.5099e-09
0.1     	0       	4.6056e-12
0.1     	0.05    	1.3137e-08
0.1     	0.1     	1.5242e-08
0.1     	0.15    	1.5664e-08
0.1     	0.2     	1.5823e-08
0.1     	0.25    	1.5932e-08
0.1     	0.3     	1.6026e-08
0.1     	0.35    	1.6111e-08
0.1     	0.4     	1.6189e-08
0.1     	0.45    	1.6261e-08
0.1     	0.5     	1.6328e-08
0.1     	0.55    	1.6392e-08
0.1     	0.6     	1.6452e-08
0.1     	0.65    	1.6509e-08
0.1     	0.7     	1.6563e-08
0.15    	0       	2.388e-11
0.15    	0.05    	7.8695e-08
0.15    	0.1     	9.2478e-08
0.15    	0.15    	9.5197e-08
0.15    	0.2     	9.6138e-08
0.15    	0.25    	9.6743e-08
0.15    	0.3     	9.7245e-08
0.15    	0.35    	9.769e-08
0.15    	0.4     	9.8093e-08
0.15    	0.45    	9.8464e-08
0.15    	0.5     	9.8807e-08
0.15    	0.55    	9.9127e-08
0.15    	0.6     	9.9427e-08
0.15    	0.65    	9.971e-08
0.15    	0.7     	9.9978e-08
0.2     	0       	8.47e-11
0.2     	0.05    	3.3758e-07
0.2     	0.1     	4.1625e-07
0.2     	0.15    	4.3168e-07
0.2     	0.2     	4.3594e-07
0.2     	0.25    	4.3816e-07
0.2     	0.3     	4.3984e-07
0.2     	0.35    	4.4127e-07
0.2     	0.4     	4.4254e-07
0.2     	0.45    	4.4369e-07
0.2     	0.5     	4.4474e-07
0.2     	0.55    	4.4571e-07
0.2     	0.6     	4.4661e-07
0.2     	0.65    	4.4745e-07
0.2     	0.7     	4.4824e-07
0.25    	0       	1.6675e-10
0.25    	0.05    	8.3036e-07
0.25    	0.1     	1.1407e-06
0.25    	0.15    	1.2138e-06
0.25    	0.2     	1.2316e-06
0.25    	0.25    	1.2376e-06
0.25    	0.3     	1.2413e-06
0.25    	0.35    	1.2441e-06
0.25    	0.4     	1.2465e-06
0.25    	0.45    	1.2487e-06
0.25    	0.5     	1.2506e-06
0.25    	0.55    	1.2523e-06
0.25    	0.6     	1.2541e-06
0.25    	0.65    	1.2556e-06
0.25    	0.7     	1.2569e-06
0.3     	0       	2.3236e-10
0.3     	0.05    	1.324e-06
0.3     	0.1     	2.0669e-06
0.3     	0.15    	2.329e-06
0.3     	0.2     	2.3946e-06
0.3     	0.25    	2.4117e-06
0.3     	0.3     	2.419e-06
0.3     	0.35    	2.4238e-06
0.3     	0.4     	2.4281e-06
0.3     	0.45    	2.4312e-06
0.3     	0.5     	2.434e-06
0.3     	0.55    	2.4364e-06
0.3     	0.6     	2.4387e-06
0.3     	0.65    	2.4409e-06
0.3     	0.7     	2.4428e-06
0.35    	0       	2.8014e-10
0.35    	0.05    	1.6899e-06
0.35    	0.1     	2.8973e-06
0.35    	0.15    	3.5188e-06
0.35    	0.2     	3.7341e-06
0.35    	0.25    	3.7874e-06
0.35    	0.3     	3.8053e-06
0.35    	0.35    	3.8134e-06
0.35    	0.4     	3.8189e-06
0.35    	0.45    	3.8232e-06
0.35    	0.5     	3.8272e-06
0.35    	0.55    	3.8304e-06
0.35    	0.6     	3.8332e-06
0.35    	0.65    	3.8357e-06
0.35    	0.7     	3.8383e-06
0.4     	0       	3.1566e-10
0.4     	0.05    	1.9421e-06
0.4     	0.1     	3.5104e-06
0.4     	0.15    	4.5476e-06
0.4     	0.2     	5.0613e-06
0.4     	0.25    	5.2262e-06
0.4     	0.3     	5.2744e-06
0.4     	0.35    	5.2907e-06
0.4     	0.4     	5.2999e-06
0.4     	0.45    	5.3058e-06
0.4     	0.5     	5.3104e-06
0.4     	0.55    	5.3146e-06
0.4     	0.6     	5.3179e-06
0.4     	0.65    	5.3209e-06
0.4     	0.7     	5.3238e-06
0.45    	0       	3.429e-10
0.45    	0.05    	2.1166e-06
0.45    	0.1     	3.9304e-06
0.45    	0.15    	5.3049e-06
0.45    	0.2     	6.1862e-06
0.45    	0.25    	6.5912e-06
0.45    	0.3     	6.7259e-06
0.45    	0.35    	6.7688e-06
0.45    	0.4     	6.7846e-06
0.45    	0.45    	6.7938e-06
0.45    	0.5     	6.7998e-06
0.45    	0.55    	6.8044e-06
0.45    	0.6     	6.8086e-06
0.45    	0.65    	6.8119e-06
0.45    	0.7     	6.8149e-06
0.5     	0       	3.6354e-10
0.5     	0.05    	2.2378e-06
0.5     	0.1     	4.2144e-06
0.5     	0.15    	5.8169e-06
0.5     	0.2     	6.9998e-06
0.5     	0.25    	7.7085e-06
0.5     	0.3     	8.0412e-06
0.5     	0.35    	8.1595e-06
0.5     	0.4     	8.2005e-06
0.5     	0.45    	8.2173e-06
0.5     	0.5     	8.2259e-06
0.5     	0.55    	8.2321e-06
0.5     	0.6     	8.2366e-06
0.5     	0.65    	8.2403e-06
0.5     	0.7     	8.2437e-06
0.55    	0       	3.7871e-10
0.55    	0.05    	2.3197e-06
0.55    	0.1     	4.4051e-06
0.55    	0.15    	6.1535e-06
0.55    	0.2     	7.5322e-06
0.55    	0.25    	8.4466e-06
0.55    	0.3     	9.0631e-06
0.55    	0.35    	9.3517e-06
0.55    	0.4     	9.4684e-06
0.55    	0.45    	9.5098e-06
0.55    	0.5     	9.5272e-06
0.55    	0.55    	9.536e-06
0.55    	0.6     	9.5418e-06
0.55    	0.65    	9.5463e-06
0.55    	0.7     	9.5499e-06
0.6     	0       	3.8926e-10
0.6     	0.05    	2.3696e-06
0.6     	0.1     	4.5281e-06
0.6     	0.15    	6.3715e-06
0.6     	0.2     	7.869e-06
0.6     	0.25    	8.9242e-06
0.6     	0.3     	9.6985e-06
0.6     	0.35    	1.0212e-05
0.6     	0.4     	1.0483e-05
0.6     	0.45    	1.06e-05
0.6     	0.5     	1.0646e-05
0.6     	0.55    	1.0666e-05
0.6     	0.6     	1.0676e-05
0.6     	0.65    	1.0682e-05
0.6     	0.7     	1.0686e-05
0.65    	0       	3.9527e-10
0.65    	0.05    	2.3856e-06
0.65    	0.1     	4.5861e-06
0.65    	0.15    	6.4885e-06
0.65    	0.2     	8.0635e-06
0.65    	0.25    	9.2049e-06
0.65    	0.3     	1.0086e-05
0.65    	0.35    	1.0737e-05
0.65    	0.4     	1.1159e-05
0.65    	0.45    	1.1407e-05
0.65    	0.5     	1.1529e-05
0.65    	0.55    	1.1585e-05
0.65    	0.6     	1.1609e-05
0.65    	0.65    	1.1621e-05
0.65    	0.7     	1.1628e-05
0.7     	0       	4.0118e-10
0.7     	0.05    	2.3904e-06
0.7     	0.1     	4.6014e-06
0.7     	0.15    	6.5408e-06
0.7     	0.2     	8.1571e-06
0.7     	0.25    	9.3473e-06
0.7     	0.3     	1.0286e-05
0.7     	0.35    	1.101e-05
0.7     	0.4     	1.15e-05
0.7     	0.45    	1.186e-05
0.7     	0.5     	1.2092e-05
0.7     	0.55    	1.2222e-05
0.7     	0.6     	1.229e-05
0.7     	0.65    	1.2322e-05
0.7     	0.7     	1.2339e-05
