vg      	vd      	ids     
0       	0       	4.262e-12
0       	0.05    	9.3929e-10
0       	0.1     	1.0815e-09
0       	0.15    	1.105e-09
0       	0.2     	1.1108e-09
0       	0.25    	1.1138e-09
0       	0.3     	1.1161e-09
0       	0.35    	1.1182e-09
0       	0.4     	1.1201e-09
0       	0.45    	1.1219e-09
0       	0.5     	1.1235e-09
0       	0.55    	1.1251e-09
0       	0.6     	1.1265e-09
0       	0.65    	1.1279e-09
0       	0.7     	1.1292e-09
0.05    	0       	2.8137e-11
0.05    	0.05    	6.2391e-09
0.05    	0.1     	7.1963e-09
0.05    	0.15    	7.3587e-09
0.05    	0.2     	7.3998e-09
0.05    	0.25    	7.4211e-09
0.05    	0.3     	7.4377e-09
0.05    	0.35    	7.4524e-09
0.05    	0.4     	7.4656e-09
0.05    	0.45    	7.4779e-09
0.05    	0.5     	7.4892e-09
0.05    	0.55    	7.4997e-09
0.05    	0.6     	7.5095e-09
0.05    	0.65    	7.5186e-09
0.05    	0.7     	7.5272e-09
0.1     	0       	1.7835e-10
0.1     	0.05    	3.9696e-08
0.1     	0.1     	4.6053e-08
0.1     	0.15    	4.7155e-08
0.1     	0.2     	4.7441e-08
0.1     	0.25    	4.7587e-08
0.1     	0.3     	4.77e-08
0.1     	0.35    	4.7797e-08
0.1     	0.4     	4.7884e-08
0.1     	0.45    	4.7963e-08
0.1     	0.5     	4.8036e-08
0.1     	0.55    	4.8103e-08
0.1     	0.6     	4.8165e-08
0.1     	0.65    	4.8223e-08
0.1     	0.7     	4.8277e-08
0.15    	0       	8.8672e-10
0.15    	0.05    	2.1715e-07
0.15    	0.1     	2.5754e-07
0.15    	0.15    	2.6479e-07
0.15    	0.2     	2.6661e-07
0.15    	0.25    	2.6748e-07
0.15    	0.3     	2.6812e-07
0.15    	0.35    	2.6866e-07
0.15    	0.4     	2.6913e-07
0.15    	0.45    	2.6954e-07
0.15    	0.5     	2.6992e-07
0.15    	0.55    	2.7027e-07
0.15    	0.6     	2.7059e-07
0.15    	0.65    	2.7089e-07
0.15    	0.7     	2.7116e-07
0.2     	0       	2.6242e-09
0.2     	0.05    	7.8197e-07
0.2     	0.1     	9.8656e-07
0.2     	0.15    	1.0269e-06
0.2     	0.2     	1.0362e-06
0.2     	0.25    	1.0398e-06
0.2     	0.3     	1.0423e-06
0.2     	0.35    	1.0442e-06
0.2     	0.4     	1.0458e-06
0.2     	0.45    	1.0473e-06
0.2     	0.5     	1.0486e-06
0.2     	0.55    	1.0498e-06
0.2     	0.6     	1.0508e-06
0.2     	0.65    	1.0518e-06
0.2     	0.7     	1.0527e-06
0.25    	0       	4.7694e-09
0.25    	0.05    	1.7111e-06
0.25    	0.1     	2.373e-06
0.25    	0.15    	2.5335e-06
0.25    	0.2     	2.5698e-06
0.25    	0.25    	2.5814e-06
0.25    	0.3     	2.5877e-06
0.25    	0.35    	2.5923e-06
0.25    	0.4     	2.5961e-06
0.25    	0.45    	2.5994e-06
0.25    	0.5     	2.6023e-06
0.25    	0.55    	2.6048e-06
0.25    	0.6     	2.6071e-06
0.25    	0.65    	2.6092e-06
0.25    	0.7     	2.6111e-06
0.3     	0       	6.8254e-09
0.3     	0.05    	2.724e-06
0.3     	0.1     	4.1508e-06
0.3     	0.15    	4.6056e-06
0.3     	0.2     	4.7224e-06
0.3     	0.25    	4.7537e-06
0.3     	0.3     	4.7669e-06
0.3     	0.35    	4.7753e-06
0.3     	0.4     	4.7819e-06
0.3     	0.45    	4.7874e-06
0.3     	0.5     	4.7921e-06
0.3     	0.55    	4.7963e-06
0.3     	0.6     	4.8005e-06
0.3     	0.65    	4.8039e-06
0.3     	0.7     	4.8069e-06
0.35    	0       	8.6311e-09
0.35    	0.05    	3.6632e-06
0.35    	0.1     	6.0184e-06
0.35    	0.15    	6.9997e-06
0.35    	0.2     	7.2991e-06
0.35    	0.25    	7.3815e-06
0.35    	0.3     	7.4086e-06
0.35    	0.35    	7.4226e-06
0.35    	0.4     	7.4326e-06
0.35    	0.45    	7.4405e-06
0.35    	0.5     	7.4473e-06
0.35    	0.55    	7.4532e-06
0.35    	0.6     	7.459e-06
0.35    	0.65    	7.4637e-06
0.35    	0.7     	7.4679e-06
0.4     	0       	1.0173e-08
0.4     	0.05    	4.4812e-06
0.4     	0.1     	7.7706e-06
0.4     	0.15    	9.491e-06
0.4     	0.2     	1.0135e-05
0.4     	0.25    	1.0327e-05
0.4     	0.3     	1.0388e-05
0.4     	0.35    	1.0412e-05
0.4     	0.4     	1.0426e-05
0.4     	0.45    	1.0437e-05
0.4     	0.5     	1.0446e-05
0.4     	0.55    	1.0453e-05
0.4     	0.6     	1.0461e-05
0.4     	0.65    	1.0467e-05
0.4     	0.7     	1.0472e-05
0.45    	0       	1.1484e-08
0.45    	0.05    	5.1644e-06
0.45    	0.1     	9.2907e-06
0.45    	0.15    	1.1868e-05
0.45    	0.2     	1.3052e-05
0.45    	0.25    	1.3474e-05
0.45    	0.3     	1.3594e-05
0.45    	0.35    	1.3638e-05
0.45    	0.4     	1.3661e-05
0.45    	0.45    	1.3676e-05
0.45    	0.5     	1.3687e-05
0.45    	0.55    	1.3697e-05
0.45    	0.6     	1.3705e-05
0.45    	0.65    	1.3713e-05
0.45    	0.7     	1.3719e-05
0.5     	0       	1.2547e-08
0.5     	0.05    	5.7175e-06
0.5     	0.1     	1.0537e-05
0.5     	0.15    	1.3963e-05
0.5     	0.2     	1.5853e-05
0.5     	0.25    	1.6668e-05
0.5     	0.3     	1.693e-05
0.5     	0.35    	1.7014e-05
0.5     	0.4     	1.7049e-05
0.5     	0.45    	1.707e-05
0.5     	0.5     	1.7085e-05
0.5     	0.55    	1.7096e-05
0.5     	0.6     	1.7106e-05
0.5     	0.65    	1.7115e-05
0.5     	0.7     	1.7122e-05
0.55    	0       	1.3432e-08
0.55    	0.05    	6.1591e-06
0.55    	0.1     	1.1527e-05
0.55    	0.15    	1.5689e-05
0.55    	0.2     	1.8347e-05
0.55    	0.25    	1.9739e-05
0.55    	0.3     	2.0266e-05
0.55    	0.35    	2.0446e-05
0.55    	0.4     	2.051e-05
0.55    	0.45    	2.0542e-05
0.55    	0.5     	2.056e-05
0.55    	0.55    	2.0574e-05
0.55    	0.6     	2.0585e-05
0.55    	0.65    	2.0595e-05
0.55    	0.7     	2.0603e-05
0.6     	0       	1.4164e-08
0.6     	0.05    	6.507e-06
0.6     	0.1     	1.2303e-05
0.6     	0.15    	1.7047e-05
0.6     	0.2     	2.0408e-05
0.6     	0.25    	2.2424e-05
0.6     	0.3     	2.3447e-05
0.6     	0.35    	2.3823e-05
0.6     	0.4     	2.3957e-05
0.6     	0.45    	2.4011e-05
0.6     	0.5     	2.4037e-05
0.6     	0.55    	2.4054e-05
0.6     	0.6     	2.4068e-05
0.6     	0.65    	2.4078e-05
0.6     	0.7     	2.4087e-05
0.65    	0       	1.4729e-08
0.65    	0.05    	6.7914e-06
0.65    	0.1     	1.2921e-05
0.65    	0.15    	1.8103e-05
0.65    	0.2     	2.2036e-05
0.65    	0.25    	2.4654e-05
0.65    	0.3     	2.6262e-05
0.65    	0.35    	2.7007e-05
0.65    	0.4     	2.7285e-05
0.65    	0.45    	2.7389e-05
0.65    	0.5     	2.7432e-05
0.65    	0.55    	2.7456e-05
0.65    	0.6     	2.7472e-05
0.65    	0.65    	2.7484e-05
0.65    	0.7     	2.7494e-05
0.7     	0       	1.4918e-08
0.7     	0.05    	6.9634e-06
0.7     	0.1     	1.3372e-05
0.7     	0.15    	1.89e-05
0.7     	0.2     	2.3257e-05
0.7     	0.25    	2.6398e-05
0.7     	0.3     	2.8709e-05
0.7     	0.35    	2.9922e-05
0.7     	0.4     	3.0452e-05
0.7     	0.45    	3.0638e-05
0.7     	0.5     	3.0712e-05
0.7     	0.55    	3.0749e-05
0.7     	0.6     	3.0771e-05
0.7     	0.65    	3.0786e-05
0.7     	0.7     	3.0797e-05
