vg      	vd      	ids     
0       	0       	5.2373e-12
0       	0.05    	5.4919e-10
0       	0.1     	6.3506e-10
0       	0.15    	6.4985e-10
0       	0.2     	6.5363e-10
0       	0.25    	6.5563e-10
0       	0.3     	6.5725e-10
0       	0.35    	6.5869e-10
0       	0.4     	6.6002e-10
0       	0.45    	6.6124e-10
0       	0.5     	6.6238e-10
0       	0.55    	6.6344e-10
0       	0.6     	6.6445e-10
0       	0.65    	6.6541e-10
0       	0.7     	6.6632e-10
0.05    	0       	3.4399e-11
0.05    	0.05    	3.5031e-09
0.05    	0.1     	4.0589e-09
0.05    	0.15    	4.1568e-09
0.05    	0.2     	4.1825e-09
0.05    	0.25    	4.196e-09
0.05    	0.3     	4.2069e-09
0.05    	0.35    	4.2166e-09
0.05    	0.4     	4.2254e-09
0.05    	0.45    	4.2335e-09
0.05    	0.5     	4.241e-09
0.05    	0.55    	4.2479e-09
0.05    	0.6     	4.2544e-09
0.05    	0.65    	4.2605e-09
0.05    	0.7     	4.2663e-09
0.1     	0       	2.1876e-10
0.1     	0.05    	2.1917e-08
0.1     	0.1     	2.5474e-08
0.1     	0.15    	2.6112e-08
0.1     	0.2     	2.6283e-08
0.1     	0.25    	2.6372e-08
0.1     	0.3     	2.6443e-08
0.1     	0.35    	2.6506e-08
0.1     	0.4     	2.6563e-08
0.1     	0.45    	2.6614e-08
0.1     	0.5     	2.6662e-08
0.1     	0.55    	2.6705e-08
0.1     	0.6     	2.6746e-08
0.1     	0.65    	2.6784e-08
0.1     	0.7     	2.6819e-08
0.15    	0       	1.2132e-09
0.15    	0.05    	1.2663e-07
0.15    	0.1     	1.4894e-07
0.15    	0.15    	1.5302e-07
0.15    	0.2     	1.541e-07
0.15    	0.25    	1.5464e-07
0.15    	0.3     	1.5505e-07
0.15    	0.35    	1.5541e-07
0.15    	0.4     	1.5573e-07
0.15    	0.45    	1.5603e-07
0.15    	0.5     	1.5629e-07
0.15    	0.55    	1.5653e-07
0.15    	0.6     	1.5675e-07
0.15    	0.65    	1.5696e-07
0.15    	0.7     	1.5715e-07
0.2     	0       	4.5531e-09
0.2     	0.05    	5.4581e-07
0.2     	0.1     	6.6854e-07
0.2     	0.15    	6.9218e-07
0.2     	0.2     	6.9798e-07
0.2     	0.25    	7.0052e-07
0.2     	0.3     	7.0229e-07
0.2     	0.35    	7.0378e-07
0.2     	0.4     	7.0508e-07
0.2     	0.45    	7.0624e-07
0.2     	0.5     	7.0729e-07
0.2     	0.55    	7.0824e-07
0.2     	0.6     	7.0911e-07
0.2     	0.65    	7.099e-07
0.2     	0.7     	7.1063e-07
0.25    	0       	1.0166e-08
0.25    	0.05    	1.4459e-06
0.25    	0.1     	1.9059e-06
0.25    	0.15    	2.0068e-06
0.25    	0.2     	2.0302e-06
0.25    	0.25    	2.0386e-06
0.25    	0.3     	2.0437e-06
0.25    	0.35    	2.0477e-06
0.25    	0.4     	2.0511e-06
0.25    	0.45    	2.0541e-06
0.25    	0.5     	2.0567e-06
0.25    	0.55    	2.0591e-06
0.25    	0.6     	2.0612e-06
0.25    	0.65    	2.0632e-06
0.25    	0.7     	2.065e-06
0.3     	0       	1.6635e-08
0.3     	0.05    	2.6258e-06
0.3     	0.1     	3.7526e-06
0.3     	0.15    	4.0525e-06
0.3     	0.2     	4.1242e-06
0.3     	0.25    	4.1465e-06
0.3     	0.3     	4.1576e-06
0.3     	0.35    	4.1654e-06
0.3     	0.4     	4.1718e-06
0.3     	0.45    	4.1773e-06
0.3     	0.5     	4.1822e-06
0.3     	0.55    	4.1865e-06
0.3     	0.6     	4.191e-06
0.3     	0.65    	4.1945e-06
0.3     	0.7     	4.1977e-06
0.35    	0       	2.3142e-08
0.35    	0.05    	3.8707e-06
0.35    	0.1     	5.9408e-06
0.35    	0.15    	6.6181e-06
0.35    	0.2     	6.8001e-06
0.35    	0.25    	6.8503e-06
0.35    	0.3     	6.871e-06
0.35    	0.35    	6.8839e-06
0.35    	0.4     	6.8937e-06
0.35    	0.45    	6.902e-06
0.35    	0.5     	6.9092e-06
0.35    	0.55    	6.9156e-06
0.35    	0.6     	6.9213e-06
0.35    	0.65    	6.9264e-06
0.35    	0.7     	6.9317e-06
0.4     	0       	2.9378e-08
0.4     	0.05    	5.0879e-06
0.4     	0.1     	8.2695e-06
0.4     	0.15    	9.5323e-06
0.4     	0.2     	9.913e-06
0.4     	0.25    	1.0023e-05
0.4     	0.3     	1.006e-05
0.4     	0.35    	1.008e-05
0.4     	0.4     	1.0094e-05
0.4     	0.45    	1.0105e-05
0.4     	0.5     	1.0115e-05
0.4     	0.55    	1.0123e-05
0.4     	0.6     	1.0131e-05
0.4     	0.65    	1.0137e-05
0.4     	0.7     	1.0143e-05
0.45    	0       	3.5169e-08
0.45    	0.05    	6.2354e-06
0.45    	0.1     	1.0595e-05
0.45    	0.15    	1.2652e-05
0.45    	0.2     	1.3354e-05
0.45    	0.25    	1.3567e-05
0.45    	0.3     	1.3634e-05
0.45    	0.35    	1.3664e-05
0.45    	0.4     	1.3683e-05
0.45    	0.45    	1.3698e-05
0.45    	0.5     	1.3712e-05
0.45    	0.55    	1.3723e-05
0.45    	0.6     	1.3733e-05
0.45    	0.65    	1.3741e-05
0.45    	0.7     	1.3748e-05
0.5     	0       	4.0514e-08
0.5     	0.05    	7.2849e-06
0.5     	0.1     	1.2738e-05
0.5     	0.15    	1.5834e-05
0.5     	0.2     	1.7016e-05
0.5     	0.25    	1.7402e-05
0.5     	0.3     	1.7519e-05
0.5     	0.35    	1.7582e-05
0.5     	0.4     	1.76e-05
0.5     	0.45    	1.7614e-05
0.5     	0.5     	1.7633e-05
0.5     	0.55    	1.764e-05
0.5     	0.6     	1.7659e-05
0.5     	0.65    	1.7671e-05
0.5     	0.7     	1.7676e-05
0.55    	0       	4.5007e-08
0.55    	0.05    	8.2669e-06
0.55    	0.1     	1.4764e-05
0.55    	0.15    	1.8946e-05
0.55    	0.2     	2.0821e-05
0.55    	0.25    	2.1433e-05
0.55    	0.3     	2.166e-05
0.55    	0.35    	2.1738e-05
0.55    	0.4     	2.1774e-05
0.55    	0.45    	2.1797e-05
0.55    	0.5     	2.1817e-05
0.55    	0.55    	2.1828e-05
0.55    	0.6     	2.1845e-05
0.55    	0.65    	2.1851e-05
0.55    	0.7     	2.1854e-05
0.6     	0       	4.9067e-08
0.6     	0.05    	9.0742e-06
0.6     	0.1     	1.6551e-05
0.6     	0.15    	2.1765e-05
0.6     	0.2     	2.4532e-05
0.6     	0.25    	2.5571e-05
0.6     	0.3     	2.5977e-05
0.6     	0.35    	2.6098e-05
0.6     	0.4     	2.6131e-05
0.6     	0.45    	2.6167e-05
0.6     	0.5     	2.6195e-05
0.6     	0.55    	2.6198e-05
0.6     	0.6     	2.6218e-05
0.6     	0.65    	2.6237e-05
0.6     	0.7     	2.6251e-05
0.65    	0       	5.2606e-08
0.65    	0.05    	9.7872e-06
0.65    	0.1     	1.8106e-05
0.65    	0.15    	2.4318e-05
0.65    	0.2     	2.8033e-05
0.65    	0.25    	2.978e-05
0.65    	0.3     	3.0395e-05
0.65    	0.35    	3.06e-05
0.65    	0.4     	3.0678e-05
0.65    	0.45    	3.072e-05
0.65    	0.5     	3.0743e-05
0.65    	0.55    	3.0762e-05
0.65    	0.6     	3.0777e-05
0.65    	0.65    	3.0791e-05
0.65    	0.7     	3.0802e-05
0.7     	0       	5.5895e-08
0.7     	0.05    	1.0416e-05
0.7     	0.1     	1.9482e-05
0.7     	0.15    	2.66e-05
0.7     	0.2     	3.1369e-05
0.7     	0.25    	3.3846e-05
0.7     	0.3     	3.4867e-05
0.7     	0.35    	3.522e-05
0.7     	0.4     	3.5348e-05
0.7     	0.45    	3.5405e-05
0.7     	0.5     	3.5436e-05
0.7     	0.55    	3.5459e-05
0.7     	0.6     	3.5476e-05
0.7     	0.65    	3.5491e-05
0.7     	0.7     	3.5504e-05
