vg      	vd      	ids     
0       	0       	9.9566e-12
0       	0.05    	6.8278e-09
0       	0.1     	8.7877e-09
0       	0.15    	9.921e-09
0       	0.2     	1.0913e-08
0       	0.25    	1.183e-08
0       	0.3     	1.2728e-08
0       	0.35    	1.3634e-08
0       	0.4     	1.455e-08
0       	0.45    	1.5462e-08
0       	0.5     	1.6342e-08
0       	0.55    	1.7188e-08
0       	0.6     	1.8027e-08
0       	0.65    	1.8868e-08
0       	0.7     	1.9717e-08
0.05    	0       	4.6077e-11
0.05    	0.05    	3.2742e-08
0.05    	0.1     	4.2474e-08
0.05    	0.15    	4.7864e-08
0.05    	0.2     	5.2238e-08
0.05    	0.25    	5.644e-08
0.05    	0.3     	6.0559e-08
0.05    	0.35    	6.4441e-08
0.05    	0.4     	6.8134e-08
0.05    	0.45    	7.177e-08
0.05    	0.5     	7.5391e-08
0.05    	0.55    	7.8998e-08
0.05    	0.6     	8.2566e-08
0.05    	0.65    	8.6031e-08
0.05    	0.7     	8.9343e-08
0.1     	0       	1.726e-10
0.1     	0.05    	1.3369e-07
0.1     	0.1     	1.7512e-07
0.1     	0.15    	1.9539e-07
0.1     	0.2     	2.1098e-07
0.1     	0.25    	2.2458e-07
0.1     	0.3     	2.3736e-07
0.1     	0.35    	2.4965e-07
0.1     	0.4     	2.6128e-07
0.1     	0.45    	2.7209e-07
0.1     	0.5     	2.8236e-07
0.1     	0.55    	2.9236e-07
0.1     	0.6     	3.0211e-07
0.1     	0.65    	3.1165e-07
0.1     	0.7     	3.2096e-07
0.15    	0       	4.5385e-10
0.15    	0.05    	4.0111e-07
0.15    	0.1     	5.3624e-07
0.15    	0.15    	5.9109e-07
0.15    	0.2     	6.2659e-07
0.15    	0.25    	6.5579e-07
0.15    	0.3     	6.8158e-07
0.15    	0.35    	7.0542e-07
0.15    	0.4     	7.2779e-07
0.15    	0.45    	7.4864e-07
0.15    	0.5     	7.6797e-07
0.15    	0.55    	7.8607e-07
0.15    	0.6     	8.0327e-07
0.15    	0.65    	8.2135e-07
0.15    	0.7     	8.3735e-07
0.2     	0       	8.2708e-10
0.2     	0.05    	8.4031e-07
0.2     	0.1     	1.1719e-06
0.2     	0.15    	1.2932e-06
0.2     	0.2     	1.3529e-06
0.2     	0.25    	1.3968e-06
0.2     	0.3     	1.4341e-06
0.2     	0.35    	1.4672e-06
0.2     	0.4     	1.4975e-06
0.2     	0.45    	1.5257e-06
0.2     	0.5     	1.5546e-06
0.2     	0.55    	1.5791e-06
0.2     	0.6     	1.6019e-06
0.2     	0.65    	1.6233e-06
0.2     	0.7     	1.6436e-06
0.25    	0       	1.1857e-09
0.25    	0.05    	1.3414e-06
0.25    	0.1     	1.9866e-06
0.25    	0.15    	2.2205e-06
0.25    	0.2     	2.3197e-06
0.25    	0.25    	2.3769e-06
0.25    	0.3     	2.4222e-06
0.25    	0.35    	2.4616e-06
0.25    	0.4     	2.5005e-06
0.25    	0.45    	2.5327e-06
0.25    	0.5     	2.5623e-06
0.25    	0.55    	2.59e-06
0.25    	0.6     	2.6159e-06
0.25    	0.65    	2.6404e-06
0.25    	0.7     	2.6635e-06
0.3     	0       	1.4898e-09
0.3     	0.05    	1.8105e-06
0.3     	0.1     	2.8568e-06
0.3     	0.15    	3.2892e-06
0.3     	0.2     	3.443e-06
0.3     	0.25    	3.5165e-06
0.3     	0.3     	3.5688e-06
0.3     	0.35    	3.6165e-06
0.3     	0.4     	3.6549e-06
0.3     	0.45    	3.6894e-06
0.3     	0.5     	3.721e-06
0.3     	0.55    	3.7501e-06
0.3     	0.6     	3.7772e-06
0.3     	0.65    	3.8026e-06
0.3     	0.7     	3.8288e-06
0.35    	0       	1.7415e-09
0.35    	0.05    	2.2129e-06
0.35    	0.1     	3.6883e-06
0.35    	0.15    	4.4025e-06
0.35    	0.2     	4.6606e-06
0.35    	0.25    	4.7604e-06
0.35    	0.3     	4.821e-06
0.35    	0.35    	4.8725e-06
0.35    	0.4     	4.9128e-06
0.35    	0.45    	4.9485e-06
0.35    	0.5     	4.981e-06
0.35    	0.55    	5.0108e-06
0.35    	0.6     	5.0384e-06
0.35    	0.65    	5.0666e-06
0.35    	0.7     	5.091e-06
0.4     	0       	1.9473e-09
0.4     	0.05    	2.5468e-06
0.4     	0.1     	4.4277e-06
0.4     	0.15    	5.4967e-06
0.4     	0.2     	5.9159e-06
0.4     	0.25    	6.0694e-06
0.4     	0.3     	6.1431e-06
0.4     	0.35    	6.1945e-06
0.4     	0.4     	6.2405e-06
0.4     	0.45    	6.2773e-06
0.4     	0.5     	6.3101e-06
0.4     	0.55    	6.3398e-06
0.4     	0.6     	6.3673e-06
0.4     	0.65    	6.3949e-06
0.4     	0.7     	6.419e-06
0.45    	0       	2.1289e-09
0.45    	0.05    	2.8214e-06
0.45    	0.1     	5.0566e-06
0.45    	0.15    	6.5105e-06
0.45    	0.2     	7.1675e-06
0.45    	0.25    	7.4044e-06
0.45    	0.3     	7.5078e-06
0.45    	0.35    	7.5663e-06
0.45    	0.4     	7.6141e-06
0.45    	0.45    	7.6515e-06
0.45    	0.5     	7.6842e-06
0.45    	0.55    	7.7137e-06
0.45    	0.6     	7.7406e-06
0.45    	0.65    	7.7675e-06
0.45    	0.7     	7.7909e-06
0.5     	0       	2.2816e-09
0.5     	0.05    	3.0473e-06
0.5     	0.1     	5.5788e-06
0.5     	0.15    	7.4017e-06
0.5     	0.2     	8.3631e-06
0.5     	0.25    	8.7481e-06
0.5     	0.3     	8.8931e-06
0.5     	0.35    	8.963e-06
0.5     	0.4     	9.0139e-06
0.5     	0.45    	9.0521e-06
0.5     	0.5     	9.0845e-06
0.5     	0.55    	9.1134e-06
0.5     	0.6     	9.1415e-06
0.5     	0.65    	9.1658e-06
0.5     	0.7     	9.1878e-06
0.55    	0       	2.4146e-09
0.55    	0.05    	3.2339e-06
0.55    	0.1     	6.0079e-06
0.55    	0.15    	8.0917e-06
0.55    	0.2     	9.4193e-06
0.55    	0.25    	1.0045e-05
0.55    	0.3     	1.0268e-05
0.55    	0.35    	1.0365e-05
0.55    	0.4     	1.042e-05
0.55    	0.45    	1.0462e-05
0.55    	0.5     	1.0495e-05
0.55    	0.55    	1.0524e-05
0.55    	0.6     	1.0551e-05
0.55    	0.65    	1.0574e-05
0.55    	0.7     	1.0595e-05
0.6     	0       	2.5314e-09
0.6     	0.05    	3.3892e-06
0.6     	0.1     	6.3601e-06
0.6     	0.15    	8.7046e-06
0.6     	0.2     	1.035e-05
0.6     	0.25    	1.1253e-05
0.6     	0.3     	1.1615e-05
0.6     	0.35    	1.1756e-05
0.6     	0.4     	1.1822e-05
0.6     	0.45    	1.1868e-05
0.6     	0.5     	1.1902e-05
0.6     	0.55    	1.1929e-05
0.6     	0.6     	1.1955e-05
0.6     	0.65    	1.1978e-05
0.6     	0.7     	1.1997e-05
0.65    	0       	2.6359e-09
0.65    	0.05    	3.5192e-06
0.65    	0.1     	6.6503e-06
0.65    	0.15    	9.206e-06
0.65    	0.2     	1.1124e-05
0.65    	0.25    	1.229e-05
0.65    	0.3     	1.288e-05
0.65    	0.35    	1.3103e-05
0.65    	0.4     	1.32e-05
0.65    	0.45    	1.3254e-05
0.65    	0.5     	1.329e-05
0.65    	0.55    	1.3319e-05
0.65    	0.6     	1.3343e-05
0.65    	0.65    	1.3364e-05
0.65    	0.7     	1.3384e-05
0.7     	0       	2.7278e-09
0.7     	0.05    	3.6289e-06
0.7     	0.1     	6.8913e-06
0.7     	0.15    	9.6163e-06
0.7     	0.2     	1.1755e-05
0.7     	0.25    	1.318e-05
0.7     	0.3     	1.4017e-05
0.7     	0.35    	1.4386e-05
0.7     	0.4     	1.4536e-05
0.7     	0.45    	1.4607e-05
0.7     	0.5     	1.4647e-05
0.7     	0.55    	1.4678e-05
0.7     	0.6     	1.4702e-05
0.7     	0.65    	1.4724e-05
0.7     	0.7     	1.4742e-05
