vg      	vd      	ids     
0       	0       	5.059e-18
0       	0.05    	7.9592e-16
0       	0.1     	9.1095e-16
0       	0.15    	9.2812e-16
0       	0.2     	9.3105e-16
0       	0.25    	9.3191e-16
0       	0.3     	9.3244e-16
0       	0.35    	9.329e-16
0       	0.4     	9.3333e-16
0       	0.45    	9.3373e-16
0       	0.5     	9.3411e-16
0       	0.55    	9.3448e-16
0       	0.6     	9.3482e-16
0       	0.65    	9.3515e-16
0       	0.7     	9.3547e-16
0.05    	0       	3.9013e-17
0.05    	0.05    	5.4986e-15
0.05    	0.1     	6.2929e-15
0.05    	0.15    	6.4117e-15
0.05    	0.2     	6.4324e-15
0.05    	0.25    	6.4386e-15
0.05    	0.3     	6.4425e-15
0.05    	0.35    	6.4458e-15
0.05    	0.4     	6.449e-15
0.05    	0.45    	6.4519e-15
0.05    	0.5     	6.4547e-15
0.05    	0.55    	6.4573e-15
0.05    	0.6     	6.4599e-15
0.05    	0.65    	6.4622e-15
0.05    	0.7     	6.4645e-15
0.1     	0       	3.0272e-16
0.1     	0.05    	3.7991e-14
0.1     	0.1     	4.3479e-14
0.1     	0.15    	4.4302e-14
0.1     	0.2     	4.4447e-14
0.1     	0.25    	4.4492e-14
0.1     	0.3     	4.4521e-14
0.1     	0.35    	4.4546e-14
0.1     	0.4     	4.4569e-14
0.1     	0.45    	4.459e-14
0.1     	0.5     	4.461e-14
0.1     	0.55    	4.463e-14
0.1     	0.6     	4.4648e-14
0.1     	0.65    	4.4665e-14
0.1     	0.7     	4.4682e-14
0.15    	0       	2.724e-15
0.15    	0.05    	2.6146e-13
0.15    	0.1     	2.9937e-13
0.15    	0.15    	3.0507e-13
0.15    	0.2     	3.0609e-13
0.15    	0.25    	3.0642e-13
0.15    	0.3     	3.0663e-13
0.15    	0.35    	3.0682e-13
0.15    	0.4     	3.0699e-13
0.15    	0.45    	3.0715e-13
0.15    	0.5     	3.0729e-13
0.15    	0.55    	3.0743e-13
0.15    	0.6     	3.0757e-13
0.15    	0.65    	3.0769e-13
0.15    	0.7     	3.0781e-13
0.2     	0       	1.4593e-14
0.2     	0.05    	1.8274e-12
0.2     	0.1     	2.0878e-12
0.2     	0.15    	2.1274e-12
0.2     	0.2     	2.1346e-12
0.2     	0.25    	2.137e-12
0.2     	0.3     	2.1386e-12
0.2     	0.35    	2.14e-12
0.2     	0.4     	2.1413e-12
0.2     	0.45    	2.1424e-12
0.2     	0.5     	2.1435e-12
0.2     	0.55    	2.1446e-12
0.2     	0.6     	2.1455e-12
0.2     	0.65    	2.1465e-12
0.2     	0.7     	2.1473e-12
0.25    	0       	9.6499e-14
0.25    	0.05    	1.2547e-11
0.25    	0.1     	1.4372e-11
0.25    	0.15    	1.4646e-11
0.25    	0.2     	1.4697e-11
0.25    	0.25    	1.4715e-11
0.25    	0.3     	1.4727e-11
0.25    	0.35    	1.4737e-11
0.25    	0.4     	1.4747e-11
0.25    	0.45    	1.4756e-11
0.25    	0.5     	1.4764e-11
0.25    	0.55    	1.4771e-11
0.25    	0.6     	1.4778e-11
0.25    	0.65    	1.4785e-11
0.25    	0.7     	1.4791e-11
0.3     	0       	5.1867e-13
0.3     	0.05    	8.6129e-11
0.3     	0.1     	9.8681e-11
0.3     	0.15    	1.0061e-10
0.3     	0.2     	1.0098e-10
0.3     	0.25    	1.0111e-10
0.3     	0.3     	1.012e-10
0.3     	0.35    	1.0128e-10
0.3     	0.4     	1.0135e-10
0.3     	0.45    	1.0141e-10
0.3     	0.5     	1.0147e-10
0.3     	0.55    	1.0153e-10
0.3     	0.6     	1.0158e-10
0.3     	0.65    	1.0163e-10
0.3     	0.7     	1.0167e-10
0.35    	0       	2.9612e-12
0.35    	0.05    	5.8848e-10
0.35    	0.1     	6.7493e-10
0.35    	0.15    	6.8832e-10
0.35    	0.2     	6.9097e-10
0.35    	0.25    	6.9197e-10
0.35    	0.3     	6.9266e-10
0.35    	0.35    	6.9325e-10
0.35    	0.4     	6.9377e-10
0.35    	0.45    	6.9425e-10
0.35    	0.5     	6.9469e-10
0.35    	0.55    	6.951e-10
0.35    	0.6     	6.9548e-10
0.35    	0.65    	6.9583e-10
0.35    	0.7     	6.9616e-10
0.4     	0       	1.5155e-11
0.4     	0.05    	4.0038e-09
0.4     	0.1     	4.5962e-09
0.4     	0.15    	4.6896e-09
0.4     	0.2     	4.7088e-09
0.4     	0.25    	4.7164e-09
0.4     	0.3     	4.7216e-09
0.4     	0.35    	4.7261e-09
0.4     	0.4     	4.7301e-09
0.4     	0.45    	4.7336e-09
0.4     	0.5     	4.7368e-09
0.4     	0.55    	4.7398e-09
0.4     	0.6     	4.7426e-09
0.4     	0.65    	4.7451e-09
0.4     	0.7     	4.7475e-09
0.45    	0       	1.1748e-10
0.45    	0.05    	2.5651e-08
0.45    	0.1     	2.9695e-08
0.45    	0.15    	3.0344e-08
0.45    	0.2     	3.0482e-08
0.45    	0.25    	3.0538e-08
0.45    	0.3     	3.0577e-08
0.45    	0.35    	3.0609e-08
0.45    	0.4     	3.0637e-08
0.45    	0.45    	3.0662e-08
0.45    	0.5     	3.0684e-08
0.45    	0.55    	3.0705e-08
0.45    	0.6     	3.0723e-08
0.45    	0.65    	3.0741e-08
0.45    	0.7     	3.0757e-08
0.5     	0       	6.3372e-10
0.5     	0.05    	1.3262e-07
0.5     	0.1     	1.5849e-07
0.5     	0.15    	1.629e-07
0.5     	0.2     	1.6383e-07
0.5     	0.25    	1.6417e-07
0.5     	0.3     	1.644e-07
0.5     	0.35    	1.6458e-07
0.5     	0.4     	1.6474e-07
0.5     	0.45    	1.6488e-07
0.5     	0.5     	1.65e-07
0.5     	0.55    	1.6511e-07
0.5     	0.6     	1.6521e-07
0.5     	0.65    	1.653e-07
0.5     	0.7     	1.6539e-07
0.55    	0       	1.6401e-09
0.55    	0.05    	4.1171e-07
0.55    	0.1     	5.3895e-07
0.55    	0.15    	5.6463e-07
0.55    	0.2     	5.6971e-07
0.55    	0.25    	5.7124e-07
0.55    	0.3     	5.7206e-07
0.55    	0.35    	5.7268e-07
0.55    	0.4     	5.7319e-07
0.55    	0.45    	5.7363e-07
0.55    	0.5     	5.7402e-07
0.55    	0.55    	5.7436e-07
0.55    	0.6     	5.7467e-07
0.55    	0.65    	5.7496e-07
0.55    	0.7     	5.7522e-07
0.6     	0       	2.5532e-09
0.6     	0.05    	7.5565e-07
0.6     	0.1     	1.1344e-06
0.6     	0.15    	1.2458e-06
0.6     	0.2     	1.2678e-06
0.6     	0.25    	1.2743e-06
0.6     	0.3     	1.2778e-06
0.6     	0.35    	1.2784e-06
0.6     	0.4     	1.2798e-06
0.6     	0.45    	1.2802e-06
0.6     	0.5     	1.2812e-06
0.6     	0.55    	1.2827e-06
0.6     	0.6     	1.2824e-06
0.6     	0.65    	1.2834e-06
0.6     	0.7     	1.2833e-06
0.65    	0       	3.3336e-09
0.65    	0.05    	1.0281e-06
0.65    	0.1     	1.7261e-06
0.65    	0.15    	2.0488e-06
0.65    	0.2     	2.1422e-06
0.65    	0.25    	2.1644e-06
0.65    	0.3     	2.1663e-06
0.65    	0.35    	2.1683e-06
0.65    	0.4     	2.1741e-06
0.65    	0.45    	2.1739e-06
0.65    	0.5     	2.1716e-06
0.65    	0.55    	2.1767e-06
0.65    	0.6     	2.175e-06
0.65    	0.65    	2.1786e-06
0.65    	0.7     	2.1786e-06
0.7     	0       	3.795e-09
0.7     	0.05    	1.2203e-06
0.7     	0.1     	2.1843e-06
0.7     	0.15    	2.8001e-06
0.7     	0.2     	3.0594e-06
0.7     	0.25    	3.1277e-06
0.7     	0.3     	3.1413e-06
0.7     	0.35    	3.1554e-06
0.7     	0.4     	3.1527e-06
0.7     	0.45    	3.1609e-06
0.7     	0.5     	3.1574e-06
0.7     	0.55    	3.1631e-06
0.7     	0.6     	3.1605e-06
0.7     	0.65    	3.1609e-06
0.7     	0.7     	3.1662e-06
