vg      	vd      	ids     
0       	0       	7.8893e-18
0       	0.05    	8.8804e-16
0       	0.1     	1.0166e-15
0       	0.15    	1.0364e-15
0       	0.2     	1.0403e-15
0       	0.25    	1.0419e-15
0       	0.3     	1.0431e-15
0       	0.35    	1.0441e-15
0       	0.4     	1.0451e-15
0       	0.45    	1.0461e-15
0       	0.5     	1.047e-15
0       	0.55    	1.0479e-15
0       	0.6     	1.0487e-15
0       	0.65    	1.0495e-15
0       	0.7     	1.0503e-15
0.05    	0       	7.4349e-17
0.05    	0.05    	6.1075e-15
0.05    	0.1     	6.9952e-15
0.05    	0.15    	7.1322e-15
0.05    	0.2     	7.1598e-15
0.05    	0.25    	7.1711e-15
0.05    	0.3     	7.1796e-15
0.05    	0.35    	7.1872e-15
0.05    	0.4     	7.1945e-15
0.05    	0.45    	7.2013e-15
0.05    	0.5     	7.2078e-15
0.05    	0.55    	7.214e-15
0.05    	0.6     	7.22e-15
0.05    	0.65    	7.2256e-15
0.05    	0.7     	7.2311e-15
0.1     	0       	3.9045e-16
0.1     	0.05    	4.2589e-14
0.1     	0.1     	4.8675e-14
0.1     	0.15    	4.9625e-14
0.1     	0.2     	4.9821e-14
0.1     	0.25    	4.9903e-14
0.1     	0.3     	4.9965e-14
0.1     	0.35    	5.0021e-14
0.1     	0.4     	5.0073e-14
0.1     	0.45    	5.0122e-14
0.1     	0.5     	5.0169e-14
0.1     	0.55    	5.0214e-14
0.1     	0.6     	5.0256e-14
0.1     	0.65    	5.0297e-14
0.1     	0.7     	5.0336e-14
0.15    	0       	2.7013e-15
0.15    	0.05    	2.9154e-13
0.15    	0.1     	3.3413e-13
0.15    	0.15    	3.4067e-13
0.15    	0.2     	3.4206e-13
0.15    	0.25    	3.4265e-13
0.15    	0.3     	3.431e-13
0.15    	0.35    	3.435e-13
0.15    	0.4     	3.4388e-13
0.15    	0.45    	3.4423e-13
0.15    	0.5     	3.4456e-13
0.15    	0.55    	3.4488e-13
0.15    	0.6     	3.4518e-13
0.15    	0.65    	3.4547e-13
0.15    	0.7     	3.4574e-13
0.2     	0       	1.4352e-14
0.2     	0.05    	1.9968e-12
0.2     	0.1     	2.2886e-12
0.2     	0.15    	2.3346e-12
0.2     	0.2     	2.3443e-12
0.2     	0.25    	2.3486e-12
0.2     	0.3     	2.3519e-12
0.2     	0.35    	2.3548e-12
0.2     	0.4     	2.3575e-12
0.2     	0.45    	2.36e-12
0.2     	0.5     	2.3624e-12
0.2     	0.55    	2.3646e-12
0.2     	0.6     	2.3668e-12
0.2     	0.65    	2.3688e-12
0.2     	0.7     	2.3707e-12
0.25    	0       	5.6526e-14
0.25    	0.05    	1.3678e-11
0.25    	0.1     	1.5683e-11
0.25    	0.15    	1.6001e-11
0.25    	0.2     	1.607e-11
0.25    	0.25    	1.6102e-11
0.25    	0.3     	1.6126e-11
0.25    	0.35    	1.6147e-11
0.25    	0.4     	1.6167e-11
0.25    	0.45    	1.6185e-11
0.25    	0.5     	1.6201e-11
0.25    	0.55    	1.6217e-11
0.25    	0.6     	1.6232e-11
0.25    	0.65    	1.6247e-11
0.25    	0.7     	1.626e-11
0.3     	0       	2.5978e-13
0.3     	0.05    	9.3475e-11
0.3     	0.1     	1.0727e-10
0.3     	0.15    	1.0948e-10
0.3     	0.2     	1.0997e-10
0.3     	0.25    	1.102e-10
0.3     	0.3     	1.1038e-10
0.3     	0.35    	1.1053e-10
0.3     	0.4     	1.1067e-10
0.3     	0.45    	1.108e-10
0.3     	0.5     	1.1092e-10
0.3     	0.55    	1.1104e-10
0.3     	0.6     	1.1114e-10
0.3     	0.65    	1.1124e-10
0.3     	0.7     	1.1134e-10
0.35    	0       	9.7555e-13
0.35    	0.05    	6.3944e-10
0.35    	0.1     	7.3408e-10
0.35    	0.15    	7.4943e-10
0.35    	0.2     	7.53e-10
0.35    	0.25    	7.5468e-10
0.35    	0.3     	7.5596e-10
0.35    	0.35    	7.5709e-10
0.35    	0.4     	7.5812e-10
0.35    	0.45    	7.5906e-10
0.35    	0.5     	7.5993e-10
0.35    	0.55    	7.6073e-10
0.35    	0.6     	7.6148e-10
0.35    	0.65    	7.6218e-10
0.35    	0.7     	7.6284e-10
0.4     	0       	1.6341e-11
0.4     	0.05    	4.2582e-09
0.4     	0.1     	4.9082e-09
0.4     	0.15    	5.0149e-09
0.4     	0.2     	5.0405e-09
0.4     	0.25    	5.0528e-09
0.4     	0.3     	5.0621e-09
0.4     	0.35    	5.0701e-09
0.4     	0.4     	5.0774e-09
0.4     	0.45    	5.084e-09
0.4     	0.5     	5.09e-09
0.4     	0.55    	5.0955e-09
0.4     	0.6     	5.1007e-09
0.4     	0.65    	5.1054e-09
0.4     	0.7     	5.1099e-09
0.45    	0       	1.2292e-10
0.45    	0.05    	2.6651e-08
0.45    	0.1     	3.0972e-08
0.45    	0.15    	3.1709e-08
0.45    	0.2     	3.1888e-08
0.45    	0.25    	3.1973e-08
0.45    	0.3     	3.2036e-08
0.45    	0.35    	3.2089e-08
0.45    	0.4     	3.2136e-08
0.45    	0.45    	3.2178e-08
0.45    	0.5     	3.2217e-08
0.45    	0.55    	3.2252e-08
0.45    	0.6     	3.2284e-08
0.45    	0.65    	3.2314e-08
0.45    	0.7     	3.2341e-08
0.5     	0       	5.8653e-10
0.5     	0.05    	1.2906e-07
0.5     	0.1     	1.5559e-07
0.5     	0.15    	1.6032e-07
0.5     	0.2     	1.6142e-07
0.5     	0.25    	1.6189e-07
0.5     	0.3     	1.6221e-07
0.5     	0.35    	1.6248e-07
0.5     	0.4     	1.627e-07
0.5     	0.45    	1.629e-07
0.5     	0.5     	1.6308e-07
0.5     	0.55    	1.6325e-07
0.5     	0.6     	1.634e-07
0.5     	0.65    	1.6353e-07
0.5     	0.7     	1.6366e-07
0.55    	0       	1.3397e-09
0.55    	0.05    	3.6896e-07
0.55    	0.1     	4.8566e-07
0.55    	0.15    	5.0981e-07
0.55    	0.2     	5.1492e-07
0.55    	0.25    	5.1665e-07
0.55    	0.3     	5.1767e-07
0.55    	0.35    	5.1846e-07
0.55    	0.4     	5.1911e-07
0.55    	0.45    	5.1968e-07
0.55    	0.5     	5.2018e-07
0.55    	0.55    	5.2063e-07
0.55    	0.6     	5.2104e-07
0.55    	0.65    	5.2141e-07
0.55    	0.7     	5.2175e-07
0.6     	0       	2.0504e-09
0.6     	0.05    	6.5591e-07
0.6     	0.1     	9.7184e-07
0.6     	0.15    	1.0616e-06
0.6     	0.2     	1.0801e-06
0.6     	0.25    	1.0846e-06
0.6     	0.3     	1.0876e-06
0.6     	0.35    	1.0898e-06
0.6     	0.4     	1.0901e-06
0.6     	0.45    	1.0903e-06
0.6     	0.5     	1.092e-06
0.6     	0.55    	1.093e-06
0.6     	0.6     	1.0942e-06
0.6     	0.65    	1.0943e-06
0.6     	0.7     	1.0955e-06
0.65    	0       	2.492e-09
0.65    	0.05    	8.9504e-07
0.65    	0.1     	1.4776e-06
0.65    	0.15    	1.7067e-06
0.65    	0.2     	1.7655e-06
0.65    	0.25    	1.7789e-06
0.65    	0.3     	1.7879e-06
0.65    	0.35    	1.7853e-06
0.65    	0.4     	1.7924e-06
0.65    	0.45    	1.7921e-06
0.65    	0.5     	1.7925e-06
0.65    	0.55    	1.7947e-06
0.65    	0.6     	1.7947e-06
0.65    	0.65    	1.7967e-06
0.65    	0.7     	1.7965e-06
0.7     	0       	3.1513e-09
0.7     	0.05    	1.0758e-06
0.7     	0.1     	1.8904e-06
0.7     	0.15    	2.3423e-06
0.7     	0.2     	2.5037e-06
0.7     	0.25    	2.542e-06
0.7     	0.3     	2.5533e-06
0.7     	0.35    	2.5584e-06
0.7     	0.4     	2.5572e-06
0.7     	0.45    	2.5599e-06
0.7     	0.5     	2.5617e-06
0.7     	0.55    	2.5632e-06
0.7     	0.6     	2.5646e-06
0.7     	0.65    	2.5658e-06
0.7     	0.7     	2.5669e-06
