vg      	vd      	ids     
0       	0       	3.7743e-14
0       	0.05    	9.0269e-12
0       	0.1     	1.0376e-11
0       	0.15    	1.0598e-11
0       	0.2     	1.0657e-11
0       	0.25    	1.0689e-11
0       	0.3     	1.0715e-11
0       	0.35    	1.0739e-11
0       	0.4     	1.0762e-11
0       	0.45    	1.0783e-11
0       	0.5     	1.0802e-11
0       	0.55    	1.0821e-11
0       	0.6     	1.0839e-11
0       	0.65    	1.0856e-11
0       	0.7     	1.0872e-11
0.05    	0       	2.682e-13
0.05    	0.05    	6.1462e-11
0.05    	0.1     	7.0686e-11
0.05    	0.15    	7.2243e-11
0.05    	0.2     	7.2654e-11
0.05    	0.25    	7.2885e-11
0.05    	0.3     	7.3073e-11
0.05    	0.35    	7.3244e-11
0.05    	0.4     	7.3402e-11
0.05    	0.45    	7.3549e-11
0.05    	0.5     	7.3687e-11
0.05    	0.55    	7.3817e-11
0.05    	0.6     	7.394e-11
0.05    	0.65    	7.4056e-11
0.05    	0.7     	7.4167e-11
0.1     	0       	1.6563e-12
0.1     	0.05    	4.1989e-10
0.1     	0.1     	4.8284e-10
0.1     	0.15    	4.9361e-10
0.1     	0.2     	4.9656e-10
0.1     	0.25    	4.9822e-10
0.1     	0.3     	4.9957e-10
0.1     	0.35    	5.0078e-10
0.1     	0.4     	5.019e-10
0.1     	0.45    	5.0292e-10
0.1     	0.5     	5.0388e-10
0.1     	0.55    	5.0478e-10
0.1     	0.6     	5.0563e-10
0.1     	0.65    	5.0643e-10
0.1     	0.7     	5.0719e-10
0.15    	0       	1.2001e-11
0.15    	0.05    	2.8169e-09
0.15    	0.1     	3.2483e-09
0.15    	0.15    	3.3227e-09
0.15    	0.2     	3.3435e-09
0.15    	0.25    	3.3553e-09
0.15    	0.3     	3.3649e-09
0.15    	0.35    	3.3733e-09
0.15    	0.4     	3.381e-09
0.15    	0.45    	3.388e-09
0.15    	0.5     	3.3945e-09
0.15    	0.55    	3.4005e-09
0.15    	0.6     	3.4062e-09
0.15    	0.65    	3.4116e-09
0.15    	0.7     	3.4166e-09
0.2     	0       	7.8332e-11
0.2     	0.05    	1.8322e-08
0.2     	0.1     	2.1218e-08
0.2     	0.15    	2.1731e-08
0.2     	0.2     	2.1875e-08
0.2     	0.25    	2.1955e-08
0.2     	0.3     	2.1998e-08
0.2     	0.35    	2.2053e-08
0.2     	0.4     	2.2103e-08
0.2     	0.45    	2.2148e-08
0.2     	0.5     	2.2189e-08
0.2     	0.55    	2.2227e-08
0.2     	0.6     	2.2263e-08
0.2     	0.65    	2.2296e-08
0.2     	0.7     	2.2327e-08
0.25    	0       	4.1172e-10
0.25    	0.05    	1.0219e-07
0.25    	0.1     	1.2092e-07
0.25    	0.15    	1.2429e-07
0.25    	0.2     	1.2519e-07
0.25    	0.25    	1.2564e-07
0.25    	0.3     	1.2599e-07
0.25    	0.35    	1.2628e-07
0.25    	0.4     	1.2653e-07
0.25    	0.45    	1.2676e-07
0.25    	0.5     	1.2697e-07
0.25    	0.55    	1.2716e-07
0.25    	0.6     	1.2733e-07
0.25    	0.65    	1.2749e-07
0.25    	0.7     	1.2765e-07
0.3     	0       	1.2531e-09
0.3     	0.05    	3.7081e-07
0.3     	0.1     	4.6849e-07
0.3     	0.15    	4.8763e-07
0.3     	0.2     	4.9209e-07
0.3     	0.25    	4.9392e-07
0.3     	0.3     	4.9514e-07
0.3     	0.35    	4.9612e-07
0.3     	0.4     	4.9696e-07
0.3     	0.45    	4.9769e-07
0.3     	0.5     	4.9834e-07
0.3     	0.55    	4.9892e-07
0.3     	0.6     	4.9945e-07
0.3     	0.65    	4.9994e-07
0.3     	0.7     	5.0039e-07
0.35    	0       	2.2681e-09
0.35    	0.05    	7.8415e-07
0.35    	0.1     	1.1092e-06
0.35    	0.15    	1.1906e-06
0.35    	0.2     	1.2091e-06
0.35    	0.25    	1.215e-06
0.35    	0.3     	1.2181e-06
0.35    	0.35    	1.2207e-06
0.35    	0.4     	1.2225e-06
0.35    	0.45    	1.224e-06
0.35    	0.5     	1.2254e-06
0.35    	0.55    	1.2265e-06
0.35    	0.6     	1.2276e-06
0.35    	0.65    	1.2285e-06
0.35    	0.7     	1.2294e-06
0.4     	0       	3.1456e-09
0.4     	0.05    	1.168e-06
0.4     	0.1     	1.8551e-06
0.4     	0.15    	2.0985e-06
0.4     	0.2     	2.1658e-06
0.4     	0.25    	2.183e-06
0.4     	0.3     	2.1904e-06
0.4     	0.35    	2.1944e-06
0.4     	0.4     	2.1974e-06
0.4     	0.45    	2.1999e-06
0.4     	0.5     	2.202e-06
0.4     	0.55    	2.2038e-06
0.4     	0.6     	2.2057e-06
0.4     	0.65    	2.2071e-06
0.4     	0.7     	2.2084e-06
0.45    	0       	3.8777e-09
0.45    	0.05    	1.4623e-06
0.45    	0.1     	2.5172e-06
0.45    	0.15    	3.0552e-06
0.45    	0.2     	3.2352e-06
0.45    	0.25    	3.2835e-06
0.45    	0.3     	3.2987e-06
0.45    	0.35    	3.3066e-06
0.45    	0.4     	3.3113e-06
0.45    	0.45    	3.3148e-06
0.45    	0.5     	3.3177e-06
0.45    	0.55    	3.3205e-06
0.45    	0.6     	3.3227e-06
0.45    	0.65    	3.3246e-06
0.45    	0.7     	3.3264e-06
0.5     	0       	4.5149e-09
0.5     	0.05    	1.684e-06
0.5     	0.1     	3.0404e-06
0.5     	0.15    	3.9181e-06
0.5     	0.2     	4.3085e-06
0.5     	0.25    	4.4386e-06
0.5     	0.3     	4.4758e-06
0.5     	0.35    	4.4903e-06
0.5     	0.4     	4.4975e-06
0.5     	0.45    	4.5023e-06
0.5     	0.5     	4.5061e-06
0.5     	0.55    	4.5096e-06
0.5     	0.6     	4.5124e-06
0.5     	0.65    	4.5148e-06
0.5     	0.7     	4.5169e-06
0.55    	0       	5.0913e-09
0.55    	0.05    	1.8566e-06
0.55    	0.1     	3.4389e-06
0.55    	0.15    	4.6205e-06
0.55    	0.2     	5.2691e-06
0.55    	0.25    	5.5732e-06
0.55    	0.3     	5.6687e-06
0.55    	0.35    	5.6985e-06
0.55    	0.4     	5.7117e-06
0.55    	0.45    	5.7188e-06
0.55    	0.5     	5.7237e-06
0.55    	0.55    	5.728e-06
0.55    	0.6     	5.7313e-06
0.55    	0.65    	5.7341e-06
0.55    	0.7     	5.7367e-06
0.6     	0       	5.6223e-09
0.6     	0.05    	1.9956e-06
0.6     	0.1     	3.7622e-06
0.6     	0.15    	5.1621e-06
0.6     	0.2     	6.0798e-06
0.6     	0.25    	6.6108e-06
0.6     	0.3     	6.8223e-06
0.6     	0.35    	6.8963e-06
0.6     	0.4     	6.9226e-06
0.6     	0.45    	6.9338e-06
0.6     	0.5     	6.9409e-06
0.6     	0.55    	6.9458e-06
0.6     	0.6     	6.9496e-06
0.6     	0.65    	6.953e-06
0.6     	0.7     	6.9558e-06
0.65    	0       	6.1304e-09
0.65    	0.05    	2.1102e-06
0.65    	0.1     	4.0056e-06
0.65    	0.15    	5.5792e-06
0.65    	0.2     	6.7207e-06
0.65    	0.25    	7.4554e-06
0.65    	0.3     	7.8727e-06
0.65    	0.35    	8.0433e-06
0.65    	0.4     	8.1015e-06
0.65    	0.45    	8.1228e-06
0.65    	0.5     	8.1338e-06
0.65    	0.55    	8.1402e-06
0.65    	0.6     	8.1452e-06
0.65    	0.65    	8.1489e-06
0.65    	0.7     	8.1519e-06
0.7     	0       	6.614e-09
0.7     	0.05    	2.2065e-06
0.7     	0.1     	4.2055e-06
0.7     	0.15    	5.9077e-06
0.7     	0.2     	7.2169e-06
0.7     	0.25    	8.1389e-06
0.7     	0.3     	8.7546e-06
0.7     	0.35    	9.074e-06
0.7     	0.4     	9.2057e-06
0.7     	0.45    	9.2591e-06
0.7     	0.5     	9.2787e-06
0.7     	0.55    	9.289e-06
0.7     	0.6     	9.2951e-06
0.7     	0.65    	9.2998e-06
0.7     	0.7     	9.3032e-06
