vg      	vd      	ids     
0       	0       	2.5616e-12
0       	0.05    	1.3162e-09
0       	0.1     	1.5119e-09
0       	0.15    	1.5429e-09
0       	0.2     	1.5494e-09
0       	0.25    	1.5522e-09
0       	0.3     	1.5542e-09
0       	0.35    	1.5559e-09
0       	0.4     	1.5575e-09
0       	0.45    	1.559e-09
0       	0.5     	1.5603e-09
0       	0.55    	1.5615e-09
0       	0.6     	1.5627e-09
0       	0.65    	1.5638e-09
0       	0.7     	1.5648e-09
0.05    	0       	1.758e-11
0.05    	0.05    	8.9312e-09
0.05    	0.1     	1.0268e-08
0.05    	0.15    	1.0483e-08
0.05    	0.2     	1.0531e-08
0.05    	0.25    	1.0552e-08
0.05    	0.3     	1.0567e-08
0.05    	0.35    	1.0579e-08
0.05    	0.4     	1.0591e-08
0.05    	0.45    	1.0601e-08
0.05    	0.5     	1.0611e-08
0.05    	0.55    	1.062e-08
0.05    	0.6     	1.0628e-08
0.05    	0.65    	1.0636e-08
0.05    	0.7     	1.0643e-08
0.1     	0       	1.1244e-10
0.1     	0.05    	5.7576e-08
0.1     	0.1     	6.6689e-08
0.1     	0.15    	6.8171e-08
0.1     	0.2     	6.851e-08
0.1     	0.25    	6.8659e-08
0.1     	0.3     	6.8766e-08
0.1     	0.35    	6.8856e-08
0.1     	0.4     	6.8936e-08
0.1     	0.45    	6.9006e-08
0.1     	0.5     	6.9071e-08
0.1     	0.55    	6.913e-08
0.1     	0.6     	6.9184e-08
0.1     	0.65    	6.9235e-08
0.1     	0.7     	6.9282e-08
0.15    	0       	5.2791e-10
0.15    	0.05    	3.017e-07
0.15    	0.1     	3.6012e-07
0.15    	0.15    	3.7024e-07
0.15    	0.2     	3.7248e-07
0.15    	0.25    	3.7339e-07
0.15    	0.3     	3.7401e-07
0.15    	0.35    	3.745e-07
0.15    	0.4     	3.7493e-07
0.15    	0.45    	3.7531e-07
0.15    	0.5     	3.7565e-07
0.15    	0.55    	3.7595e-07
0.15    	0.6     	3.7623e-07
0.15    	0.65    	3.7649e-07
0.15    	0.7     	3.7673e-07
0.2     	0       	1.374e-09
0.2     	0.05    	9.6964e-07
0.2     	0.1     	1.2601e-06
0.2     	0.15    	1.3196e-06
0.2     	0.2     	1.3322e-06
0.2     	0.25    	1.3363e-06
0.2     	0.3     	1.3387e-06
0.2     	0.35    	1.3404e-06
0.2     	0.4     	1.3419e-06
0.2     	0.45    	1.3433e-06
0.2     	0.5     	1.3444e-06
0.2     	0.55    	1.3453e-06
0.2     	0.6     	1.3462e-06
0.2     	0.65    	1.347e-06
0.2     	0.7     	1.3477e-06
0.25    	0       	2.2438e-09
0.25    	0.05    	1.8682e-06
0.25    	0.1     	2.7518e-06
0.25    	0.15    	3.0157e-06
0.25    	0.2     	3.0739e-06
0.25    	0.25    	3.0902e-06
0.25    	0.3     	3.0964e-06
0.25    	0.35    	3.1004e-06
0.25    	0.4     	3.1035e-06
0.25    	0.45    	3.106e-06
0.25    	0.5     	3.1082e-06
0.25    	0.55    	3.1104e-06
0.25    	0.6     	3.1122e-06
0.25    	0.65    	3.1137e-06
0.25    	0.7     	3.1152e-06
0.3     	0       	2.9737e-09
0.3     	0.05    	2.6592e-06
0.3     	0.1     	4.3652e-06
0.3     	0.15    	5.1317e-06
0.3     	0.2     	5.3603e-06
0.3     	0.25    	5.4179e-06
0.3     	0.3     	5.4348e-06
0.3     	0.35    	5.4429e-06
0.3     	0.4     	5.4489e-06
0.3     	0.45    	5.4531e-06
0.3     	0.5     	5.4565e-06
0.3     	0.55    	5.4595e-06
0.3     	0.6     	5.4625e-06
0.3     	0.65    	5.4648e-06
0.3     	0.7     	5.467e-06
0.35    	0       	3.5585e-09
0.35    	0.05    	3.2493e-06
0.35    	0.1     	5.7118e-06
0.35    	0.15    	7.2393e-06
0.35    	0.2     	7.8669e-06
0.35    	0.25    	8.0585e-06
0.35    	0.3     	8.1121e-06
0.35    	0.35    	8.1299e-06
0.35    	0.4     	8.1391e-06
0.35    	0.45    	8.1459e-06
0.35    	0.5     	8.1508e-06
0.35    	0.55    	8.1548e-06
0.35    	0.6     	8.1586e-06
0.35    	0.65    	8.1617e-06
0.35    	0.7     	8.1644e-06
0.4     	0       	4.02e-09
0.4     	0.05    	3.6679e-06
0.4     	0.1     	6.6902e-06
0.4     	0.15    	8.8708e-06
0.4     	0.2     	1.0176e-05
0.4     	0.25    	1.0723e-05
0.4     	0.3     	1.0893e-05
0.4     	0.35    	1.0945e-05
0.4     	0.4     	1.0964e-05
0.4     	0.45    	1.0975e-05
0.4     	0.5     	1.0982e-05
0.4     	0.55    	1.0987e-05
0.4     	0.6     	1.0991e-05
0.4     	0.65    	1.0995e-05
0.4     	0.7     	1.0998e-05
0.45    	0       	4.3387e-09
0.45    	0.05    	3.952e-06
0.45    	0.1     	7.362e-06
0.45    	0.15    	1.004e-05
0.45    	0.2     	1.1944e-05
0.45    	0.25    	1.3025e-05
0.45    	0.3     	1.3506e-05
0.45    	0.35    	1.3671e-05
0.45    	0.4     	1.3727e-05
0.45    	0.45    	1.3749e-05
0.45    	0.5     	1.376e-05
0.45    	0.55    	1.3768e-05
0.45    	0.6     	1.3773e-05
0.45    	0.65    	1.3777e-05
0.45    	0.7     	1.3781e-05
0.5     	0       	4.4858e-09
0.5     	0.05    	4.086e-06
0.5     	0.1     	7.758e-06
0.5     	0.15    	1.0778e-05
0.5     	0.2     	1.3102e-05
0.5     	0.25    	1.4659e-05
0.5     	0.3     	1.5576e-05
0.5     	0.35    	1.6039e-05
0.5     	0.4     	1.621e-05
0.5     	0.45    	1.6275e-05
0.5     	0.5     	1.6302e-05
0.5     	0.55    	1.6315e-05
0.5     	0.6     	1.6323e-05
0.5     	0.65    	1.6328e-05
0.5     	0.7     	1.6332e-05
0.55    	0       	4.5821e-09
0.55    	0.05    	4.137e-06
0.55    	0.1     	7.923e-06
0.55    	0.15    	1.1165e-05
0.55    	0.2     	1.3759e-05
0.55    	0.25    	1.5535e-05
0.55    	0.3     	1.6878e-05
0.55    	0.35    	1.7666e-05
0.55    	0.4     	1.8121e-05
0.55    	0.45    	1.8325e-05
0.55    	0.5     	1.8412e-05
0.55    	0.55    	1.8448e-05
0.55    	0.6     	1.8465e-05
0.55    	0.65    	1.8476e-05
0.55    	0.7     	1.8482e-05
0.6     	0       	4.6394e-09
0.6     	0.05    	4.1755e-06
0.6     	0.1     	8.0482e-06
0.6     	0.15    	1.1331e-05
0.6     	0.2     	1.4094e-05
0.6     	0.25    	1.6069e-05
0.6     	0.3     	1.755e-05
0.6     	0.35    	1.8625e-05
0.6     	0.4     	1.9323e-05
0.6     	0.45    	1.9733e-05
0.6     	0.5     	1.997e-05
0.6     	0.55    	2.0082e-05
0.6     	0.6     	2.0137e-05
0.6     	0.65    	2.0164e-05
0.6     	0.7     	2.0178e-05
0.65    	0       	4.655e-09
0.65    	0.05    	4.1944e-06
0.65    	0.1     	8.0894e-06
0.65    	0.15    	1.1423e-05
0.65    	0.2     	1.4258e-05
0.65    	0.25    	1.6342e-05
0.65    	0.3     	1.7972e-05
0.65    	0.35    	1.9142e-05
0.65    	0.4     	2.0002e-05
0.65    	0.45    	2.0565e-05
0.65    	0.5     	2.0946e-05
0.65    	0.55    	2.1189e-05
0.65    	0.6     	2.1326e-05
0.65    	0.65    	2.1403e-05
0.65    	0.7     	2.1437e-05
0.7     	0       	4.6293e-09
0.7     	0.05    	4.2e-06 
0.7     	0.1     	8.1275e-06
0.7     	0.15    	1.149e-05
0.7     	0.2     	1.4366e-05
0.7     	0.25    	1.6511e-05
0.7     	0.3     	1.8215e-05
0.7     	0.35    	1.9477e-05
0.7     	0.4     	2.0405e-05
0.7     	0.45    	2.1077e-05
0.7     	0.5     	2.155e-05
0.7     	0.55    	2.1854e-05
0.7     	0.6     	2.2053e-05
0.7     	0.65    	2.2156e-05
0.7     	0.7     	2.2195e-05
