vg      	vd      	ids     
0       	0       	2.7167e-12
0       	0.05    	1.4519e-09
0       	0.1     	1.6724e-09
0       	0.15    	1.7116e-09
0       	0.2     	1.7235e-09
0       	0.25    	1.7307e-09
0       	0.3     	1.7368e-09
0       	0.35    	1.7423e-09
0       	0.4     	1.7473e-09
0       	0.45    	1.752e-09
0       	0.5     	1.7564e-09
0       	0.55    	1.7606e-09
0       	0.6     	1.7645e-09
0       	0.65    	1.7682e-09
0       	0.7     	1.7717e-09
0.05    	0       	1.7606e-11
0.05    	0.05    	9.6808e-09
0.05    	0.1     	1.1182e-08
0.05    	0.15    	1.1452e-08
0.05    	0.2     	1.1534e-08
0.05    	0.25    	1.1584e-08
0.05    	0.3     	1.1625e-08
0.05    	0.35    	1.1662e-08
0.05    	0.4     	1.1695e-08
0.05    	0.45    	1.1726e-08
0.05    	0.5     	1.1755e-08
0.05    	0.55    	1.1782e-08
0.05    	0.6     	1.1807e-08
0.05    	0.65    	1.1831e-08
0.05    	0.7     	1.1854e-08
0.1     	0       	1.0621e-10
0.1     	0.05    	6.1037e-08
0.1     	0.1     	7.1047e-08
0.1     	0.15    	7.2863e-08
0.1     	0.2     	7.3404e-08
0.1     	0.25    	7.3718e-08
0.1     	0.3     	7.3971e-08
0.1     	0.35    	7.4192e-08
0.1     	0.4     	7.4392e-08
0.1     	0.45    	7.4574e-08
0.1     	0.5     	7.4742e-08
0.1     	0.55    	7.4897e-08
0.1     	0.6     	7.5043e-08
0.1     	0.65    	7.518e-08
0.1     	0.7     	7.5308e-08
0.15    	0       	4.638e-10
0.15    	0.05    	3.0632e-07
0.15    	0.1     	3.6809e-07
0.15    	0.15    	3.7952e-07
0.15    	0.2     	3.8253e-07
0.15    	0.25    	3.8403e-07
0.15    	0.3     	3.8516e-07
0.15    	0.35    	3.8611e-07
0.15    	0.4     	3.8695e-07
0.15    	0.45    	3.8771e-07
0.15    	0.5     	3.8839e-07
0.15    	0.55    	3.8902e-07
0.15    	0.6     	3.896e-07
0.15    	0.65    	3.9014e-07
0.15    	0.7     	3.9065e-07
0.2     	0       	1.1293e-09
0.2     	0.05    	9.3393e-07
0.2     	0.1     	1.2193e-06
0.2     	0.15    	1.2794e-06
0.2     	0.2     	1.2933e-06
0.2     	0.25    	1.2985e-06
0.2     	0.3     	1.3018e-06
0.2     	0.35    	1.3044e-06
0.2     	0.4     	1.3066e-06
0.2     	0.45    	1.3088e-06
0.2     	0.5     	1.3105e-06
0.2     	0.55    	1.312e-06
0.2     	0.6     	1.3134e-06
0.2     	0.65    	1.3147e-06
0.2     	0.7     	1.3159e-06
0.25    	0       	1.7906e-09
0.25    	0.05    	1.7498e-06
0.25    	0.1     	2.5664e-06
0.25    	0.15    	2.806e-06
0.25    	0.2     	2.8602e-06
0.25    	0.25    	2.8771e-06
0.25    	0.3     	2.8845e-06
0.25    	0.35    	2.8896e-06
0.25    	0.4     	2.8937e-06
0.25    	0.45    	2.8972e-06
0.25    	0.5     	2.9002e-06
0.25    	0.55    	2.9033e-06
0.25    	0.6     	2.9057e-06
0.25    	0.65    	2.9079e-06
0.25    	0.7     	2.9099e-06
0.3     	0       	2.3193e-09
0.3     	0.05    	2.4735e-06
0.3     	0.1     	4.0192e-06
0.3     	0.15    	4.6855e-06
0.3     	0.2     	4.8642e-06
0.3     	0.25    	4.9134e-06
0.3     	0.3     	4.9299e-06
0.3     	0.35    	4.9389e-06
0.3     	0.4     	4.9455e-06
0.3     	0.45    	4.9515e-06
0.3     	0.5     	4.956e-06
0.3     	0.55    	4.9599e-06
0.3     	0.6     	4.9634e-06
0.3     	0.65    	4.9669e-06
0.3     	0.7     	4.9697e-06
0.35    	0       	2.7274e-09
0.35    	0.05    	3.0279e-06
0.35    	0.1     	5.2709e-06
0.35    	0.15    	6.5785e-06
0.35    	0.2     	7.0669e-06
0.35    	0.25    	7.2082e-06
0.35    	0.3     	7.2486e-06
0.35    	0.35    	7.2666e-06
0.35    	0.4     	7.2766e-06
0.35    	0.45    	7.284e-06
0.35    	0.5     	7.2906e-06
0.35    	0.55    	7.2958e-06
0.35    	0.6     	7.3003e-06
0.35    	0.65    	7.3043e-06
0.35    	0.7     	7.3082e-06
0.4     	0       	3.0436e-09
0.4     	0.05    	3.4321e-06
0.4     	0.1     	6.2189e-06
0.4     	0.15    	8.1397e-06
0.4     	0.2     	9.1883e-06
0.4     	0.25    	9.5731e-06
0.4     	0.3     	9.6846e-06
0.4     	0.35    	9.7203e-06
0.4     	0.4     	9.7378e-06
0.4     	0.45    	9.7481e-06
0.4     	0.5     	9.7559e-06
0.4     	0.55    	9.7627e-06
0.4     	0.6     	9.7682e-06
0.4     	0.65    	9.773e-06
0.4     	0.7     	9.7775e-06
0.45    	0       	3.2856e-09
0.45    	0.05    	3.7213e-06
0.45    	0.1     	6.8945e-06
0.45    	0.15    	9.3211e-06
0.45    	0.2     	1.0949e-05
0.45    	0.25    	1.1763e-05
0.45    	0.3     	1.2069e-05
0.45    	0.35    	1.2164e-05
0.45    	0.4     	1.2197e-05
0.45    	0.45    	1.2215e-05
0.45    	0.5     	1.2225e-05
0.45    	0.55    	1.2233e-05
0.45    	0.6     	1.224e-05
0.45    	0.65    	1.2245e-05
0.45    	0.7     	1.225e-05
0.5     	0       	3.4051e-09
0.5     	0.05    	3.9067e-06
0.5     	0.1     	7.3511e-06
0.5     	0.15    	1.0132e-05
0.5     	0.2     	1.2211e-05
0.5     	0.25    	1.3505e-05
0.5     	0.3     	1.4168e-05
0.5     	0.35    	1.4434e-05
0.5     	0.4     	1.4524e-05
0.5     	0.45    	1.4559e-05
0.5     	0.5     	1.4575e-05
0.5     	0.55    	1.4586e-05
0.5     	0.6     	1.4593e-05
0.5     	0.65    	1.46e-05
0.5     	0.7     	1.4605e-05
0.55    	0       	3.4337e-09
0.55    	0.05    	3.973e-06
0.55    	0.1     	7.5885e-06
0.55    	0.15    	1.0608e-05
0.55    	0.2     	1.2994e-05
0.55    	0.25    	1.4655e-05
0.55    	0.3     	1.5705e-05
0.55    	0.35    	1.6296e-05
0.55    	0.4     	1.6543e-05
0.55    	0.45    	1.6637e-05
0.55    	0.5     	1.6672e-05
0.55    	0.55    	1.669e-05
0.55    	0.6     	1.6701e-05
0.55    	0.65    	1.6708e-05
0.55    	0.7     	1.6714e-05
0.6     	0       	3.4343e-09
0.6     	0.05    	3.988e-06
0.6     	0.1     	7.6612e-06
0.6     	0.15    	1.0831e-05
0.6     	0.2     	1.3412e-05
0.6     	0.25    	1.5292e-05
0.6     	0.3     	1.6605e-05
0.6     	0.35    	1.7505e-05
0.6     	0.4     	1.8022e-05
0.6     	0.45    	1.8268e-05
0.6     	0.5     	1.8374e-05
0.6     	0.55    	1.8417e-05
0.6     	0.6     	1.8438e-05
0.6     	0.65    	1.845e-05
0.6     	0.7     	1.8457e-05
0.65    	0       	3.4123e-09
0.65    	0.05    	3.9874e-06
0.65    	0.1     	7.6761e-06
0.65    	0.15    	1.0888e-05
0.65    	0.2     	1.3581e-05
0.65    	0.25    	1.5619e-05
0.65    	0.3     	1.7083e-05
0.65    	0.35    	1.8122e-05
0.65    	0.4     	1.887e-05
0.65    	0.45    	1.9339e-05
0.65    	0.5     	1.96e-05
0.65    	0.55    	1.9721e-05
0.65    	0.6     	1.9777e-05
0.65    	0.65    	1.9804e-05
0.65    	0.7     	1.9818e-05
0.7     	0       	3.381e-09
0.7     	0.05    	3.9859e-06
0.7     	0.1     	7.7126e-06
0.7     	0.15    	1.09e-05
0.7     	0.2     	1.3631e-05
0.7     	0.25    	1.5743e-05
0.7     	0.3     	1.7325e-05
0.7     	0.35    	1.8478e-05
0.7     	0.4     	1.9343e-05
0.7     	0.45    	1.9925e-05
0.7     	0.5     	2.0337e-05
0.7     	0.55    	2.0584e-05
0.7     	0.6     	2.0724e-05
0.7     	0.65    	2.0794e-05
0.7     	0.7     	2.0829e-05
