vg      	vd      	ids     
0       	0       	4.5248e-15
0       	0.05    	1.0044e-11
0       	0.1     	1.1524e-11
0       	0.15    	1.1764e-11
0       	0.2     	1.1821e-11
0       	0.25    	1.1849e-11
0       	0.3     	1.1872e-11
0       	0.35    	1.1892e-11
0       	0.4     	1.1911e-11
0       	0.45    	1.1929e-11
0       	0.5     	1.1946e-11
0       	0.55    	1.1961e-11
0       	0.6     	1.1976e-11
0       	0.65    	1.1991e-11
0       	0.7     	1.2004e-11
0.05    	0       	2.8196e-14
0.05    	0.05    	6.9047e-11
0.05    	0.1     	7.9278e-11
0.05    	0.15    	8.0943e-11
0.05    	0.2     	8.135e-11
0.05    	0.25    	8.1557e-11
0.05    	0.3     	8.1722e-11
0.05    	0.35    	8.187e-11
0.05    	0.4     	8.2006e-11
0.05    	0.45    	8.2133e-11
0.05    	0.5     	8.2252e-11
0.05    	0.55    	8.2363e-11
0.05    	0.6     	8.2468e-11
0.05    	0.65    	8.2568e-11
0.05    	0.7     	8.2663e-11
0.1     	0       	1.859e-13
0.1     	0.05    	4.7302e-10
0.1     	0.1     	5.4354e-10
0.1     	0.15    	5.5518e-10
0.1     	0.2     	5.581e-10
0.1     	0.25    	5.5962e-10
0.1     	0.3     	5.6083e-10
0.1     	0.35    	5.619e-10
0.1     	0.4     	5.6287e-10
0.1     	0.45    	5.6378e-10
0.1     	0.5     	5.6462e-10
0.1     	0.55    	5.654e-10
0.1     	0.6     	5.6614e-10
0.1     	0.65    	5.6683e-10
0.1     	0.7     	5.6749e-10
0.15    	0       	1.3088e-12
0.15    	0.05    	3.2084e-09
0.15    	0.1     	3.693e-09
0.15    	0.15    	3.7745e-09
0.15    	0.2     	3.7955e-09
0.15    	0.25    	3.8066e-09
0.15    	0.3     	3.8154e-09
0.15    	0.35    	3.823e-09
0.15    	0.4     	3.8299e-09
0.15    	0.45    	3.8362e-09
0.15    	0.5     	3.8421e-09
0.15    	0.55    	3.8475e-09
0.15    	0.6     	3.8526e-09
0.15    	0.65    	3.8573e-09
0.15    	0.7     	3.8618e-09
0.2     	0       	7.3329e-12
0.2     	0.05    	2.0832e-08
0.2     	0.1     	2.4118e-08
0.2     	0.15    	2.4684e-08
0.2     	0.2     	2.4832e-08
0.2     	0.25    	2.491e-08
0.2     	0.3     	2.497e-08
0.2     	0.35    	2.5021e-08
0.2     	0.4     	2.5067e-08
0.2     	0.45    	2.5108e-08
0.2     	0.5     	2.5146e-08
0.2     	0.55    	2.5181e-08
0.2     	0.6     	2.5213e-08
0.2     	0.65    	2.5244e-08
0.2     	0.7     	2.5272e-08
0.25    	0       	3.1385e-11
0.25    	0.05    	1.0969e-07
0.25    	0.1     	1.3092e-07
0.25    	0.15    	1.347e-07
0.25    	0.2     	1.3564e-07
0.25    	0.25    	1.3608e-07
0.25    	0.3     	1.3641e-07
0.25    	0.35    	1.3668e-07
0.25    	0.4     	1.3691e-07
0.25    	0.45    	1.3712e-07
0.25    	0.5     	1.373e-07
0.25    	0.55    	1.3747e-07
0.25    	0.6     	1.3763e-07
0.25    	0.65    	1.3777e-07
0.25    	0.7     	1.3791e-07
0.3     	0       	7.9015e-11
0.3     	0.05    	3.4449e-07
0.3     	0.1     	4.5034e-07
0.3     	0.15    	4.7194e-07
0.3     	0.2     	4.7675e-07
0.3     	0.25    	4.7853e-07
0.3     	0.3     	4.7963e-07
0.3     	0.35    	4.8049e-07
0.3     	0.4     	4.8122e-07
0.3     	0.45    	4.8185e-07
0.3     	0.5     	4.824e-07
0.3     	0.55    	4.8296e-07
0.3     	0.6     	4.8341e-07
0.3     	0.65    	4.8382e-07
0.3     	0.7     	4.842e-07
0.35    	0       	1.2391e-10
0.35    	0.05    	6.3033e-07
0.35    	0.1     	9.4564e-07
0.35    	0.15    	1.0406e-06
0.35    	0.2     	1.0616e-06
0.35    	0.25    	1.0675e-06
0.35    	0.3     	1.0705e-06
0.35    	0.35    	1.0724e-06
0.35    	0.4     	1.0738e-06
0.35    	0.45    	1.075e-06
0.35    	0.5     	1.0761e-06
0.35    	0.55    	1.077e-06
0.35    	0.6     	1.078e-06
0.35    	0.65    	1.0787e-06
0.35    	0.7     	1.0794e-06
0.4     	0       	1.5682e-10
0.4     	0.05    	8.4905e-07
0.4     	0.1     	1.4277e-06
0.4     	0.15    	1.6969e-06
0.4     	0.2     	1.7789e-06
0.4     	0.25    	1.7999e-06
0.4     	0.3     	1.8064e-06
0.4     	0.35    	1.8098e-06
0.4     	0.4     	1.8125e-06
0.4     	0.45    	1.8144e-06
0.4     	0.5     	1.816e-06
0.4     	0.55    	1.8174e-06
0.4     	0.6     	1.8187e-06
0.4     	0.65    	1.8198e-06
0.4     	0.7     	1.8208e-06
0.45    	0       	1.8117e-10
0.45    	0.05    	9.9329e-07
0.45    	0.1     	1.7852e-06
0.45    	0.15    	2.2831e-06
0.45    	0.2     	2.5139e-06
0.45    	0.25    	2.5819e-06
0.45    	0.3     	2.6011e-06
0.45    	0.35    	2.6079e-06
0.45    	0.4     	2.6117e-06
0.45    	0.45    	2.6147e-06
0.45    	0.5     	2.6169e-06
0.45    	0.55    	2.6187e-06
0.45    	0.6     	2.6202e-06
0.45    	0.65    	2.6217e-06
0.45    	0.7     	2.623e-06
0.5     	0       	2.0006e-10
0.5     	0.05    	1.0881e-06
0.5     	0.1     	2.0229e-06
0.5     	0.15    	2.7133e-06
0.5     	0.2     	3.1425e-06
0.5     	0.25    	3.3309e-06
0.5     	0.3     	3.3899e-06
0.5     	0.35    	3.4083e-06
0.5     	0.4     	3.4153e-06
0.5     	0.45    	3.4194e-06
0.5     	0.5     	3.4225e-06
0.5     	0.55    	3.4248e-06
0.5     	0.6     	3.4266e-06
0.5     	0.65    	3.4284e-06
0.5     	0.7     	3.4298e-06
0.55    	0       	2.1515e-10
0.55    	0.05    	1.1526e-06
0.55    	0.1     	2.1798e-06
0.55    	0.15    	2.9989e-06
0.55    	0.2     	3.5667e-06
0.55    	0.25    	3.9307e-06
0.55    	0.3     	4.1053e-06
0.55    	0.35    	4.1603e-06
0.55    	0.4     	4.1792e-06
0.55    	0.45    	4.1867e-06
0.55    	0.5     	4.1912e-06
0.55    	0.55    	4.1942e-06
0.55    	0.6     	4.1965e-06
0.55    	0.65    	4.1984e-06
0.55    	0.7     	4.2e-06 
0.6     	0       	2.2751e-10
0.6     	0.05    	1.1981e-06
0.6     	0.1     	2.286e-06
0.6     	0.15    	3.1861e-06
0.6     	0.2     	3.8551e-06
0.6     	0.25    	4.3464e-06
0.6     	0.3     	4.6583e-06
0.6     	0.35    	4.8029e-06
0.6     	0.4     	4.8611e-06
0.6     	0.45    	4.8813e-06
0.6     	0.5     	4.8899e-06
0.6     	0.55    	4.8943e-06
0.6     	0.6     	4.8972e-06
0.6     	0.65    	4.8994e-06
0.6     	0.7     	4.9012e-06
0.65    	0       	2.381e-10
0.65    	0.05    	1.2319e-06
0.65    	0.1     	2.3615e-06
0.65    	0.15    	3.3139e-06
0.65    	0.2     	4.045e-06
0.65    	0.25    	4.6125e-06
0.65    	0.3     	5.0039e-06
0.65    	0.35    	5.2668e-06
0.65    	0.4     	5.4077e-06
0.65    	0.45    	5.4689e-06
0.65    	0.5     	5.493e-06
0.65    	0.55    	5.5034e-06
0.65    	0.6     	5.5085e-06
0.65    	0.65    	5.5116e-06
0.65    	0.7     	5.5138e-06
0.7     	0       	2.4735e-10
0.7     	0.05    	1.2586e-06
0.7     	0.1     	2.4161e-06
0.7     	0.15    	3.4034e-06
0.7     	0.2     	4.1741e-06
0.7     	0.25    	4.7862e-06
0.7     	0.3     	5.2297e-06
0.7     	0.35    	5.5595e-06
0.7     	0.4     	5.7665e-06
0.7     	0.45    	5.9012e-06
0.7     	0.5     	5.9725e-06
0.7     	0.55    	6.0047e-06
0.7     	0.6     	6.0186e-06
0.7     	0.65    	6.0256e-06
0.7     	0.7     	6.0293e-06
