vg      	vd      	ids     
0       	0       	3.5831e-13
0       	0.05    	3.8602e-10
0       	0.1     	4.4838e-10
0       	0.15    	4.6243e-10
0       	0.2     	4.6879e-10
0       	0.25    	4.7364e-10
0       	0.3     	4.779e-10
0       	0.35    	4.8175e-10
0       	0.4     	4.852e-10
0       	0.45    	4.8824e-10
0       	0.5     	4.9079e-10
0       	0.55    	4.9273e-10
0       	0.6     	4.9382e-10
0       	0.65    	4.9422e-10
0       	0.7     	4.9429e-10
0.05    	0       	3.2282e-12
0.05    	0.05    	2.5264e-09
0.05    	0.1     	2.9443e-09
0.05    	0.15    	3.04e-09
0.05    	0.2     	3.0843e-09
0.05    	0.25    	3.1176e-09
0.05    	0.3     	3.1464e-09
0.05    	0.35    	3.1719e-09
0.05    	0.4     	3.1945e-09
0.05    	0.45    	3.2144e-09
0.05    	0.5     	3.2315e-09
0.05    	0.55    	3.2457e-09
0.05    	0.6     	3.2563e-09
0.05    	0.65    	3.2622e-09
0.05    	0.7     	3.2644e-09
0.1     	0       	2.4488e-11
0.1     	0.05    	1.6166e-08
0.1     	0.1     	1.8924e-08
0.1     	0.15    	1.9566e-08
0.1     	0.2     	1.9855e-08
0.1     	0.25    	2.0062e-08
0.1     	0.3     	2.0234e-08
0.1     	0.35    	2.0383e-08
0.1     	0.4     	2.0513e-08
0.1     	0.45    	2.0627e-08
0.1     	0.5     	2.0727e-08
0.1     	0.55    	2.0815e-08
0.1     	0.6     	2.0889e-08
0.1     	0.65    	2.0945e-08
0.1     	0.7     	2.0976e-08
0.15    	0       	1.5961e-10
0.15    	0.05    	9.3267e-08
0.15    	0.1     	1.1069e-07
0.15    	0.15    	1.146e-07
0.15    	0.2     	1.1615e-07
0.15    	0.25    	1.1718e-07
0.15    	0.3     	1.1801e-07
0.15    	0.35    	1.1874e-07
0.15    	0.4     	1.1939e-07
0.15    	0.45    	1.1998e-07
0.15    	0.5     	1.205e-07
0.15    	0.55    	1.2098e-07
0.15    	0.6     	1.214e-07
0.15    	0.65    	1.2175e-07
0.15    	0.7     	1.2202e-07
0.2     	0       	6.5839e-10
0.2     	0.05    	3.8639e-07
0.2     	0.1     	4.8185e-07
0.2     	0.15    	5.0275e-07
0.2     	0.2     	5.0978e-07
0.2     	0.25    	5.1351e-07
0.2     	0.3     	5.1639e-07
0.2     	0.35    	5.1884e-07
0.2     	0.4     	5.21e-07
0.2     	0.45    	5.2292e-07
0.2     	0.5     	5.2464e-07
0.2     	0.55    	5.2617e-07
0.2     	0.6     	5.2753e-07
0.2     	0.65    	5.287e-07
0.2     	0.7     	5.2972e-07
0.25    	0       	1.4935e-09
0.25    	0.05    	9.3511e-07
0.25    	0.1     	1.3107e-06
0.25    	0.15    	1.4075e-06
0.25    	0.2     	1.4334e-06
0.25    	0.25    	1.4427e-06
0.25    	0.3     	1.4483e-06
0.25    	0.35    	1.4527e-06
0.25    	0.4     	1.4566e-06
0.25    	0.45    	1.4597e-06
0.25    	0.5     	1.4624e-06
0.25    	0.55    	1.4648e-06
0.25    	0.6     	1.4669e-06
0.25    	0.65    	1.4687e-06
0.25    	0.7     	1.4702e-06
0.3     	0       	2.3901e-09
0.3     	0.05    	1.4897e-06
0.3     	0.1     	2.3648e-06
0.3     	0.15    	2.7112e-06
0.3     	0.2     	2.8088e-06
0.3     	0.25    	2.8356e-06
0.3     	0.3     	2.8474e-06
0.3     	0.35    	2.854e-06
0.3     	0.4     	2.8589e-06
0.3     	0.45    	2.8634e-06
0.3     	0.5     	2.8668e-06
0.3     	0.55    	2.8697e-06
0.3     	0.6     	2.8722e-06
0.3     	0.65    	2.8745e-06
0.3     	0.7     	2.8761e-06
0.35    	0       	3.2853e-09
0.35    	0.05    	1.9131e-06
0.35    	0.1     	3.3018e-06
0.35    	0.15    	4.084e-06
0.35    	0.2     	4.4022e-06
0.35    	0.25    	4.4951e-06
0.35    	0.3     	4.5233e-06
0.35    	0.35    	4.5361e-06
0.35    	0.4     	4.5431e-06
0.35    	0.45    	4.5482e-06
0.35    	0.5     	4.5525e-06
0.35    	0.55    	4.5558e-06
0.35    	0.6     	4.5584e-06
0.35    	0.65    	4.5605e-06
0.35    	0.7     	4.5619e-06
0.4     	0       	4.198e-09
0.4     	0.05    	2.233e-06
0.4     	0.1     	4.0214e-06
0.4     	0.15    	5.2549e-06
0.4     	0.2     	5.9459e-06
0.4     	0.25    	6.2198e-06
0.4     	0.3     	6.3162e-06
0.4     	0.35    	6.3468e-06
0.4     	0.4     	6.3609e-06
0.4     	0.45    	6.3683e-06
0.4     	0.5     	6.3737e-06
0.4     	0.55    	6.3774e-06
0.4     	0.6     	6.38e-06
0.4     	0.65    	6.3817e-06
0.4     	0.7     	6.3825e-06
0.45    	0       	5.1436e-09
0.45    	0.05    	2.4859e-06
0.45    	0.1     	4.5722e-06
0.45    	0.15    	6.1616e-06
0.45    	0.2     	7.1994e-06
0.45    	0.25    	7.7985e-06
0.45    	0.3     	8.063e-06
0.45    	0.35    	8.1635e-06
0.45    	0.4     	8.2004e-06
0.45    	0.45    	8.2162e-06
0.45    	0.5     	8.2251e-06
0.45    	0.55    	8.2299e-06
0.45    	0.6     	8.2326e-06
0.45    	0.65    	8.2338e-06
0.45    	0.7     	8.2342e-06
0.5     	0       	6.1332e-09
0.5     	0.05    	2.6949e-06
0.5     	0.1     	5.0126e-06
0.5     	0.15    	6.8669e-06
0.5     	0.2     	8.1898e-06
0.5     	0.25    	9.0824e-06
0.5     	0.3     	9.5865e-06
0.5     	0.35    	9.8442e-06
0.5     	0.4     	9.95e-06
0.5     	0.45    	9.9977e-06
0.5     	0.5     	1.0019e-05
0.5     	0.55    	1.0028e-05
0.5     	0.6     	1.0032e-05
0.5     	0.65    	1.0033e-05
0.5     	0.7     	1.0033e-05
0.55    	0       	7.1945e-09
0.55    	0.05    	2.8714e-06
0.55    	0.1     	5.3775e-06
0.55    	0.15    	7.4341e-06
0.55    	0.2     	8.9665e-06
0.55    	0.25    	1.0076e-05
0.55    	0.3     	1.0787e-05
0.55    	0.35    	1.1211e-05
0.55    	0.4     	1.1448e-05
0.55    	0.45    	1.1562e-05
0.55    	0.5     	1.1613e-05
0.55    	0.55    	1.1633e-05
0.55    	0.6     	1.164e-05
0.55    	0.65    	1.1642e-05
0.55    	0.7     	1.1644e-05
0.6     	0       	8.2103e-09
0.6     	0.05    	3.0179e-06
0.6     	0.1     	5.6833e-06
0.6     	0.15    	7.9012e-06
0.6     	0.2     	9.5911e-06
0.6     	0.25    	1.0855e-05
0.6     	0.3     	1.1671e-05
0.6     	0.35    	1.2235e-05
0.6     	0.4     	1.2566e-05
0.6     	0.45    	1.274e-05
0.6     	0.5     	1.2807e-05
0.6     	0.55    	1.2831e-05
0.6     	0.6     	1.2845e-05
0.6     	0.65    	1.2851e-05
0.6     	0.7     	1.2857e-05
0.65    	0       	9.2631e-09
0.65    	0.05    	3.1468e-06
0.65    	0.1     	5.935e-06
0.65    	0.15    	8.2893e-06
0.65    	0.2     	1.0105e-05
0.65    	0.25    	1.1483e-05
0.65    	0.3     	1.2396e-05
0.65    	0.35    	1.3043e-05
0.65    	0.4     	1.341e-05
0.65    	0.45    	1.3602e-05
0.65    	0.5     	1.3673e-05
0.65    	0.55    	1.3708e-05
0.65    	0.6     	1.3718e-05
0.65    	0.65    	1.3728e-05
0.65    	0.7     	1.3737e-05
0.7     	0       	1.0369e-08
0.7     	0.05    	3.2389e-06
0.7     	0.1     	6.1701e-06
0.7     	0.15    	8.6107e-06
0.7     	0.2     	1.0536e-05
0.7     	0.25    	1.2008e-05
0.7     	0.3     	1.2996e-05
0.7     	0.35    	1.3666e-05
0.7     	0.4     	1.4103e-05
0.7     	0.45    	1.4297e-05
0.7     	0.5     	1.438e-05
0.7     	0.55    	1.4407e-05
0.7     	0.6     	1.442e-05
0.7     	0.65    	1.4432e-05
0.7     	0.7     	1.4443e-05
