vg      	vd      	ids     
0       	0       	8.5832e-12
0       	0.05    	5.1706e-10
0       	0.1     	5.9502e-10
0       	0.15    	6.0793e-10
0       	0.2     	6.1096e-10
0       	0.25    	6.1243e-10
0       	0.3     	6.1356e-10
0       	0.35    	6.1456e-10
0       	0.4     	6.1547e-10
0       	0.45    	6.163e-10
0       	0.5     	6.1707e-10
0       	0.55    	6.178e-10
0       	0.6     	6.1848e-10
0       	0.65    	6.1913e-10
0       	0.7     	6.1974e-10
0.05    	0       	5.5829e-11
0.05    	0.05    	3.3547e-09
0.05    	0.1     	3.8718e-09
0.05    	0.15    	3.9591e-09
0.05    	0.2     	3.9803e-09
0.05    	0.25    	3.9907e-09
0.05    	0.3     	3.9987e-09
0.05    	0.35    	4.0057e-09
0.05    	0.4     	4.012e-09
0.05    	0.45    	4.0177e-09
0.05    	0.5     	4.0229e-09
0.05    	0.55    	4.0278e-09
0.05    	0.6     	4.0323e-09
0.05    	0.65    	4.0366e-09
0.05    	0.7     	4.0407e-09
0.1     	0       	3.5659e-10
0.1     	0.05    	2.1314e-08
0.1     	0.1     	2.4682e-08
0.1     	0.15    	2.5247e-08
0.1     	0.2     	2.5392e-08
0.1     	0.25    	2.5464e-08
0.1     	0.3     	2.5519e-08
0.1     	0.35    	2.5566e-08
0.1     	0.4     	2.5609e-08
0.1     	0.45    	2.5647e-08
0.1     	0.5     	2.5681e-08
0.1     	0.55    	2.5713e-08
0.1     	0.6     	2.5742e-08
0.1     	0.65    	2.577e-08
0.1     	0.7     	2.5796e-08
0.15    	0       	2.0253e-09
0.15    	0.05    	1.2544e-07
0.15    	0.1     	1.4696e-07
0.15    	0.15    	1.5078e-07
0.15    	0.2     	1.5174e-07
0.15    	0.25    	1.522e-07
0.15    	0.3     	1.5254e-07
0.15    	0.35    	1.5283e-07
0.15    	0.4     	1.5309e-07
0.15    	0.45    	1.5332e-07
0.15    	0.5     	1.5352e-07
0.15    	0.55    	1.5371e-07
0.15    	0.6     	1.5388e-07
0.15    	0.65    	1.5403e-07
0.15    	0.7     	1.5418e-07
0.2     	0       	7.869e-09
0.2     	0.05    	5.5884e-07
0.2     	0.1     	6.7907e-07
0.2     	0.15    	7.0201e-07
0.2     	0.2     	7.0745e-07
0.2     	0.25    	7.0975e-07
0.2     	0.3     	7.1133e-07
0.2     	0.35    	7.1263e-07
0.2     	0.4     	7.1376e-07
0.2     	0.45    	7.1476e-07
0.2     	0.5     	7.1564e-07
0.2     	0.55    	7.1643e-07
0.2     	0.6     	7.1714e-07
0.2     	0.65    	7.1779e-07
0.2     	0.7     	7.184e-07
0.25    	0       	1.7912e-08
0.25    	0.05    	1.5287e-06
0.25    	0.1     	1.9934e-06
0.25    	0.15    	2.0954e-06
0.25    	0.2     	2.1198e-06
0.25    	0.25    	2.1279e-06
0.25    	0.3     	2.1327e-06
0.25    	0.35    	2.1364e-06
0.25    	0.4     	2.1395e-06
0.25    	0.45    	2.1422e-06
0.25    	0.5     	2.1446e-06
0.25    	0.55    	2.1467e-06
0.25    	0.6     	2.1486e-06
0.25    	0.65    	2.1503e-06
0.25    	0.7     	2.1519e-06
0.3     	0       	2.9469e-08
0.3     	0.05    	2.7973e-06
0.3     	0.1     	4.0006e-06
0.3     	0.15    	4.3209e-06
0.3     	0.2     	4.3967e-06
0.3     	0.25    	4.4194e-06
0.3     	0.3     	4.4304e-06
0.3     	0.35    	4.4379e-06
0.3     	0.4     	4.444e-06
0.3     	0.45    	4.4493e-06
0.3     	0.5     	4.4538e-06
0.3     	0.55    	4.4578e-06
0.3     	0.6     	4.4619e-06
0.3     	0.65    	4.4651e-06
0.3     	0.7     	4.4679e-06
0.35    	0       	4.0957e-08
0.35    	0.05    	4.1512e-06
0.35    	0.1     	6.4066e-06
0.35    	0.15    	7.1504e-06
0.35    	0.2     	7.3522e-06
0.35    	0.25    	7.4066e-06
0.35    	0.3     	7.428e-06
0.35    	0.35    	7.4408e-06
0.35    	0.4     	7.4505e-06
0.35    	0.45    	7.4585e-06
0.35    	0.5     	7.4654e-06
0.35    	0.55    	7.4714e-06
0.35    	0.6     	7.4768e-06
0.35    	0.65    	7.4821e-06
0.35    	0.7     	7.4865e-06
0.4     	0       	5.1867e-08
0.4     	0.05    	5.4697e-06
0.4     	0.1     	8.948e-06
0.4     	0.15    	1.0384e-05
0.4     	0.2     	1.0824e-05
0.4     	0.25    	1.0949e-05
0.4     	0.3     	1.099e-05
0.4     	0.35    	1.101e-05
0.4     	0.4     	1.1024e-05
0.4     	0.45    	1.1035e-05
0.4     	0.5     	1.1045e-05
0.4     	0.55    	1.1053e-05
0.4     	0.6     	1.106e-05
0.4     	0.65    	1.1067e-05
0.4     	0.7     	1.1072e-05
0.45    	0       	6.1897e-08
0.45    	0.05    	6.6979e-06
0.45    	0.1     	1.1466e-05
0.45    	0.15    	1.3837e-05
0.45    	0.2     	1.4674e-05
0.45    	0.25    	1.4929e-05
0.45    	0.3     	1.5008e-05
0.45    	0.35    	1.5041e-05
0.45    	0.4     	1.5061e-05
0.45    	0.45    	1.5076e-05
0.45    	0.5     	1.5088e-05
0.45    	0.55    	1.5099e-05
0.45    	0.6     	1.5109e-05
0.45    	0.65    	1.5118e-05
0.45    	0.7     	1.5125e-05
0.5     	0       	7.1062e-08
0.5     	0.05    	7.8002e-06
0.5     	0.1     	1.3763e-05
0.5     	0.15    	1.7296e-05
0.5     	0.2     	1.8751e-05
0.5     	0.25    	1.9234e-05
0.5     	0.3     	1.9381e-05
0.5     	0.35    	1.9435e-05
0.5     	0.4     	1.9482e-05
0.5     	0.45    	1.9498e-05
0.5     	0.5     	1.9506e-05
0.5     	0.55    	1.9527e-05
0.5     	0.6     	1.9524e-05
0.5     	0.65    	1.9546e-05
0.5     	0.7     	1.9555e-05
0.55    	0       	7.8821e-08
0.55    	0.05    	8.7891e-06
0.55    	0.1     	1.5845e-05
0.55    	0.15    	2.063e-05
0.55    	0.2     	2.2917e-05
0.55    	0.25    	2.3745e-05
0.55    	0.3     	2.4057e-05
0.55    	0.35    	2.4144e-05
0.55    	0.4     	2.4181e-05
0.55    	0.45    	2.4214e-05
0.55    	0.5     	2.4222e-05
0.55    	0.55    	2.4227e-05
0.55    	0.6     	2.4247e-05
0.55    	0.65    	2.4263e-05
0.55    	0.7     	2.4263e-05
0.6     	0       	8.6044e-08
0.6     	0.05    	9.605e-06
0.6     	0.1     	1.7646e-05
0.6     	0.15    	2.3516e-05
0.6     	0.2     	2.6872e-05
0.6     	0.25    	2.8378e-05
0.6     	0.3     	2.8884e-05
0.6     	0.35    	2.9048e-05
0.6     	0.4     	2.9112e-05
0.6     	0.45    	2.9145e-05
0.6     	0.5     	2.9168e-05
0.6     	0.55    	2.9185e-05
0.6     	0.6     	2.9199e-05
0.6     	0.65    	2.9212e-05
0.6     	0.7     	2.9221e-05
0.65    	0       	9.2509e-08
0.65    	0.05    	1.0328e-05
0.65    	0.1     	1.9217e-05
0.65    	0.15    	2.6128e-05
0.65    	0.2     	3.0644e-05
0.65    	0.25    	3.2873e-05
0.65    	0.3     	3.3834e-05
0.65    	0.35    	3.4166e-05
0.65    	0.4     	3.4263e-05
0.65    	0.45    	3.4305e-05
0.65    	0.5     	3.4353e-05
0.65    	0.55    	3.4359e-05
0.65    	0.6     	3.437e-05
0.65    	0.65    	3.4404e-05
0.65    	0.7     	3.4401e-05
0.7     	0       	9.9628e-08
0.7     	0.05    	1.0953e-05
0.7     	0.1     	2.0588e-05
0.7     	0.15    	2.8411e-05
0.7     	0.2     	3.3987e-05
0.7     	0.25    	3.7252e-05
0.7     	0.3     	3.8743e-05
0.7     	0.35    	3.9319e-05
0.7     	0.4     	3.9498e-05
0.7     	0.45    	3.9575e-05
0.7     	0.5     	3.9606e-05
0.7     	0.55    	3.963e-05
0.7     	0.6     	3.9662e-05
0.7     	0.65    	3.9674e-05
0.7     	0.7     	3.9694e-05
