vg      	vd      	ids     
0       	0       	1.083e-11
0       	0.05    	1.5362e-09
0       	0.1     	1.8123e-09
0       	0.15    	1.8925e-09
0       	0.2     	1.9381e-09
0       	0.25    	1.975e-09
0       	0.3     	2.0084e-09
0       	0.35    	2.0395e-09
0       	0.4     	2.069e-09
0       	0.45    	2.0971e-09
0       	0.5     	2.124e-09
0       	0.55    	2.1499e-09
0       	0.6     	2.1749e-09
0       	0.65    	2.199e-09
0       	0.7     	2.2223e-09
0.05    	0       	6.7418e-11
0.05    	0.05    	9.6812e-09
0.05    	0.1     	1.1458e-08
0.05    	0.15    	1.1971e-08
0.05    	0.2     	1.2264e-08
0.05    	0.25    	1.2504e-08
0.05    	0.3     	1.2724e-08
0.05    	0.35    	1.2928e-08
0.05    	0.4     	1.312e-08
0.05    	0.45    	1.3302e-08
0.05    	0.5     	1.3473e-08
0.05    	0.55    	1.3635e-08
0.05    	0.6     	1.3787e-08
0.05    	0.65    	1.393e-08
0.05    	0.7     	1.4063e-08
0.1     	0       	3.7532e-10
0.1     	0.05    	5.7926e-08
0.1     	0.1     	6.8968e-08
0.1     	0.15    	7.2124e-08
0.1     	0.2     	7.3914e-08
0.1     	0.25    	7.5372e-08
0.1     	0.3     	7.6664e-08
0.1     	0.35    	7.782e-08
0.1     	0.4     	7.8854e-08
0.1     	0.45    	7.9787e-08
0.1     	0.5     	8.0642e-08
0.1     	0.55    	8.1438e-08
0.1     	0.6     	8.2188e-08
0.1     	0.65    	8.2901e-08
0.1     	0.7     	8.3583e-08
0.15    	0       	1.7652e-09
0.15    	0.05    	2.8854e-07
0.15    	0.1     	3.5134e-07
0.15    	0.15    	3.6805e-07
0.15    	0.2     	3.7605e-07
0.15    	0.25    	3.8189e-07
0.15    	0.3     	3.8687e-07
0.15    	0.35    	3.9133e-07
0.15    	0.4     	3.9539e-07
0.15    	0.45    	3.9912e-07
0.15    	0.5     	4.0256e-07
0.15    	0.55    	4.0575e-07
0.15    	0.6     	4.0871e-07
0.15    	0.65    	4.1147e-07
0.15    	0.7     	4.1403e-07
0.2     	0       	4.7831e-09
0.2     	0.05    	9.5172e-07
0.2     	0.1     	1.2299e-06
0.2     	0.15    	1.2975e-06
0.2     	0.2     	1.3215e-06
0.2     	0.25    	1.336e-06
0.2     	0.3     	1.3474e-06
0.2     	0.35    	1.3572e-06
0.2     	0.4     	1.3659e-06
0.2     	0.45    	1.3737e-06
0.2     	0.5     	1.3808e-06
0.2     	0.55    	1.3872e-06
0.2     	0.6     	1.3935e-06
0.2     	0.65    	1.3992e-06
0.2     	0.7     	1.4045e-06
0.25    	0       	8.3098e-09
0.25    	0.05    	1.9787e-06
0.25    	0.1     	2.8083e-06
0.25    	0.15    	3.0352e-06
0.25    	0.2     	3.099e-06
0.25    	0.25    	3.1258e-06
0.25    	0.3     	3.1436e-06
0.25    	0.35    	3.158e-06
0.25    	0.4     	3.1704e-06
0.25    	0.45    	3.1813e-06
0.25    	0.5     	3.1916e-06
0.25    	0.55    	3.2005e-06
0.25    	0.6     	3.2087e-06
0.25    	0.65    	3.2162e-06
0.25    	0.7     	3.2232e-06
0.3     	0       	1.1406e-08
0.3     	0.05    	3.0471e-06
0.3     	0.1     	4.7567e-06
0.3     	0.15    	5.3731e-06
0.3     	0.2     	5.5418e-06
0.3     	0.25    	5.5959e-06
0.3     	0.3     	5.622e-06
0.3     	0.35    	5.6404e-06
0.3     	0.4     	5.6554e-06
0.3     	0.45    	5.669e-06
0.3     	0.5     	5.6805e-06
0.3     	0.55    	5.6907e-06
0.3     	0.6     	5.6999e-06
0.3     	0.65    	5.7088e-06
0.3     	0.7     	5.7167e-06
0.35    	0       	1.3973e-08
0.35    	0.05    	3.9878e-06
0.35    	0.1     	6.7027e-06
0.35    	0.15    	8e-06   
0.35    	0.2     	8.4275e-06
0.35    	0.25    	8.5486e-06
0.35    	0.3     	8.5923e-06
0.35    	0.35    	8.6179e-06
0.35    	0.4     	8.6358e-06
0.35    	0.45    	8.6505e-06
0.35    	0.5     	8.6638e-06
0.35    	0.55    	8.6749e-06
0.35    	0.6     	8.6853e-06
0.35    	0.65    	8.6943e-06
0.35    	0.7     	8.7025e-06
0.4     	0       	1.6111e-08
0.4     	0.05    	4.7612e-06
0.4     	0.1     	8.4165e-06
0.4     	0.15    	1.0603e-05
0.4     	0.2     	1.1527e-05
0.4     	0.25    	1.1817e-05
0.4     	0.3     	1.1906e-05
0.4     	0.35    	1.1943e-05
0.4     	0.4     	1.1967e-05
0.4     	0.45    	1.1984e-05
0.4     	0.5     	1.1998e-05
0.4     	0.55    	1.201e-05
0.4     	0.6     	1.2021e-05
0.4     	0.65    	1.203e-05
0.4     	0.7     	1.2038e-05
0.45    	0       	1.7916e-08
0.45    	0.05    	5.3741e-06
0.45    	0.1     	9.8155e-06
0.45    	0.15    	1.2886e-05
0.45    	0.2     	1.458e-05
0.45    	0.25    	1.5226e-05
0.45    	0.3     	1.5424e-05
0.45    	0.35    	1.5494e-05
0.45    	0.4     	1.5526e-05
0.45    	0.45    	1.5547e-05
0.45    	0.5     	1.5563e-05
0.45    	0.55    	1.5576e-05
0.45    	0.6     	1.5587e-05
0.45    	0.65    	1.5597e-05
0.45    	0.7     	1.5605e-05
0.5     	0       	1.9464e-08
0.5     	0.05    	5.8533e-06
0.5     	0.1     	1.0913e-05
0.5     	0.15    	1.4768e-05
0.5     	0.2     	1.7284e-05
0.5     	0.25    	1.8551e-05
0.5     	0.3     	1.9002e-05
0.5     	0.35    	1.9149e-05
0.5     	0.4     	1.9206e-05
0.5     	0.45    	1.9235e-05
0.5     	0.5     	1.9253e-05
0.5     	0.55    	1.9268e-05
0.5     	0.6     	1.928e-05
0.5     	0.65    	1.929e-05
0.5     	0.7     	1.9298e-05
0.55    	0       	2.081e-08
0.55    	0.05    	6.23e-06
0.55    	0.1     	1.1737e-05
0.55    	0.15    	1.6235e-05
0.55    	0.2     	1.9512e-05
0.55    	0.25    	2.1509e-05
0.55    	0.3     	2.2439e-05
0.55    	0.35    	2.2784e-05
0.55    	0.4     	2.2901e-05
0.55    	0.45    	2.2948e-05
0.55    	0.5     	2.2974e-05
0.55    	0.55    	2.299e-05
0.55    	0.6     	2.3003e-05
0.55    	0.65    	2.3014e-05
0.55    	0.7     	2.3023e-05
0.6     	0       	2.1994e-08
0.6     	0.05    	6.5294e-06
0.6     	0.1     	1.2404e-05
0.6     	0.15    	1.7362e-05
0.6     	0.2     	2.1169e-05
0.6     	0.25    	2.3888e-05
0.6     	0.3     	2.5488e-05
0.6     	0.35    	2.6218e-05
0.6     	0.4     	2.6487e-05
0.6     	0.45    	2.6586e-05
0.6     	0.5     	2.6629e-05
0.6     	0.55    	2.6652e-05
0.6     	0.6     	2.6667e-05
0.6     	0.65    	2.6679e-05
0.6     	0.7     	2.6688e-05
0.65    	0       	2.3079e-08
0.65    	0.05    	6.7868e-06
0.65    	0.1     	1.2952e-05
0.65    	0.15    	1.8263e-05
0.65    	0.2     	2.2499e-05
0.65    	0.25    	2.5911e-05
0.65    	0.3     	2.7975e-05
0.65    	0.35    	2.9206e-05
0.65    	0.4     	2.9793e-05
0.65    	0.45    	3.003e-05
0.65    	0.5     	3.0121e-05
0.65    	0.55    	3.0161e-05
0.65    	0.6     	3.0182e-05
0.65    	0.65    	3.0196e-05
0.65    	0.7     	3.0206e-05
0.7     	0       	2.4024e-08
0.7     	0.05    	6.9977e-06
0.7     	0.1     	1.3401e-05
0.7     	0.15    	1.8977e-05
0.7     	0.2     	2.3523e-05
0.7     	0.25    	2.7157e-05
0.7     	0.3     	2.9789e-05
0.7     	0.35    	3.1747e-05
0.7     	0.4     	3.2763e-05
0.7     	0.45    	3.3234e-05
0.7     	0.5     	3.3406e-05
0.7     	0.55    	3.3491e-05
0.7     	0.6     	3.353e-05
0.7     	0.65    	3.3551e-05
0.7     	0.7     	3.3564e-05
