vg      	vd      	ids     
0       	0       	9.9043e-19
0       	0.05    	9.0864e-16
0       	0.1     	1.042e-15
0       	0.15    	1.0628e-15
0       	0.2     	1.067e-15
0       	0.25    	1.0689e-15
0       	0.3     	1.0703e-15
0       	0.35    	1.0716e-15
0       	0.4     	1.0728e-15
0       	0.45    	1.0739e-15
0       	0.5     	1.075e-15
0       	0.55    	1.0761e-15
0       	0.6     	1.0771e-15
0       	0.65    	1.078e-15
0       	0.7     	1.0789e-15
0.05    	0       	-3.0341e-17
0.05    	0.05    	6.2286e-15
0.05    	0.1     	7.1459e-15
0.05    	0.15    	7.2892e-15
0.05    	0.2     	7.3194e-15
0.05    	0.25    	7.3325e-15
0.05    	0.3     	7.3426e-15
0.05    	0.35    	7.3517e-15
0.05    	0.4     	7.3604e-15
0.05    	0.45    	7.3685e-15
0.05    	0.5     	7.3763e-15
0.05    	0.55    	7.3837e-15
0.05    	0.6     	7.3908e-15
0.05    	0.65    	7.3976e-15
0.05    	0.7     	7.4041e-15
0.1     	0       	4.103e-17
0.1     	0.05    	4.3358e-14
0.1     	0.1     	4.9693e-14
0.1     	0.15    	5.0684e-14
0.1     	0.2     	5.0898e-14
0.1     	0.25    	5.0993e-14
0.1     	0.3     	5.1066e-14
0.1     	0.35    	5.1133e-14
0.1     	0.4     	5.1195e-14
0.1     	0.45    	5.1254e-14
0.1     	0.5     	5.131e-14
0.1     	0.55    	5.1364e-14
0.1     	0.6     	5.1414e-14
0.1     	0.65    	5.1463e-14
0.1     	0.7     	5.1509e-14
0.15    	0       	4.2273e-16
0.15    	0.05    	2.9794e-13
0.15    	0.1     	3.4183e-13
0.15    	0.15    	3.4871e-13
0.15    	0.2     	3.5022e-13
0.15    	0.25    	3.5091e-13
0.15    	0.3     	3.5144e-13
0.15    	0.35    	3.5192e-13
0.15    	0.4     	3.5237e-13
0.15    	0.45    	3.5279e-13
0.15    	0.5     	3.5319e-13
0.15    	0.55    	3.5357e-13
0.15    	0.6     	3.5393e-13
0.15    	0.65    	3.5427e-13
0.15    	0.7     	3.546e-13
0.2     	0       	4.8366e-15
0.2     	0.05    	2.043e-12
0.2     	0.1     	2.3448e-12
0.2     	0.15    	2.3928e-12
0.2     	0.2     	2.4035e-12
0.2     	0.25    	2.4085e-12
0.2     	0.3     	2.4124e-12
0.2     	0.35    	2.4159e-12
0.2     	0.4     	2.4191e-12
0.2     	0.45    	2.4221e-12
0.2     	0.5     	2.425e-12
0.2     	0.55    	2.4277e-12
0.2     	0.6     	2.4302e-12
0.2     	0.65    	2.4326e-12
0.2     	0.7     	2.4349e-12
0.25    	0       	1.4178e-14
0.25    	0.05    	1.4157e-11
0.25    	0.1     	1.6229e-11
0.25    	0.15    	1.6563e-11
0.25    	0.2     	1.664e-11
0.25    	0.25    	1.6676e-11
0.25    	0.3     	1.6705e-11
0.25    	0.35    	1.673e-11
0.25    	0.4     	1.6754e-11
0.25    	0.45    	1.6776e-11
0.25    	0.5     	1.6796e-11
0.25    	0.55    	1.6815e-11
0.25    	0.6     	1.6834e-11
0.25    	0.65    	1.6851e-11
0.25    	0.7     	1.6867e-11
0.3     	0       	1.1587e-13
0.3     	0.05    	9.692e-11
0.3     	0.1     	1.1133e-10
0.3     	0.15    	1.1364e-10
0.3     	0.2     	1.1419e-10
0.3     	0.25    	1.1446e-10
0.3     	0.3     	1.1468e-10
0.3     	0.35    	1.1486e-10
0.3     	0.4     	1.1503e-10
0.3     	0.45    	1.1519e-10
0.3     	0.5     	1.1533e-10
0.3     	0.55    	1.1547e-10
0.3     	0.6     	1.156e-10
0.3     	0.65    	1.1572e-10
0.3     	0.7     	1.1583e-10
0.35    	0       	1.1351e-12
0.35    	0.05    	6.5961e-10
0.35    	0.1     	7.5852e-10
0.35    	0.15    	7.7483e-10
0.35    	0.2     	7.788e-10
0.35    	0.25    	7.808e-10
0.35    	0.3     	7.8235e-10
0.35    	0.35    	7.837e-10
0.35    	0.4     	7.8493e-10
0.35    	0.45    	7.8605e-10
0.35    	0.5     	7.8708e-10
0.35    	0.55    	7.8804e-10
0.35    	0.6     	7.8894e-10
0.35    	0.65    	7.8978e-10
0.35    	0.7     	7.9058e-10
0.4     	0       	3.4519e-12
0.4     	0.05    	4.4455e-09
0.4     	0.1     	5.1209e-09
0.4     	0.15    	5.2347e-09
0.4     	0.2     	5.2637e-09
0.4     	0.25    	5.2784e-09
0.4     	0.3     	5.2896e-09
0.4     	0.35    	5.2994e-09
0.4     	0.4     	5.308e-09
0.4     	0.45    	5.3159e-09
0.4     	0.5     	5.3231e-09
0.4     	0.55    	5.3297e-09
0.4     	0.6     	5.3358e-09
0.4     	0.65    	5.3416e-09
0.4     	0.7     	5.347e-09
0.45    	0       	1.4145e-11
0.45    	0.05    	2.7361e-08
0.45    	0.1     	3.1924e-08
0.45    	0.15    	3.271e-08
0.45    	0.2     	3.291e-08
0.45    	0.25    	3.3009e-08
0.45    	0.3     	3.3083e-08
0.45    	0.35    	3.3146e-08
0.45    	0.4     	3.32e-08
0.45    	0.45    	3.3249e-08
0.45    	0.5     	3.3293e-08
0.45    	0.55    	3.3333e-08
0.45    	0.6     	3.337e-08
0.45    	0.65    	3.3404e-08
0.45    	0.7     	3.3436e-08
0.5     	0       	5.5327e-11
0.5     	0.05    	1.2159e-07
0.5     	0.1     	1.4894e-07
0.5     	0.15    	1.5393e-07
0.5     	0.2     	1.5508e-07
0.5     	0.25    	1.5559e-07
0.5     	0.3     	1.5593e-07
0.5     	0.35    	1.5621e-07
0.5     	0.4     	1.5645e-07
0.5     	0.45    	1.5666e-07
0.5     	0.5     	1.5685e-07
0.5     	0.55    	1.5702e-07
0.5     	0.6     	1.5717e-07
0.5     	0.65    	1.5729e-07
0.5     	0.7     	1.5742e-07
0.55    	0       	1.2145e-10
0.55    	0.05    	3.0471e-07
0.55    	0.1     	4.1661e-07
0.55    	0.15    	4.42e-07
0.55    	0.2     	4.4747e-07
0.55    	0.25    	4.493e-07
0.55    	0.3     	4.5034e-07
0.55    	0.35    	4.5112e-07
0.55    	0.4     	4.5175e-07
0.55    	0.45    	4.523e-07
0.55    	0.5     	4.5284e-07
0.55    	0.55    	4.5326e-07
0.55    	0.6     	4.5363e-07
0.55    	0.65    	4.5397e-07
0.55    	0.7     	4.5428e-07
0.6     	0       	1.7752e-10
0.6     	0.05    	4.8546e-07
0.6     	0.1     	7.6185e-07
0.6     	0.15    	8.5247e-07
0.6     	0.2     	8.7547e-07
0.6     	0.25    	8.8113e-07
0.6     	0.3     	8.8351e-07
0.6     	0.35    	8.8505e-07
0.6     	0.4     	8.8639e-07
0.6     	0.45    	8.8736e-07
0.6     	0.5     	8.8817e-07
0.6     	0.55    	8.8888e-07
0.6     	0.6     	8.8951e-07
0.6     	0.65    	8.9015e-07
0.6     	0.7     	8.9066e-07
0.65    	0       	2.2076e-10
0.65    	0.05    	6.2168e-07
0.65    	0.1     	1.0714e-06
0.65    	0.15    	1.2969e-06
0.65    	0.2     	1.3673e-06
0.65    	0.25    	1.385e-06
0.65    	0.3     	1.3905e-06
0.65    	0.35    	1.3936e-06
0.65    	0.4     	1.3954e-06
0.65    	0.45    	1.3969e-06
0.65    	0.5     	1.398e-06
0.65    	0.55    	1.3991e-06
0.65    	0.6     	1.4e-06 
0.65    	0.65    	1.4008e-06
0.65    	0.7     	1.4015e-06
0.7     	0       	2.5801e-10
0.7     	0.05    	7.1447e-07
0.7     	0.1     	1.2918e-06
0.7     	0.15    	1.6854e-06
0.7     	0.2     	1.8576e-06
0.7     	0.25    	1.9127e-06
0.7     	0.3     	1.9275e-06
0.7     	0.35    	1.9333e-06
0.7     	0.4     	1.9362e-06
0.7     	0.45    	1.9382e-06
0.7     	0.5     	1.9399e-06
0.7     	0.55    	1.9413e-06
0.7     	0.6     	1.9424e-06
0.7     	0.65    	1.9433e-06
0.7     	0.7     	1.9443e-06
