vg      	vd      	ids     
0       	0       	4.437e-15
0       	0.05    	9.8888e-12
0       	0.1     	1.1389e-11
0       	0.15    	1.1643e-11
0       	0.2     	1.171e-11
0       	0.25    	1.1748e-11
0       	0.3     	1.1779e-11
0       	0.35    	1.1807e-11
0       	0.4     	1.1833e-11
0       	0.45    	1.1857e-11
0       	0.5     	1.1879e-11
0       	0.55    	1.1899e-11
0       	0.6     	1.1917e-11
0       	0.65    	1.1932e-11
0       	0.7     	1.1944e-11
0.05    	0       	6.7353e-14
0.05    	0.05    	6.7479e-11
0.05    	0.1     	7.7617e-11
0.05    	0.15    	7.9356e-11
0.05    	0.2     	7.9831e-11
0.05    	0.25    	8.0099e-11
0.05    	0.3     	8.032e-11
0.05    	0.35    	8.0522e-11
0.05    	0.4     	8.0706e-11
0.05    	0.45    	8.0876e-11
0.05    	0.5     	8.1032e-11
0.05    	0.55    	8.1176e-11
0.05    	0.6     	8.1306e-11
0.05    	0.65    	8.1423e-11
0.05    	0.7     	8.1522e-11
0.1     	0       	8.4804e-13
0.1     	0.05    	4.5495e-10
0.1     	0.1     	5.2426e-10
0.1     	0.15    	5.3615e-10
0.1     	0.2     	5.3948e-10
0.1     	0.25    	5.4138e-10
0.1     	0.3     	5.4293e-10
0.1     	0.35    	5.4433e-10
0.1     	0.4     	5.4563e-10
0.1     	0.45    	5.468e-10
0.1     	0.5     	5.4789e-10
0.1     	0.55    	5.4889e-10
0.1     	0.6     	5.498e-10
0.1     	0.65    	5.5063e-10
0.1     	0.7     	5.5137e-10
0.15    	0       	7.7675e-12
0.15    	0.05    	3.0628e-09
0.15    	0.1     	3.5309e-09
0.15    	0.15    	3.6131e-09
0.15    	0.2     	3.6364e-09
0.15    	0.25    	3.6497e-09
0.15    	0.3     	3.6605e-09
0.15    	0.35    	3.6701e-09
0.15    	0.4     	3.6789e-09
0.15    	0.45    	3.6869e-09
0.15    	0.5     	3.6942e-09
0.15    	0.55    	3.701e-09
0.15    	0.6     	3.7071e-09
0.15    	0.65    	3.7128e-09
0.15    	0.7     	3.7179e-09
0.2     	0       	6.6677e-11
0.2     	0.05    	1.9958e-08
0.2     	0.1     	2.3114e-08
0.2     	0.15    	2.3672e-08
0.2     	0.2     	2.3831e-08
0.2     	0.25    	2.392e-08
0.2     	0.3     	2.3991e-08
0.2     	0.35    	2.4052e-08
0.2     	0.4     	2.4108e-08
0.2     	0.45    	2.4158e-08
0.2     	0.5     	2.4204e-08
0.2     	0.55    	2.4246e-08
0.2     	0.6     	2.4285e-08
0.2     	0.65    	2.432e-08
0.2     	0.7     	2.4352e-08
0.25    	0       	4.4509e-10
0.25    	0.05    	1.1427e-07
0.25    	0.1     	1.3483e-07
0.25    	0.15    	1.3852e-07
0.25    	0.2     	1.395e-07
0.25    	0.25    	1.3999e-07
0.25    	0.3     	1.4037e-07
0.25    	0.35    	1.4069e-07
0.25    	0.4     	1.4097e-07
0.25    	0.45    	1.4122e-07
0.25    	0.5     	1.4145e-07
0.25    	0.55    	1.4165e-07
0.25    	0.6     	1.4184e-07
0.25    	0.65    	1.4202e-07
0.25    	0.7     	1.4218e-07
0.3     	0       	1.7054e-09
0.3     	0.05    	4.4024e-07
0.3     	0.1     	5.5522e-07
0.3     	0.15    	5.7765e-07
0.3     	0.2     	5.8271e-07
0.3     	0.25    	5.8466e-07
0.3     	0.3     	5.8593e-07
0.3     	0.35    	5.8694e-07
0.3     	0.4     	5.878e-07
0.3     	0.45    	5.8856e-07
0.3     	0.5     	5.8924e-07
0.3     	0.55    	5.8985e-07
0.3     	0.6     	5.9041e-07
0.3     	0.65    	5.9092e-07
0.3     	0.7     	5.9138e-07
0.35    	0       	3.5872e-09
0.35    	0.05    	9.6147e-07
0.35    	0.1     	1.3841e-06
0.35    	0.15    	1.4968e-06
0.35    	0.2     	1.522e-06
0.35    	0.25    	1.529e-06
0.35    	0.3     	1.5326e-06
0.35    	0.35    	1.5348e-06
0.35    	0.4     	1.5365e-06
0.35    	0.45    	1.538e-06
0.35    	0.5     	1.5393e-06
0.35    	0.55    	1.5405e-06
0.35    	0.6     	1.5415e-06
0.35    	0.65    	1.5424e-06
0.35    	0.7     	1.5432e-06
0.4     	0       	5.5773e-09
0.4     	0.05    	1.4223e-06
0.4     	0.1     	2.3322e-06
0.4     	0.15    	2.7096e-06
0.4     	0.2     	2.8231e-06
0.4     	0.25    	2.8508e-06
0.4     	0.3     	2.8604e-06
0.4     	0.35    	2.8648e-06
0.4     	0.4     	2.8677e-06
0.4     	0.45    	2.8703e-06
0.4     	0.5     	2.8722e-06
0.4     	0.55    	2.8738e-06
0.4     	0.6     	2.8753e-06
0.4     	0.65    	2.8767e-06
0.4     	0.7     	2.8778e-06
0.45    	0       	7.5896e-09
0.45    	0.05    	1.7601e-06
0.45    	0.1     	3.1158e-06
0.45    	0.15    	3.9094e-06
0.45    	0.2     	4.2553e-06
0.45    	0.25    	4.3642e-06
0.45    	0.3     	4.3954e-06
0.45    	0.35    	4.4058e-06
0.45    	0.4     	4.4115e-06
0.45    	0.45    	4.415e-06
0.45    	0.5     	4.4176e-06
0.45    	0.55    	4.42e-06
0.45    	0.6     	4.4219e-06
0.45    	0.65    	4.4235e-06
0.45    	0.7     	4.425e-06
0.5     	0       	9.6867e-09
0.5     	0.05    	2.0148e-06
0.5     	0.1     	3.6946e-06
0.5     	0.15    	4.8935e-06
0.5     	0.2     	5.5877e-06
0.5     	0.25    	5.9029e-06
0.5     	0.3     	6.0046e-06
0.5     	0.35    	6.0361e-06
0.5     	0.4     	6.0488e-06
0.5     	0.45    	6.0549e-06
0.5     	0.5     	6.0591e-06
0.5     	0.55    	6.062e-06
0.5     	0.6     	6.0645e-06
0.5     	0.65    	6.0664e-06
0.5     	0.7     	6.068e-06
0.55    	0       	1.1894e-08
0.55    	0.05    	2.2176e-06
0.55    	0.1     	4.1363e-06
0.55    	0.15    	5.6398e-06
0.55    	0.2     	6.6733e-06
0.55    	0.25    	7.2677e-06
0.55    	0.3     	7.5569e-06
0.55    	0.35    	7.6599e-06
0.55    	0.4     	7.6971e-06
0.55    	0.45    	7.712e-06
0.55    	0.5     	7.7191e-06
0.55    	0.55    	7.7237e-06
0.55    	0.6     	7.7268e-06
0.55    	0.65    	7.7292e-06
0.55    	0.7     	7.7309e-06
0.6     	0       	1.4247e-08
0.6     	0.05    	2.3858e-06
0.6     	0.1     	4.4858e-06
0.6     	0.15    	6.2145e-06
0.6     	0.2     	7.5085e-06
0.6     	0.25    	8.374e-06
0.6     	0.3     	8.9069e-06
0.6     	0.35    	9.1673e-06
0.6     	0.4     	9.2738e-06
0.6     	0.45    	9.319e-06
0.6     	0.5     	9.3368e-06
0.6     	0.55    	9.3462e-06
0.6     	0.6     	9.3513e-06
0.6     	0.65    	9.3546e-06
0.6     	0.7     	9.3563e-06
0.65    	0       	1.6815e-08
0.65    	0.05    	2.5323e-06
0.65    	0.1     	4.7827e-06
0.65    	0.15    	6.6744e-06
0.65    	0.2     	8.1588e-06
0.65    	0.25    	9.2289e-06
0.65    	0.3     	9.9756e-06
0.65    	0.35    	1.0425e-05
0.65    	0.4     	1.0669e-05
0.65    	0.45    	1.0788e-05
0.65    	0.5     	1.0842e-05
0.65    	0.55    	1.0868e-05
0.65    	0.6     	1.088e-05
0.65    	0.65    	1.0886e-05
0.65    	0.7     	1.0888e-05
0.7     	0       	1.9461e-08
0.7     	0.05    	2.6568e-06
0.7     	0.1     	5.0382e-06
0.7     	0.15    	7.0594e-06
0.7     	0.2     	8.6843e-06
0.7     	0.25    	9.902e-06
0.7     	0.3     	1.0762e-05
0.7     	0.35    	1.1377e-05
0.7     	0.4     	1.1764e-05
0.7     	0.45    	1.1995e-05
0.7     	0.5     	1.212e-05
0.7     	0.55    	1.2183e-05
0.7     	0.6     	1.221e-05
0.7     	0.65    	1.2219e-05
0.7     	0.7     	1.2222e-05
