vg      	vd      	ids     
0       	0       	9.7443e-14
0       	0.05    	3.697e-12
0       	0.1     	4.227e-12
0       	0.15    	4.3111e-12
0       	0.2     	4.3293e-12
0       	0.25    	4.3374e-12
0       	0.3     	4.3435e-12
0       	0.35    	4.3491e-12
0       	0.4     	4.3544e-12
0       	0.45    	4.3593e-12
0       	0.5     	4.364e-12
0       	0.55    	4.3684e-12
0       	0.6     	4.3726e-12
0       	0.65    	4.3765e-12
0       	0.7     	4.3803e-12
0.05    	0       	5.8083e-13
0.05    	0.05    	2.5455e-11
0.05    	0.1     	2.9118e-11
0.05    	0.15    	2.9695e-11
0.05    	0.2     	2.9822e-11
0.05    	0.25    	2.9879e-11
0.05    	0.3     	2.9923e-11
0.05    	0.35    	2.9963e-11
0.05    	0.4     	3e-11   
0.05    	0.45    	3.0035e-11
0.05    	0.5     	3.0069e-11
0.05    	0.55    	3.01e-11
0.05    	0.6     	3.0129e-11
0.05    	0.65    	3.0157e-11
0.05    	0.7     	3.0183e-11
0.1     	0       	3.9144e-12
0.1     	0.05    	1.7232e-10
0.1     	0.1     	1.9766e-10
0.1     	0.15    	2.0167e-10
0.1     	0.2     	2.0257e-10
0.1     	0.25    	2.0298e-10
0.1     	0.3     	2.0329e-10
0.1     	0.35    	2.0357e-10
0.1     	0.4     	2.0383e-10
0.1     	0.45    	2.0407e-10
0.1     	0.5     	2.043e-10
0.1     	0.55    	2.0452e-10
0.1     	0.6     	2.0473e-10
0.1     	0.65    	2.0492e-10
0.1     	0.7     	2.051e-10
0.15    	0       	2.7178e-11
0.15    	0.05    	1.1505e-09
0.15    	0.1     	1.3223e-09
0.15    	0.15    	1.3503e-09
0.15    	0.2     	1.3566e-09
0.15    	0.25    	1.3595e-09
0.15    	0.3     	1.3617e-09
0.15    	0.35    	1.3637e-09
0.15    	0.4     	1.3655e-09
0.15    	0.45    	1.3672e-09
0.15    	0.5     	1.3687e-09
0.15    	0.55    	1.3702e-09
0.15    	0.6     	1.3716e-09
0.15    	0.65    	1.3729e-09
0.15    	0.7     	1.3742e-09
0.2     	0       	1.9057e-10
0.2     	0.05    	7.2727e-09
0.2     	0.1     	8.4207e-09
0.2     	0.15    	8.6107e-09
0.2     	0.2     	8.6546e-09
0.2     	0.25    	8.6749e-09
0.2     	0.3     	8.6901e-09
0.2     	0.35    	8.7032e-09
0.2     	0.4     	8.7149e-09
0.2     	0.45    	8.7257e-09
0.2     	0.5     	8.7358e-09
0.2     	0.55    	8.7453e-09
0.2     	0.6     	8.7542e-09
0.2     	0.65    	8.7626e-09
0.2     	0.7     	8.7706e-09
0.25    	0       	1.1782e-09
0.25    	0.05    	4.3548e-08
0.25    	0.1     	5.0837e-08
0.25    	0.15    	5.2101e-08
0.25    	0.2     	5.2396e-08
0.25    	0.25    	5.2528e-08
0.25    	0.3     	5.2624e-08
0.25    	0.35    	5.2705e-08
0.25    	0.4     	5.2776e-08
0.25    	0.45    	5.2841e-08
0.25    	0.5     	5.29e-08
0.25    	0.55    	5.2955e-08
0.25    	0.6     	5.3007e-08
0.25    	0.65    	5.3055e-08
0.25    	0.7     	5.3101e-08
0.3     	0       	5.3583e-09
0.3     	0.05    	2.1518e-07
0.3     	0.1     	2.5853e-07
0.3     	0.15    	2.6651e-07
0.3     	0.2     	2.683e-07
0.3     	0.25    	2.6901e-07
0.3     	0.3     	2.6949e-07
0.3     	0.35    	2.6988e-07
0.3     	0.4     	2.7022e-07
0.3     	0.45    	2.7052e-07
0.3     	0.5     	2.7079e-07
0.3     	0.55    	2.7104e-07
0.3     	0.6     	2.7127e-07
0.3     	0.65    	2.7148e-07
0.3     	0.7     	2.7168e-07
0.35    	0       	1.3806e-08
0.35    	0.05    	6.8134e-07
0.35    	0.1     	8.8407e-07
0.35    	0.15    	9.2718e-07
0.35    	0.2     	9.3644e-07
0.35    	0.25    	9.3936e-07
0.35    	0.3     	9.4098e-07
0.35    	0.35    	9.4222e-07
0.35    	0.4     	9.4326e-07
0.35    	0.45    	9.4416e-07
0.35    	0.5     	9.4495e-07
0.35    	0.55    	9.4567e-07
0.35    	0.6     	9.4632e-07
0.35    	0.65    	9.4692e-07
0.35    	0.7     	9.4748e-07
0.4     	0       	2.2796e-08
0.4     	0.05    	1.3322e-06
0.4     	0.1     	1.9341e-06
0.4     	0.15    	2.1052e-06
0.4     	0.2     	2.1442e-06
0.4     	0.25    	2.1544e-06
0.4     	0.3     	2.1586e-06
0.4     	0.35    	2.1613e-06
0.4     	0.4     	2.1635e-06
0.4     	0.45    	2.1653e-06
0.4     	0.5     	2.1669e-06
0.4     	0.55    	2.1683e-06
0.4     	0.6     	2.1696e-06
0.4     	0.65    	2.1708e-06
0.4     	0.7     	2.1718e-06
0.45    	0       	3.0299e-08
0.45    	0.05    	1.9463e-06
0.45    	0.1     	3.121e-06
0.45    	0.15    	3.5939e-06
0.45    	0.2     	3.7245e-06
0.45    	0.25    	3.7578e-06
0.45    	0.3     	3.7684e-06
0.45    	0.35    	3.7737e-06
0.45    	0.4     	3.7774e-06
0.45    	0.45    	3.7804e-06
0.45    	0.5     	3.7829e-06
0.45    	0.55    	3.7851e-06
0.45    	0.6     	3.7871e-06
0.45    	0.65    	3.7888e-06
0.45    	0.7     	3.7905e-06
0.5     	0       	3.6455e-08
0.5     	0.05    	2.459e-06
0.5     	0.1     	4.2132e-06
0.5     	0.15    	5.1587e-06
0.5     	0.2     	5.5003e-06
0.5     	0.25    	5.5974e-06
0.5     	0.3     	5.6256e-06
0.5     	0.35    	5.6363e-06
0.5     	0.4     	5.6423e-06
0.5     	0.45    	5.6467e-06
0.5     	0.5     	5.6508e-06
0.5     	0.55    	5.6538e-06
0.5     	0.6     	5.6565e-06
0.5     	0.65    	5.6588e-06
0.5     	0.7     	5.6609e-06
0.55    	0       	4.1447e-08
0.55    	0.05    	2.8773e-06
0.55    	0.1     	5.1313e-06
0.55    	0.15    	6.611e-06
0.55    	0.2     	7.3123e-06
0.55    	0.25    	7.5544e-06
0.55    	0.3     	7.6281e-06
0.55    	0.35    	7.6537e-06
0.55    	0.4     	7.6641e-06
0.55    	0.45    	7.6704e-06
0.55    	0.5     	7.675e-06
0.55    	0.55    	7.6789e-06
0.55    	0.6     	7.6822e-06
0.55    	0.65    	7.6855e-06
0.55    	0.7     	7.6882e-06
0.6     	0       	4.5503e-08
0.6     	0.05    	3.2191e-06
0.6     	0.1     	5.8844e-06
0.6     	0.15    	7.8528e-06
0.6     	0.2     	9.0129e-06
0.6     	0.25    	9.5151e-06
0.6     	0.3     	9.6948e-06
0.6     	0.35    	9.7516e-06
0.6     	0.4     	9.7726e-06
0.6     	0.45    	9.7814e-06
0.6     	0.5     	9.7905e-06
0.6     	0.55    	9.795e-06
0.6     	0.6     	9.796e-06
0.6     	0.65    	9.8016e-06
0.6     	0.7     	9.8035e-06
0.65    	0       	4.9215e-08
0.65    	0.05    	3.5018e-06
0.65    	0.1     	6.5036e-06
0.65    	0.15    	8.8757e-06
0.65    	0.2     	1.0498e-05
0.65    	0.25    	1.1363e-05
0.65    	0.3     	1.1736e-05
0.65    	0.35    	1.1869e-05
0.65    	0.4     	1.1914e-05
0.65    	0.45    	1.1932e-05
0.65    	0.5     	1.1942e-05
0.65    	0.55    	1.1946e-05
0.65    	0.6     	1.1952e-05
0.65    	0.65    	1.1955e-05
0.65    	0.7     	1.1959e-05
0.7     	0       	5.2223e-08
0.7     	0.05    	3.7386e-06
0.7     	0.1     	7.0161e-06
0.7     	0.15    	9.7119e-06
0.7     	0.2     	1.1729e-05
0.7     	0.25    	1.2997e-05
0.7     	0.3     	1.3659e-05
0.7     	0.35    	1.3935e-05
0.7     	0.4     	1.4036e-05
0.7     	0.45    	1.4077e-05
0.7     	0.5     	1.409e-05
0.7     	0.55    	1.4101e-05
0.7     	0.6     	1.4107e-05
0.7     	0.65    	1.4109e-05
0.7     	0.7     	1.4114e-05
