vg      	vd      	ids     
0       	0       	1.0804e-13
0       	0.05    	6.4926e-12
0       	0.1     	7.5788e-12
0       	0.15    	7.8728e-12
0       	0.2     	8.0445e-12
0       	0.25    	8.1941e-12
0       	0.3     	8.3377e-12
0       	0.35    	8.4774e-12
0       	0.4     	8.6134e-12
0       	0.45    	8.7447e-12
0       	0.5     	8.8704e-12
0       	0.55    	8.9896e-12
0       	0.6     	9.1012e-12
0       	0.65    	9.2045e-12
0       	0.7     	9.2991e-12
0.05    	0       	6.9138e-13
0.05    	0.05    	4.2513e-11
0.05    	0.1     	4.975e-11
0.05    	0.15    	5.1746e-11
0.05    	0.2     	5.2923e-11
0.05    	0.25    	5.3942e-11
0.05    	0.3     	5.4908e-11
0.05    	0.35    	5.5838e-11
0.05    	0.4     	5.6732e-11
0.05    	0.45    	5.7579e-11
0.05    	0.5     	5.8366e-11
0.05    	0.55    	5.908e-11
0.05    	0.6     	5.9718e-11
0.05    	0.65    	6.0291e-11
0.05    	0.7     	6.0813e-11
0.1     	0       	4.5433e-12
0.1     	0.05    	2.7736e-10
0.1     	0.1     	3.2507e-10
0.1     	0.15    	3.386e-10
0.1     	0.2     	3.4666e-10
0.1     	0.25    	3.5356e-10
0.1     	0.3     	3.5995e-10
0.1     	0.35    	3.6592e-10
0.1     	0.4     	3.7142e-10
0.1     	0.45    	3.7638e-10
0.1     	0.5     	3.8078e-10
0.1     	0.55    	3.847e-10
0.1     	0.6     	3.8825e-10
0.1     	0.65    	3.9153e-10
0.1     	0.7     	3.9463e-10
0.15    	0       	3.1758e-11
0.15    	0.05    	1.7372e-09
0.15    	0.1     	2.0487e-09
0.15    	0.15    	2.1376e-09
0.15    	0.2     	2.1903e-09
0.15    	0.25    	2.2341e-09
0.15    	0.3     	2.2726e-09
0.15    	0.35    	2.306e-09
0.15    	0.4     	2.335e-09
0.15    	0.45    	2.3607e-09
0.15    	0.5     	2.3842e-09
0.15    	0.55    	2.4061e-09
0.15    	0.6     	2.4269e-09
0.15    	0.65    	2.4466e-09
0.15    	0.7     	2.4655e-09
0.2     	0       	2.0373e-10
0.2     	0.05    	1.0547e-08
0.2     	0.1     	1.2495e-08
0.2     	0.15    	1.3054e-08
0.2     	0.2     	1.3365e-08
0.2     	0.25    	1.3602e-08
0.2     	0.3     	1.3796e-08
0.2     	0.35    	1.3962e-08
0.2     	0.4     	1.4112e-08
0.2     	0.45    	1.4251e-08
0.2     	0.5     	1.4383e-08
0.2     	0.55    	1.4509e-08
0.2     	0.6     	1.4631e-08
0.2     	0.65    	1.4749e-08
0.2     	0.7     	1.4863e-08
0.25    	0       	1.1134e-09
0.25    	0.05    	5.8954e-08
0.25    	0.1     	7.055e-08
0.25    	0.15    	7.3593e-08
0.25    	0.2     	7.5021e-08
0.25    	0.25    	7.6071e-08
0.25    	0.3     	7.6982e-08
0.25    	0.35    	7.7811e-08
0.25    	0.4     	7.858e-08
0.25    	0.45    	7.9305e-08
0.25    	0.5     	7.9997e-08
0.25    	0.55    	8.0665e-08
0.25    	0.6     	8.1312e-08
0.25    	0.65    	8.194e-08
0.25    	0.7     	8.2547e-08
0.3     	0       	4.2745e-09
0.3     	0.05    	2.5743e-07
0.3     	0.1     	3.174e-07
0.3     	0.15    	3.3164e-07
0.3     	0.2     	3.3728e-07
0.3     	0.25    	3.4118e-07
0.3     	0.3     	3.4456e-07
0.3     	0.35    	3.4766e-07
0.3     	0.4     	3.5051e-07
0.3     	0.45    	3.5316e-07
0.3     	0.5     	3.5563e-07
0.3     	0.55    	3.5796e-07
0.3     	0.6     	3.6017e-07
0.3     	0.65    	3.6226e-07
0.3     	0.7     	3.6422e-07
0.35    	0       	9.6287e-09
0.35    	0.05    	7.0995e-07
0.35    	0.1     	9.4341e-07
0.35    	0.15    	1.0003e-06
0.35    	0.2     	1.0171e-06
0.35    	0.25    	1.0257e-06
0.35    	0.3     	1.0322e-06
0.35    	0.35    	1.0376e-06
0.35    	0.4     	1.0424e-06
0.35    	0.45    	1.0466e-06
0.35    	0.5     	1.0504e-06
0.35    	0.55    	1.0539e-06
0.35    	0.6     	1.0572e-06
0.35    	0.65    	1.0602e-06
0.35    	0.7     	1.0631e-06
0.4     	0       	1.4985e-08
0.4     	0.05    	1.2813e-06
0.4     	0.1     	1.8833e-06
0.4     	0.15    	2.0622e-06
0.4     	0.2     	2.1083e-06
0.4     	0.25    	2.1247e-06
0.4     	0.3     	2.1342e-06
0.4     	0.35    	2.1416e-06
0.4     	0.4     	2.148e-06
0.4     	0.45    	2.1537e-06
0.4     	0.5     	2.1589e-06
0.4     	0.55    	2.1636e-06
0.4     	0.6     	2.168e-06
0.4     	0.65    	2.1721e-06
0.4     	0.7     	2.176e-06
0.45    	0       	1.9391e-08
0.45    	0.05    	1.8046e-06
0.45    	0.1     	2.9014e-06
0.45    	0.15    	3.3371e-06
0.45    	0.2     	3.4595e-06
0.45    	0.25    	3.4954e-06
0.45    	0.3     	3.5108e-06
0.45    	0.35    	3.5207e-06
0.45    	0.4     	3.5286e-06
0.45    	0.45    	3.5354e-06
0.45    	0.5     	3.5415e-06
0.45    	0.55    	3.5469e-06
0.45    	0.6     	3.5519e-06
0.45    	0.65    	3.5565e-06
0.45    	0.7     	3.5613e-06
0.5     	0       	2.3079e-08
0.5     	0.05    	2.2327e-06
0.5     	0.1     	3.8326e-06
0.5     	0.15    	4.6583e-06
0.5     	0.2     	4.9427e-06
0.5     	0.25    	5.0254e-06
0.5     	0.3     	5.0537e-06
0.5     	0.35    	5.0679e-06
0.5     	0.4     	5.0789e-06
0.5     	0.45    	5.0869e-06
0.5     	0.5     	5.0936e-06
0.5     	0.55    	5.0996e-06
0.5     	0.6     	5.1049e-06
0.5     	0.65    	5.1098e-06
0.5     	0.7     	5.1143e-06
0.55    	0       	2.6109e-08
0.55    	0.05    	2.5853e-06
0.55    	0.1     	4.6214e-06
0.55    	0.15    	5.898e-06
0.55    	0.2     	6.4561e-06
0.55    	0.25    	6.6417e-06
0.55    	0.3     	6.699e-06
0.55    	0.35    	6.7215e-06
0.55    	0.4     	6.7341e-06
0.55    	0.45    	6.7433e-06
0.55    	0.5     	6.7509e-06
0.55    	0.55    	6.7582e-06
0.55    	0.6     	6.764e-06
0.55    	0.65    	6.7691e-06
0.55    	0.7     	6.7738e-06
0.6     	0       	2.8548e-08
0.6     	0.05    	2.8778e-06
0.6     	0.1     	5.2735e-06
0.6     	0.15    	6.981e-06
0.6     	0.2     	7.9028e-06
0.6     	0.25    	8.2685e-06
0.6     	0.3     	8.387e-06
0.6     	0.35    	8.437e-06
0.6     	0.4     	8.4492e-06
0.6     	0.45    	8.4628e-06
0.6     	0.5     	8.4671e-06
0.6     	0.55    	8.4783e-06
0.6     	0.6     	8.4846e-06
0.6     	0.65    	8.4856e-06
0.6     	0.7     	8.4937e-06
0.65    	0       	3.0706e-08
0.65    	0.05    	3.1225e-06
0.65    	0.1     	5.8312e-06
0.65    	0.15    	7.8962e-06
0.65    	0.2     	9.2084e-06
0.65    	0.25    	9.8361e-06
0.65    	0.3     	1.008e-05
0.65    	0.35    	1.0168e-05
0.65    	0.4     	1.0198e-05
0.65    	0.45    	1.021e-05
0.65    	0.5     	1.0222e-05
0.65    	0.55    	1.0225e-05
0.65    	0.6     	1.0233e-05
0.65    	0.65    	1.0236e-05
0.65    	0.7     	1.0241e-05
0.7     	0       	3.2664e-08
0.7     	0.05    	3.329e-06
0.7     	0.1     	6.2848e-06
0.7     	0.15    	8.6572e-06
0.7     	0.2     	1.0333e-05
0.7     	0.25    	1.1287e-05
0.7     	0.3     	1.1734e-05
0.7     	0.35    	1.1887e-05
0.7     	0.4     	1.1944e-05
0.7     	0.45    	1.197e-05
0.7     	0.5     	1.1982e-05
0.7     	0.55    	1.199e-05
0.7     	0.6     	1.1997e-05
0.7     	0.65    	1.1999e-05
0.7     	0.7     	1.2002e-05
