vg      	vd      	ids     
0       	0       	2.4591e-18
0       	0.05    	8.9639e-16
0       	0.1     	1.0273e-15
0       	0.15    	1.0471e-15
0       	0.2     	1.0507e-15
0       	0.25    	1.0519e-15
0       	0.3     	1.0528e-15
0       	0.35    	1.0535e-15
0       	0.4     	1.0542e-15
0       	0.45    	1.0549e-15
0       	0.5     	1.0555e-15
0       	0.55    	1.0561e-15
0       	0.6     	1.0567e-15
0       	0.65    	1.0573e-15
0       	0.7     	1.0578e-15
0.05    	0       	1.0641e-17
0.05    	0.05    	6.2365e-15
0.05    	0.1     	7.1377e-15
0.05    	0.15    	7.2747e-15
0.05    	0.2     	7.3002e-15
0.05    	0.25    	7.3092e-15
0.05    	0.3     	7.3154e-15
0.05    	0.35    	7.3209e-15
0.05    	0.4     	7.3261e-15
0.05    	0.45    	7.3309e-15
0.05    	0.5     	7.3355e-15
0.05    	0.55    	7.3398e-15
0.05    	0.6     	7.344e-15
0.05    	0.65    	7.348e-15
0.05    	0.7     	7.3518e-15
0.1     	0       	8.1703e-17
0.1     	0.05    	4.2983e-14
0.1     	0.1     	4.9263e-14
0.1     	0.15    	5.021e-14
0.1     	0.2     	5.039e-14
0.1     	0.25    	5.0455e-14
0.1     	0.3     	5.0501e-14
0.1     	0.35    	5.0541e-14
0.1     	0.4     	5.0578e-14
0.1     	0.45    	5.0614e-14
0.1     	0.5     	5.0647e-14
0.1     	0.55    	5.0678e-14
0.1     	0.6     	5.0708e-14
0.1     	0.65    	5.0737e-14
0.1     	0.7     	5.0764e-14
0.15    	0       	6.7796e-16
0.15    	0.05    	2.9624e-13
0.15    	0.1     	3.3955e-13
0.15    	0.15    	3.4618e-13
0.15    	0.2     	3.4745e-13
0.15    	0.25    	3.4792e-13
0.15    	0.3     	3.4826e-13
0.15    	0.35    	3.4855e-13
0.15    	0.4     	3.4883e-13
0.15    	0.45    	3.4909e-13
0.15    	0.5     	3.4933e-13
0.15    	0.55    	3.4956e-13
0.15    	0.6     	3.4977e-13
0.15    	0.65    	3.4998e-13
0.15    	0.7     	3.5017e-13
0.2     	0       	6.3661e-15
0.2     	0.05    	2.0366e-12
0.2     	0.1     	2.3353e-12
0.2     	0.15    	2.3813e-12
0.2     	0.2     	2.3903e-12
0.2     	0.25    	2.3938e-12
0.2     	0.3     	2.3963e-12
0.2     	0.35    	2.3985e-12
0.2     	0.4     	2.4005e-12
0.2     	0.45    	2.4023e-12
0.2     	0.5     	2.4041e-12
0.2     	0.55    	2.4058e-12
0.2     	0.6     	2.4073e-12
0.2     	0.65    	2.4088e-12
0.2     	0.7     	2.4102e-12
0.25    	0       	2.6907e-14
0.25    	0.05    	1.4135e-11
0.25    	0.1     	1.6187e-11
0.25    	0.15    	1.6507e-11
0.25    	0.2     	1.6572e-11
0.25    	0.25    	1.6597e-11
0.25    	0.3     	1.6616e-11
0.25    	0.35    	1.6633e-11
0.25    	0.4     	1.6647e-11
0.25    	0.45    	1.6661e-11
0.25    	0.5     	1.6674e-11
0.25    	0.55    	1.6686e-11
0.25    	0.6     	1.6698e-11
0.25    	0.65    	1.6708e-11
0.25    	0.7     	1.6719e-11
0.3     	0       	1.934e-13
0.3     	0.05    	9.7041e-11
0.3     	0.1     	1.1133e-10
0.3     	0.15    	1.1354e-10
0.3     	0.2     	1.1401e-10
0.3     	0.25    	1.142e-10
0.3     	0.3     	1.1434e-10
0.3     	0.35    	1.1447e-10
0.3     	0.4     	1.1458e-10
0.3     	0.45    	1.1468e-10
0.3     	0.5     	1.1477e-10
0.3     	0.55    	1.1486e-10
0.3     	0.6     	1.1494e-10
0.3     	0.65    	1.1502e-10
0.3     	0.7     	1.1509e-10
0.35    	0       	1.4732e-12
0.35    	0.05    	6.6294e-10
0.35    	0.1     	7.6125e-10
0.35    	0.15    	7.7685e-10
0.35    	0.2     	7.8021e-10
0.35    	0.25    	7.8166e-10
0.35    	0.3     	7.8272e-10
0.35    	0.35    	7.8364e-10
0.35    	0.4     	7.8446e-10
0.35    	0.45    	7.8521e-10
0.35    	0.5     	7.859e-10
0.35    	0.55    	7.8654e-10
0.35    	0.6     	7.8714e-10
0.35    	0.65    	7.8769e-10
0.35    	0.7     	7.8822e-10
0.4     	0       	6.4068e-12
0.4     	0.05    	4.4846e-09
0.4     	0.1     	5.1581e-09
0.4     	0.15    	5.2671e-09
0.4     	0.2     	5.2917e-09
0.4     	0.25    	5.3027e-09
0.4     	0.3     	5.3107e-09
0.4     	0.35    	5.3176e-09
0.4     	0.4     	5.3236e-09
0.4     	0.45    	5.3291e-09
0.4     	0.5     	5.3341e-09
0.4     	0.55    	5.3387e-09
0.4     	0.6     	5.343e-09
0.4     	0.65    	5.3469e-09
0.4     	0.7     	5.3506e-09
0.45    	0       	3.5053e-11
0.45    	0.05    	2.7968e-08
0.45    	0.1     	3.254e-08
0.45    	0.15    	3.3294e-08
0.45    	0.2     	3.3469e-08
0.45    	0.25    	3.3547e-08
0.45    	0.3     	3.3603e-08
0.45    	0.35    	3.365e-08
0.45    	0.4     	3.3691e-08
0.45    	0.45    	3.3727e-08
0.45    	0.5     	3.376e-08
0.45    	0.55    	3.379e-08
0.45    	0.6     	3.3818e-08
0.45    	0.65    	3.3843e-08
0.45    	0.7     	3.3867e-08
0.5     	0       	1.397e-10
0.5     	0.05    	1.2839e-07
0.5     	0.1     	1.5657e-07
0.5     	0.15    	1.6156e-07
0.5     	0.2     	1.6264e-07
0.5     	0.25    	1.6307e-07
0.5     	0.3     	1.6336e-07
0.5     	0.35    	1.6358e-07
0.5     	0.4     	1.6378e-07
0.5     	0.45    	1.6395e-07
0.5     	0.5     	1.641e-07
0.5     	0.55    	1.6424e-07
0.5     	0.6     	1.6436e-07
0.5     	0.65    	1.6448e-07
0.5     	0.7     	1.6459e-07
0.55    	0       	2.9419e-10
0.55    	0.05    	3.2983e-07
0.55    	0.1     	4.5253e-07
0.55    	0.15    	4.791e-07
0.55    	0.2     	4.8487e-07
0.55    	0.25    	4.8655e-07
0.55    	0.3     	4.8747e-07
0.55    	0.35    	4.8814e-07
0.55    	0.4     	4.887e-07
0.55    	0.45    	4.8917e-07
0.55    	0.5     	4.8964e-07
0.55    	0.55    	4.9e-07 
0.55    	0.6     	4.9033e-07
0.55    	0.65    	4.9062e-07
0.55    	0.7     	4.9089e-07
0.6     	0       	4.1207e-10
0.6     	0.05    	5.2499e-07
0.6     	0.1     	8.3417e-07
0.6     	0.15    	9.3793e-07
0.6     	0.2     	9.6511e-07
0.6     	0.25    	9.7131e-07
0.6     	0.3     	9.7363e-07
0.6     	0.35    	9.7502e-07
0.6     	0.4     	9.7621e-07
0.6     	0.45    	9.7707e-07
0.6     	0.5     	9.7779e-07
0.6     	0.55    	9.7842e-07
0.6     	0.6     	9.7898e-07
0.6     	0.65    	9.7955e-07
0.6     	0.7     	9.8001e-07
0.65    	0       	4.9536e-10
0.65    	0.05    	6.5818e-07
0.65    	0.1     	1.1515e-06
0.65    	0.15    	1.4232e-06
0.65    	0.2     	1.5116e-06
0.65    	0.25    	1.5361e-06
0.65    	0.3     	1.5424e-06
0.65    	0.35    	1.5454e-06
0.65    	0.4     	1.547e-06
0.65    	0.45    	1.5483e-06
0.65    	0.5     	1.5494e-06
0.65    	0.55    	1.5504e-06
0.65    	0.6     	1.5512e-06
0.65    	0.65    	1.5519e-06
0.65    	0.7     	1.5525e-06
0.7     	0       	5.043e-10
0.7     	0.05    	7.399e-07
0.7     	0.1     	1.3575e-06
0.7     	0.15    	1.808e-06
0.7     	0.2     	2.0366e-06
0.7     	0.25    	2.1142e-06
0.7     	0.3     	2.1348e-06
0.7     	0.35    	2.1417e-06
0.7     	0.4     	2.1446e-06
0.7     	0.45    	2.1467e-06
0.7     	0.5     	2.1481e-06
0.7     	0.55    	2.1492e-06
0.7     	0.6     	2.1503e-06
0.7     	0.65    	2.1512e-06
0.7     	0.7     	2.1519e-06
