vg      	vd      	ids     
0       	0       	1.3044e-12
0       	0.05    	2.268e-10
0       	0.1     	2.6489e-10
0       	0.15    	2.742e-10
0       	0.2     	2.7889e-10
0       	0.25    	2.8266e-10
0       	0.3     	2.8606e-10
0       	0.35    	2.8924e-10
0       	0.4     	2.9225e-10
0       	0.45    	2.9511e-10
0       	0.5     	2.9785e-10
0       	0.55    	3.0049e-10
0       	0.6     	3.0302e-10
0       	0.65    	3.0546e-10
0       	0.7     	3.0782e-10
0.05    	0       	8.5954e-12
0.05    	0.05    	1.4674e-09
0.05    	0.1     	1.7154e-09
0.05    	0.15    	1.7766e-09
0.05    	0.2     	1.8074e-09
0.05    	0.25    	1.8318e-09
0.05    	0.3     	1.8539e-09
0.05    	0.35    	1.8744e-09
0.05    	0.4     	1.8937e-09
0.05    	0.45    	1.912e-09
0.05    	0.5     	1.9295e-09
0.05    	0.55    	1.9462e-09
0.05    	0.6     	1.9623e-09
0.05    	0.65    	1.9776e-09
0.05    	0.7     	1.9923e-09
0.1     	0       	5.3638e-11
0.1     	0.05    	9.2438e-09
0.1     	0.1     	1.0846e-08
0.1     	0.15    	1.1238e-08
0.1     	0.2     	1.1431e-08
0.1     	0.25    	1.1582e-08
0.1     	0.3     	1.1718e-08
0.1     	0.35    	1.1843e-08
0.1     	0.4     	1.1959e-08
0.1     	0.45    	1.2068e-08
0.1     	0.5     	1.2172e-08
0.1     	0.55    	1.2269e-08
0.1     	0.6     	1.2362e-08
0.1     	0.65    	1.245e-08
0.1     	0.7     	1.2534e-08
0.15    	0       	2.8374e-10
0.15    	0.05    	5.3311e-08
0.15    	0.1     	6.3236e-08
0.15    	0.15    	6.5584e-08
0.15    	0.2     	6.6643e-08
0.15    	0.25    	6.7429e-08
0.15    	0.3     	6.8116e-08
0.15    	0.35    	6.8738e-08
0.15    	0.4     	6.931e-08
0.15    	0.45    	6.9841e-08
0.15    	0.5     	7.0336e-08
0.15    	0.55    	7.0802e-08
0.15    	0.6     	7.1243e-08
0.15    	0.65    	7.1662e-08
0.15    	0.7     	7.2061e-08
0.2     	0       	1.0176e-09
0.2     	0.05    	2.2833e-07
0.2     	0.1     	2.8087e-07
0.2     	0.15    	2.9251e-07
0.2     	0.2     	2.9669e-07
0.2     	0.25    	2.9937e-07
0.2     	0.3     	3.0158e-07
0.2     	0.35    	3.0353e-07
0.2     	0.4     	3.0531e-07
0.2     	0.45    	3.0693e-07
0.2     	0.5     	3.0843e-07
0.2     	0.55    	3.0983e-07
0.2     	0.6     	3.1113e-07
0.2     	0.65    	3.1237e-07
0.2     	0.7     	3.1353e-07
0.25    	0       	2.162e-09
0.25    	0.05    	5.9832e-07
0.25    	0.1     	7.8867e-07
0.25    	0.15    	8.3203e-07
0.25    	0.2     	8.4436e-07
0.25    	0.25    	8.5046e-07
0.25    	0.3     	8.5494e-07
0.25    	0.35    	8.5872e-07
0.25    	0.4     	8.6206e-07
0.25    	0.45    	8.6507e-07
0.25    	0.5     	8.678e-07
0.25    	0.55    	8.7032e-07
0.25    	0.6     	8.7265e-07
0.25    	0.65    	8.7483e-07
0.25    	0.7     	8.7687e-07
0.3     	0       	3.3056e-09
0.3     	0.05    	1.0576e-06
0.3     	0.1     	1.5137e-06
0.3     	0.15    	1.6347e-06
0.3     	0.2     	1.6663e-06
0.3     	0.25    	1.6798e-06
0.3     	0.3     	1.6873e-06
0.3     	0.35    	1.6931e-06
0.3     	0.4     	1.6981e-06
0.3     	0.45    	1.7025e-06
0.3     	0.5     	1.7064e-06
0.3     	0.55    	1.7099e-06
0.3     	0.6     	1.7132e-06
0.3     	0.65    	1.7162e-06
0.3     	0.7     	1.719e-06
0.35    	0       	4.2831e-09
0.35    	0.05    	1.5002e-06
0.35    	0.1     	2.3169e-06
0.35    	0.15    	2.5869e-06
0.35    	0.2     	2.6579e-06
0.35    	0.25    	2.6828e-06
0.35    	0.3     	2.6945e-06
0.35    	0.35    	2.7027e-06
0.35    	0.4     	2.7094e-06
0.35    	0.45    	2.7151e-06
0.35    	0.5     	2.7202e-06
0.35    	0.55    	2.7248e-06
0.35    	0.6     	2.7289e-06
0.35    	0.65    	2.7327e-06
0.35    	0.7     	2.7361e-06
0.4     	0       	5.0948e-09
0.4     	0.05    	1.8912e-06
0.4     	0.1     	3.105e-06
0.4     	0.15    	3.5982e-06
0.4     	0.2     	3.7456e-06
0.4     	0.25    	3.7888e-06
0.4     	0.3     	3.8086e-06
0.4     	0.35    	3.819e-06
0.4     	0.4     	3.8284e-06
0.4     	0.45    	3.8358e-06
0.4     	0.5     	3.8421e-06
0.4     	0.55    	3.8476e-06
0.4     	0.6     	3.8526e-06
0.4     	0.65    	3.8571e-06
0.4     	0.7     	3.8612e-06
0.45    	0       	5.7804e-09
0.45    	0.05    	2.2293e-06
0.45    	0.1     	3.8312e-06
0.45    	0.15    	4.6119e-06
0.45    	0.2     	4.8794e-06
0.45    	0.25    	4.9613e-06
0.45    	0.3     	4.9905e-06
0.45    	0.35    	5.006e-06
0.45    	0.4     	5.0171e-06
0.45    	0.45    	5.0268e-06
0.45    	0.5     	5.0345e-06
0.45    	0.55    	5.0411e-06
0.45    	0.6     	5.0468e-06
0.45    	0.65    	5.052e-06
0.45    	0.7     	5.0568e-06
0.5     	0       	6.3693e-09
0.5     	0.05    	2.5219e-06
0.5     	0.1     	4.4784e-06
0.5     	0.15    	5.5706e-06
0.5     	0.2     	6.0266e-06
0.5     	0.25    	6.1732e-06
0.5     	0.3     	6.2199e-06
0.5     	0.35    	6.2414e-06
0.5     	0.4     	6.2551e-06
0.5     	0.45    	6.2657e-06
0.5     	0.5     	6.2745e-06
0.5     	0.55    	6.2821e-06
0.5     	0.6     	6.2887e-06
0.5     	0.65    	6.2953e-06
0.5     	0.7     	6.3008e-06
0.55    	0       	6.8857e-09
0.55    	0.05    	2.7767e-06
0.55    	0.1     	5.0458e-06
0.55    	0.15    	6.4739e-06
0.55    	0.2     	7.1578e-06
0.55    	0.25    	7.3998e-06
0.55    	0.3     	7.476e-06
0.55    	0.35    	7.5092e-06
0.55    	0.4     	7.5272e-06
0.55    	0.45    	7.5398e-06
0.55    	0.5     	7.5499e-06
0.55    	0.55    	7.5585e-06
0.55    	0.6     	7.5659e-06
0.55    	0.65    	7.5725e-06
0.55    	0.7     	7.5784e-06
0.6     	0       	7.3392e-09
0.6     	0.05    	2.9999e-06
0.6     	0.1     	5.5401e-06
0.6     	0.15    	7.2935e-06
0.6     	0.2     	8.244e-06
0.6     	0.25    	8.6229e-06
0.6     	0.3     	8.7501e-06
0.6     	0.35    	8.7968e-06
0.6     	0.4     	8.8201e-06
0.6     	0.45    	8.8355e-06
0.6     	0.5     	8.8482e-06
0.6     	0.55    	8.8583e-06
0.6     	0.6     	8.8666e-06
0.6     	0.65    	8.8738e-06
0.6     	0.7     	8.8803e-06
0.65    	0       	7.7597e-09
0.65    	0.05    	3.1961e-06
0.65    	0.1     	5.9701e-06
0.65    	0.15    	8.0222e-06
0.65    	0.2     	9.2331e-06
0.65    	0.25    	9.8083e-06
0.65    	0.3     	1.002e-05
0.65    	0.35    	1.0093e-05
0.65    	0.4     	1.0127e-05
0.65    	0.45    	1.0146e-05
0.65    	0.5     	1.016e-05
0.65    	0.55    	1.0171e-05
0.65    	0.6     	1.018e-05
0.65    	0.65    	1.0189e-05
0.65    	0.7     	1.0196e-05
0.7     	0       	8.1389e-09
0.7     	0.05    	3.3688e-06
0.7     	0.1     	6.3443e-06
0.7     	0.15    	8.6612e-06
0.7     	0.2     	1.0155e-05
0.7     	0.25    	1.0951e-05
0.7     	0.3     	1.1274e-05
0.7     	0.35    	1.1391e-05
0.7     	0.4     	1.1437e-05
0.7     	0.45    	1.1463e-05
0.7     	0.5     	1.1479e-05
0.7     	0.55    	1.1491e-05
0.7     	0.6     	1.1501e-05
0.7     	0.65    	1.151e-05
0.7     	0.7     	1.1517e-05
