vg      	vd      	ids     
0       	0       	5.0333e-13
0       	0.05    	2.9081e-10
0       	0.1     	3.3511e-10
0       	0.15    	3.4301e-10
0       	0.2     	3.4543e-10
0       	0.25    	3.4693e-10
0       	0.3     	3.4821e-10
0       	0.35    	3.4937e-10
0       	0.4     	3.5045e-10
0       	0.45    	3.5146e-10
0       	0.5     	3.524e-10
0       	0.55    	3.5329e-10
0       	0.6     	3.5414e-10
0       	0.65    	3.5494e-10
0       	0.7     	3.557e-10
0.05    	0       	3.0748e-12
0.05    	0.05    	1.9718e-09
0.05    	0.1     	2.2729e-09
0.05    	0.15    	2.3274e-09
0.05    	0.2     	2.3445e-09
0.05    	0.25    	2.3551e-09
0.05    	0.3     	2.364e-09
0.05    	0.35    	2.372e-09
0.05    	0.4     	2.3793e-09
0.05    	0.45    	2.3861e-09
0.05    	0.5     	2.3925e-09
0.05    	0.55    	2.3985e-09
0.05    	0.6     	2.4041e-09
0.05    	0.65    	2.4095e-09
0.05    	0.7     	2.4146e-09
0.1     	0       	1.9767e-11
0.1     	0.05    	1.3025e-08
0.1     	0.1     	1.5071e-08
0.1     	0.15    	1.5444e-08
0.1     	0.2     	1.5561e-08
0.1     	0.25    	1.5633e-08
0.1     	0.3     	1.5692e-08
0.1     	0.35    	1.5745e-08
0.1     	0.4     	1.5792e-08
0.1     	0.45    	1.5836e-08
0.1     	0.5     	1.5877e-08
0.1     	0.55    	1.5915e-08
0.1     	0.6     	1.5951e-08
0.1     	0.65    	1.5984e-08
0.1     	0.7     	1.6016e-08
0.15    	0       	1.0905e-10
0.15    	0.05    	7.8186e-08
0.15    	0.1     	9.1685e-08
0.15    	0.15    	9.417e-08
0.15    	0.2     	9.4906e-08
0.15    	0.25    	9.5326e-08
0.15    	0.3     	9.566e-08
0.15    	0.35    	9.595e-08
0.15    	0.4     	9.6209e-08
0.15    	0.45    	9.6445e-08
0.15    	0.5     	9.6661e-08
0.15    	0.55    	9.6862e-08
0.15    	0.6     	9.7048e-08
0.15    	0.65    	9.7223e-08
0.15    	0.7     	9.7387e-08
0.2     	0       	3.9278e-10
0.2     	0.05    	3.3579e-07
0.2     	0.1     	4.1373e-07
0.2     	0.15    	4.286e-07
0.2     	0.2     	4.3234e-07
0.2     	0.25    	4.3408e-07
0.2     	0.3     	4.3533e-07
0.2     	0.35    	4.3636e-07
0.2     	0.4     	4.3727e-07
0.2     	0.45    	4.3807e-07
0.2     	0.5     	4.388e-07
0.2     	0.55    	4.3946e-07
0.2     	0.6     	4.4007e-07
0.2     	0.65    	4.4064e-07
0.2     	0.7     	4.4117e-07
0.25    	0       	7.8334e-10
0.25    	0.05    	8.2766e-07
0.25    	0.1     	1.136e-06
0.25    	0.15    	1.2086e-06
0.25    	0.2     	1.2259e-06
0.25    	0.25    	1.2314e-06
0.25    	0.3     	1.2345e-06
0.25    	0.35    	1.2369e-06
0.25    	0.4     	1.2388e-06
0.25    	0.45    	1.2406e-06
0.25    	0.5     	1.2421e-06
0.25    	0.55    	1.2434e-06
0.25    	0.6     	1.2448e-06
0.25    	0.65    	1.246e-06
0.25    	0.7     	1.247e-06
0.3     	0       	1.1131e-09
0.3     	0.05    	1.3282e-06
0.3     	0.1     	2.0657e-06
0.3     	0.15    	2.3256e-06
0.3     	0.2     	2.3908e-06
0.3     	0.25    	2.4077e-06
0.3     	0.3     	2.4147e-06
0.3     	0.35    	2.4191e-06
0.3     	0.4     	2.4229e-06
0.3     	0.45    	2.4257e-06
0.3     	0.5     	2.4281e-06
0.3     	0.55    	2.4303e-06
0.3     	0.6     	2.4322e-06
0.3     	0.65    	2.4341e-06
0.3     	0.7     	2.4356e-06
0.35    	0       	1.3672e-09
0.35    	0.05    	1.7108e-06
0.35    	0.1     	2.9151e-06
0.35    	0.15    	3.5278e-06
0.35    	0.2     	3.7405e-06
0.35    	0.25    	3.7935e-06
0.35    	0.3     	3.8113e-06
0.35    	0.35    	3.8192e-06
0.35    	0.4     	3.8244e-06
0.35    	0.45    	3.8284e-06
0.35    	0.5     	3.8322e-06
0.35    	0.55    	3.8351e-06
0.35    	0.6     	3.8376e-06
0.35    	0.65    	3.8399e-06
0.35    	0.7     	3.8422e-06
0.4     	0       	1.5696e-09
0.4     	0.05    	1.9856e-06
0.4     	0.1     	3.5641e-06
0.4     	0.15    	4.5896e-06
0.4     	0.2     	5.0915e-06
0.4     	0.25    	5.2531e-06
0.4     	0.3     	5.301e-06
0.4     	0.35    	5.3173e-06
0.4     	0.4     	5.3263e-06
0.4     	0.45    	5.332e-06
0.4     	0.5     	5.3365e-06
0.4     	0.55    	5.3405e-06
0.4     	0.6     	5.3437e-06
0.4     	0.65    	5.3464e-06
0.4     	0.7     	5.3489e-06
0.45    	0       	1.7372e-09
0.45    	0.05    	2.186e-06
0.45    	0.1     	4.0307e-06
0.45    	0.15    	5.4026e-06
0.45    	0.2     	6.2643e-06
0.45    	0.25    	6.655e-06
0.45    	0.3     	6.7859e-06
0.45    	0.35    	6.8284e-06
0.45    	0.4     	6.8443e-06
0.45    	0.45    	6.8535e-06
0.45    	0.5     	6.8593e-06
0.45    	0.55    	6.8639e-06
0.45    	0.6     	6.8679e-06
0.45    	0.65    	6.8711e-06
0.45    	0.7     	6.8739e-06
0.5     	0       	1.8796e-09
0.5     	0.05    	2.3358e-06
0.5     	0.1     	4.3677e-06
0.5     	0.15    	5.9859e-06
0.5     	0.2     	7.1543e-06
0.5     	0.25    	7.8385e-06
0.5     	0.3     	8.1556e-06
0.5     	0.35    	8.2695e-06
0.5     	0.4     	8.3102e-06
0.5     	0.45    	8.3271e-06
0.5     	0.5     	8.3358e-06
0.5     	0.55    	8.3416e-06
0.5     	0.6     	8.3464e-06
0.5     	0.65    	8.3501e-06
0.5     	0.7     	8.3534e-06
0.55    	0       	2.0022e-09
0.55    	0.05    	2.4497e-06
0.55    	0.1     	4.6165e-06
0.55    	0.15    	6.4027e-06
0.55    	0.2     	7.7264e-06
0.55    	0.25    	8.6788e-06
0.55    	0.3     	9.2658e-06
0.55    	0.35    	9.5384e-06
0.55    	0.4     	9.6502e-06
0.55    	0.45    	9.6915e-06
0.55    	0.5     	9.7087e-06
0.55    	0.55    	9.7184e-06
0.55    	0.6     	9.7243e-06
0.55    	0.65    	9.7289e-06
0.55    	0.7     	9.7324e-06
0.6     	0       	2.1014e-09
0.6     	0.05    	2.5291e-06
0.6     	0.1     	4.7958e-06
0.6     	0.15    	6.6993e-06
0.6     	0.2     	8.1558e-06
0.6     	0.25    	9.2684e-06
0.6     	0.3     	1.0019e-05
0.6     	0.35    	1.0505e-05
0.6     	0.4     	1.0761e-05
0.6     	0.45    	1.0873e-05
0.6     	0.5     	1.092e-05
0.6     	0.55    	1.0941e-05
0.6     	0.6     	1.0952e-05
0.6     	0.65    	1.0958e-05
0.6     	0.7     	1.0963e-05
0.65    	0       	2.1626e-09
0.65    	0.05    	2.5669e-06
0.65    	0.1     	4.903e-06
0.65    	0.15    	6.8877e-06
0.65    	0.2     	8.4964e-06
0.65    	0.25    	9.6455e-06
0.65    	0.3     	1.0513e-05
0.65    	0.35    	1.1138e-05
0.65    	0.4     	1.1522e-05
0.65    	0.45    	1.1762e-05
0.65    	0.5     	1.1885e-05
0.65    	0.55    	1.1946e-05
0.65    	0.6     	1.1974e-05
0.65    	0.65    	1.1988e-05
0.65    	0.7     	1.1997e-05
0.7     	0       	2.217e-09
0.7     	0.05    	2.5892e-06
0.7     	0.1     	4.9543e-06
0.7     	0.15    	6.9997e-06
0.7     	0.2     	8.67e-06
0.7     	0.25    	9.8768e-06
0.7     	0.3     	1.0809e-05
0.7     	0.35    	1.148e-05
0.7     	0.4     	1.1978e-05
0.7     	0.45    	1.2299e-05
0.7     	0.5     	1.2517e-05
0.7     	0.55    	1.264e-05
0.7     	0.6     	1.2713e-05
0.7     	0.65    	1.275e-05
0.7     	0.7     	1.2767e-05
