vg      	vd      	ids     
0       	0       	3.2848e-12
0       	0.05    	1.7109e-09
0       	0.1     	1.9877e-09
0       	0.15    	2.0488e-09
0       	0.2     	2.0761e-09
0       	0.25    	2.0969e-09
0       	0.3     	2.1153e-09
0       	0.35    	2.1321e-09
0       	0.4     	2.1475e-09
0       	0.45    	2.1617e-09
0       	0.5     	2.1746e-09
0       	0.55    	2.1866e-09
0       	0.6     	2.1976e-09
0       	0.65    	2.2079e-09
0       	0.7     	2.2175e-09
0.05    	0       	2.1812e-11
0.05    	0.05    	1.1259e-08
0.05    	0.1     	1.3106e-08
0.05    	0.15    	1.3521e-08
0.05    	0.2     	1.3705e-08
0.05    	0.25    	1.3839e-08
0.05    	0.3     	1.3954e-08
0.05    	0.35    	1.4055e-08
0.05    	0.4     	1.4145e-08
0.05    	0.45    	1.4226e-08
0.05    	0.5     	1.43e-08
0.05    	0.55    	1.4369e-08
0.05    	0.6     	1.4433e-08
0.05    	0.65    	1.4493e-08
0.05    	0.7     	1.455e-08
0.1     	0       	1.329e-10
0.1     	0.05    	6.9564e-08
0.1     	0.1     	8.1638e-08
0.1     	0.15    	8.4287e-08
0.1     	0.2     	8.5353e-08
0.1     	0.25    	8.6078e-08
0.1     	0.3     	8.6675e-08
0.1     	0.35    	8.7198e-08
0.1     	0.4     	8.7669e-08
0.1     	0.45    	8.81e-08
0.1     	0.5     	8.8501e-08
0.1     	0.55    	8.8877e-08
0.1     	0.6     	8.9232e-08
0.1     	0.65    	8.957e-08
0.1     	0.7     	8.9893e-08
0.15    	0       	5.8771e-10
0.15    	0.05    	3.439e-07
0.15    	0.1     	4.1573e-07
0.15    	0.15    	4.3059e-07
0.15    	0.2     	4.3555e-07
0.15    	0.25    	4.3855e-07
0.15    	0.3     	4.4096e-07
0.15    	0.35    	4.4307e-07
0.15    	0.4     	4.4498e-07
0.15    	0.45    	4.4672e-07
0.15    	0.5     	4.4833e-07
0.15    	0.55    	4.4984e-07
0.15    	0.6     	4.5126e-07
0.15    	0.65    	4.5259e-07
0.15    	0.7     	4.5386e-07
0.2     	0       	1.4701e-09
0.2     	0.05    	1.0542e-06
0.2     	0.1     	1.3831e-06
0.2     	0.15    	1.4559e-06
0.2     	0.2     	1.4746e-06
0.2     	0.25    	1.4827e-06
0.2     	0.3     	1.4883e-06
0.2     	0.35    	1.4934e-06
0.2     	0.4     	1.4972e-06
0.2     	0.45    	1.5006e-06
0.2     	0.5     	1.5037e-06
0.2     	0.55    	1.5065e-06
0.2     	0.6     	1.5091e-06
0.2     	0.65    	1.5115e-06
0.2     	0.7     	1.5138e-06
0.25    	0       	2.3531e-09
0.25    	0.05    	1.98e-06
0.25    	0.1     	2.9376e-06
0.25    	0.15    	3.2321e-06
0.25    	0.2     	3.3012e-06
0.25    	0.25    	3.3234e-06
0.25    	0.3     	3.3334e-06
0.25    	0.35    	3.3404e-06
0.25    	0.4     	3.346e-06
0.25    	0.45    	3.3509e-06
0.25    	0.5     	3.3557e-06
0.25    	0.55    	3.3596e-06
0.25    	0.6     	3.3631e-06
0.25    	0.65    	3.3663e-06
0.25    	0.7     	3.3693e-06
0.3     	0       	3.0808e-09
0.3     	0.05    	2.7744e-06
0.3     	0.1     	4.5812e-06
0.3     	0.15    	5.4189e-06
0.3     	0.2     	5.6636e-06
0.3     	0.25    	5.7263e-06
0.3     	0.3     	5.7475e-06
0.3     	0.35    	5.7596e-06
0.3     	0.4     	5.7673e-06
0.3     	0.45    	5.7736e-06
0.3     	0.5     	5.7789e-06
0.3     	0.55    	5.784e-06
0.3     	0.6     	5.7882e-06
0.3     	0.65    	5.7919e-06
0.3     	0.7     	5.7954e-06
0.35    	0       	3.6569e-09
0.35    	0.05    	3.3543e-06
0.35    	0.1     	5.9195e-06
0.35    	0.15    	7.5314e-06
0.35    	0.2     	8.2066e-06
0.35    	0.25    	8.4173e-06
0.35    	0.3     	8.4786e-06
0.35    	0.35    	8.5002e-06
0.35    	0.4     	8.5118e-06
0.35    	0.45    	8.5207e-06
0.35    	0.5     	8.5272e-06
0.35    	0.55    	8.5331e-06
0.35    	0.6     	8.5379e-06
0.35    	0.65    	8.5421e-06
0.35    	0.7     	8.5459e-06
0.4     	0       	4.1092e-09
0.4     	0.05    	3.7593e-06
0.4     	0.1     	6.8711e-06
0.4     	0.15    	9.133e-06
0.4     	0.2     	1.0505e-05
0.4     	0.25    	1.1093e-05
0.4     	0.3     	1.1281e-05
0.4     	0.35    	1.134e-05
0.4     	0.4     	1.1363e-05
0.4     	0.45    	1.1376e-05
0.4     	0.5     	1.1384e-05
0.4     	0.55    	1.1391e-05
0.4     	0.6     	1.1396e-05
0.4     	0.65    	1.14e-05
0.4     	0.7     	1.1405e-05
0.45    	0       	4.4175e-09
0.45    	0.05    	4.0309e-06
0.45    	0.1     	7.5154e-06
0.45    	0.15    	1.0258e-05
0.45    	0.2     	1.2221e-05
0.45    	0.25    	1.3353e-05
0.45    	0.3     	1.387e-05
0.45    	0.35    	1.4057e-05
0.45    	0.4     	1.4119e-05
0.45    	0.45    	1.4143e-05
0.45    	0.5     	1.4156e-05
0.45    	0.55    	1.4165e-05
0.45    	0.6     	1.4171e-05
0.45    	0.65    	1.4176e-05
0.45    	0.7     	1.418e-05
0.5     	0       	4.5529e-09
0.5     	0.05    	4.1526e-06
0.5     	0.1     	7.8874e-06
0.5     	0.15    	1.0957e-05
0.5     	0.2     	1.3321e-05
0.5     	0.25    	1.4914e-05
0.5     	0.3     	1.5868e-05
0.5     	0.35    	1.6364e-05
0.5     	0.4     	1.6559e-05
0.5     	0.45    	1.6631e-05
0.5     	0.5     	1.666e-05
0.5     	0.55    	1.6676e-05
0.5     	0.6     	1.6685e-05
0.5     	0.65    	1.6691e-05
0.5     	0.7     	1.6696e-05
0.55    	0       	4.6401e-09
0.55    	0.05    	4.1933e-06
0.55    	0.1     	8.0305e-06
0.55    	0.15    	1.131e-05
0.55    	0.2     	1.3932e-05
0.55    	0.25    	1.5809e-05
0.55    	0.3     	1.7088e-05
0.55    	0.35    	1.7932e-05
0.55    	0.4     	1.8385e-05
0.55    	0.45    	1.8616e-05
0.55    	0.5     	1.871e-05
0.55    	0.55    	1.8753e-05
0.55    	0.6     	1.8773e-05
0.55    	0.65    	1.8785e-05
0.55    	0.7     	1.8792e-05
0.6     	0       	4.6902e-09
0.6     	0.05    	4.223e-06
0.6     	0.1     	8.1396e-06
0.6     	0.15    	1.1451e-05
0.6     	0.2     	1.4231e-05
0.6     	0.25    	1.6213e-05
0.6     	0.3     	1.7702e-05
0.6     	0.35    	1.8787e-05
0.6     	0.4     	1.9498e-05
0.6     	0.45    	1.9925e-05
0.6     	0.5     	2.0173e-05
0.6     	0.55    	2.0305e-05
0.6     	0.6     	2.037e-05
0.6     	0.65    	2.0402e-05
0.6     	0.7     	2.0418e-05
0.65    	0       	4.6996e-09
0.65    	0.05    	4.2355e-06
0.65    	0.1     	8.1675e-06
0.65    	0.15    	1.1524e-05
0.65    	0.2     	1.4372e-05
0.65    	0.25    	1.6456e-05
0.65    	0.3     	1.8086e-05
0.65    	0.35    	1.9258e-05
0.65    	0.4     	2.012e-05
0.65    	0.45    	2.0688e-05
0.65    	0.5     	2.1076e-05
0.65    	0.55    	2.132e-05
0.65    	0.6     	2.1471e-05
0.65    	0.65    	2.1545e-05
0.65    	0.7     	2.158e-05
0.7     	0       	4.669e-09
0.7     	0.05    	4.2371e-06
0.7     	0.1     	8.1958e-06
0.7     	0.15    	1.1578e-05
0.7     	0.2     	1.4463e-05
0.7     	0.25    	1.6606e-05
0.7     	0.3     	1.8307e-05
0.7     	0.35    	1.9565e-05
0.7     	0.4     	2.049e-05
0.7     	0.45    	2.1161e-05
0.7     	0.5     	2.1634e-05
0.7     	0.55    	2.1939e-05
0.7     	0.6     	2.2128e-05
0.7     	0.65    	2.2221e-05
0.7     	0.7     	2.2256e-05
