vg      	vd      	ids     
0       	0       	5.4904e-14
0       	0.05    	3.6732e-12
0       	0.1     	4.2041e-12
0       	0.15    	4.2858e-12
0       	0.2     	4.3024e-12
0       	0.25    	4.3091e-12
0       	0.3     	4.314e-12
0       	0.35    	4.3184e-12
0       	0.4     	4.3225e-12
0       	0.45    	4.3264e-12
0       	0.5     	4.33e-12
0       	0.55    	4.3335e-12
0       	0.6     	4.3368e-12
0       	0.65    	4.3399e-12
0       	0.7     	4.3428e-12
0.05    	0       	3.9939e-13
0.05    	0.05    	2.4898e-11
0.05    	0.1     	2.8573e-11
0.05    	0.15    	2.9145e-11
0.05    	0.2     	2.9263e-11
0.05    	0.25    	2.9312e-11
0.05    	0.3     	2.9348e-11
0.05    	0.35    	2.938e-11
0.05    	0.4     	2.9409e-11
0.05    	0.45    	2.9437e-11
0.05    	0.5     	2.9463e-11
0.05    	0.55    	2.9487e-11
0.05    	0.6     	2.951e-11
0.05    	0.65    	2.9533e-11
0.05    	0.7     	2.9553e-11
0.1     	0       	2.9757e-12
0.1     	0.05    	1.6709e-10
0.1     	0.1     	1.92e-10
0.1     	0.15    	1.9598e-10
0.1     	0.2     	1.9683e-10
0.1     	0.25    	1.9719e-10
0.1     	0.3     	1.9745e-10
0.1     	0.35    	1.9768e-10
0.1     	0.4     	1.9789e-10
0.1     	0.45    	1.9809e-10
0.1     	0.5     	1.9827e-10
0.1     	0.55    	1.9845e-10
0.1     	0.6     	1.9861e-10
0.1     	0.65    	1.9876e-10
0.1     	0.7     	1.9891e-10
0.15    	0       	2.3182e-11
0.15    	0.05    	1.0753e-09
0.15    	0.1     	1.2425e-09
0.15    	0.15    	1.2696e-09
0.15    	0.2     	1.2755e-09
0.15    	0.25    	1.2781e-09
0.15    	0.3     	1.28e-09
0.15    	0.35    	1.2817e-09
0.15    	0.4     	1.2831e-09
0.15    	0.45    	1.2845e-09
0.15    	0.5     	1.2857e-09
0.15    	0.55    	1.2869e-09
0.15    	0.6     	1.288e-09
0.15    	0.65    	1.2891e-09
0.15    	0.7     	1.29e-09
0.2     	0       	1.6178e-10
0.2     	0.05    	6.753e-09
0.2     	0.1     	7.8272e-09
0.2     	0.15    	8.0103e-09
0.2     	0.2     	8.0515e-09
0.2     	0.25    	8.0697e-09
0.2     	0.3     	8.083e-09
0.2     	0.35    	8.0944e-09
0.2     	0.4     	8.1046e-09
0.2     	0.45    	8.1137e-09
0.2     	0.5     	8.122e-09
0.2     	0.55    	8.1297e-09
0.2     	0.6     	8.1369e-09
0.2     	0.65    	8.1437e-09
0.2     	0.7     	8.1502e-09
0.25    	0       	9.7063e-10
0.25    	0.05    	4.0074e-08
0.25    	0.1     	4.6825e-08
0.25    	0.15    	4.8009e-08
0.25    	0.2     	4.8285e-08
0.25    	0.25    	4.8407e-08
0.25    	0.3     	4.8495e-08
0.25    	0.35    	4.8569e-08
0.25    	0.4     	4.8635e-08
0.25    	0.45    	4.8693e-08
0.25    	0.5     	4.8745e-08
0.25    	0.55    	4.8793e-08
0.25    	0.6     	4.8837e-08
0.25    	0.65    	4.8879e-08
0.25    	0.7     	4.8918e-08
0.3     	0       	4.1745e-09
0.3     	0.05    	1.9367e-07
0.3     	0.1     	2.334e-07
0.3     	0.15    	2.4078e-07
0.3     	0.2     	2.4247e-07
0.3     	0.25    	2.4316e-07
0.3     	0.3     	2.4362e-07
0.3     	0.35    	2.4401e-07
0.3     	0.4     	2.4434e-07
0.3     	0.45    	2.4463e-07
0.3     	0.5     	2.4489e-07
0.3     	0.55    	2.4513e-07
0.3     	0.6     	2.4534e-07
0.3     	0.65    	2.4554e-07
0.3     	0.7     	2.4573e-07
0.35    	0       	1.0245e-08
0.35    	0.05    	5.8956e-07
0.35    	0.1     	7.6684e-07
0.35    	0.15    	8.0456e-07
0.35    	0.2     	8.1284e-07
0.35    	0.25    	8.1559e-07
0.35    	0.3     	8.1718e-07
0.35    	0.35    	8.1841e-07
0.35    	0.4     	8.1946e-07
0.35    	0.45    	8.2038e-07
0.35    	0.5     	8.2119e-07
0.35    	0.55    	8.2191e-07
0.35    	0.6     	8.2256e-07
0.35    	0.65    	8.2315e-07
0.35    	0.7     	8.237e-07
0.4     	0       	1.6658e-08
0.4     	0.05    	1.1316e-06
0.4     	0.1     	1.6321e-06
0.4     	0.15    	1.7698e-06
0.4     	0.2     	1.8012e-06
0.4     	0.25    	1.8099e-06
0.4     	0.3     	1.8138e-06
0.4     	0.35    	1.8165e-06
0.4     	0.4     	1.8186e-06
0.4     	0.45    	1.8205e-06
0.4     	0.5     	1.8221e-06
0.4     	0.55    	1.8235e-06
0.4     	0.6     	1.8248e-06
0.4     	0.65    	1.826e-06
0.4     	0.7     	1.827e-06
0.45    	0       	2.2153e-08
0.45    	0.05    	1.6544e-06
0.45    	0.1     	2.6169e-06
0.45    	0.15    	2.9767e-06
0.45    	0.2     	3.0716e-06
0.45    	0.25    	3.0965e-06
0.45    	0.3     	3.1052e-06
0.45    	0.35    	3.11e-06
0.45    	0.4     	3.1136e-06
0.45    	0.45    	3.1165e-06
0.45    	0.5     	3.1191e-06
0.45    	0.55    	3.1213e-06
0.45    	0.6     	3.1233e-06
0.45    	0.65    	3.125e-06
0.45    	0.7     	3.1266e-06
0.5     	0       	2.6703e-08
0.5     	0.05    	2.1055e-06
0.5     	0.1     	3.5545e-06
0.5     	0.15    	4.2667e-06
0.5     	0.2     	4.4991e-06
0.5     	0.25    	4.5635e-06
0.5     	0.3     	4.5834e-06
0.5     	0.35    	4.592e-06
0.5     	0.4     	4.5974e-06
0.5     	0.45    	4.6016e-06
0.5     	0.5     	4.6056e-06
0.5     	0.55    	4.6087e-06
0.5     	0.6     	4.6113e-06
0.5     	0.65    	4.6137e-06
0.5     	0.7     	4.6158e-06
0.55    	0       	3.0677e-08
0.55    	0.05    	2.487e-06
0.55    	0.1     	4.3772e-06
0.55    	0.15    	5.5177e-06
0.55    	0.2     	5.9875e-06
0.55    	0.25    	6.1358e-06
0.55    	0.3     	6.1827e-06
0.55    	0.35    	6.1988e-06
0.55    	0.4     	6.207e-06
0.55    	0.45    	6.2126e-06
0.55    	0.5     	6.2171e-06
0.55    	0.55    	6.2209e-06
0.55    	0.6     	6.2242e-06
0.55    	0.65    	6.2275e-06
0.55    	0.7     	6.2302e-06
0.6     	0       	3.3793e-08
0.6     	0.05    	2.8092e-06
0.6     	0.1     	5.0785e-06
0.6     	0.15    	6.6488e-06
0.6     	0.2     	7.4497e-06
0.6     	0.25    	7.7545e-06
0.6     	0.3     	7.8503e-06
0.6     	0.35    	7.8823e-06
0.6     	0.4     	7.8958e-06
0.6     	0.45    	7.9043e-06
0.6     	0.5     	7.9104e-06
0.6     	0.55    	7.9146e-06
0.6     	0.6     	7.9192e-06
0.6     	0.65    	7.9214e-06
0.6     	0.7     	7.9266e-06
0.65    	0       	3.6513e-08
0.65    	0.05    	3.0831e-06
0.65    	0.1     	5.6742e-06
0.65    	0.15    	7.6284e-06
0.65    	0.2     	8.8105e-06
0.65    	0.25    	9.3395e-06
0.65    	0.3     	9.5407e-06
0.65    	0.35    	9.6079e-06
0.65    	0.4     	9.6333e-06
0.65    	0.45    	9.6419e-06
0.65    	0.5     	9.6525e-06
0.65    	0.55    	9.6563e-06
0.65    	0.6     	9.6625e-06
0.65    	0.65    	9.6651e-06
0.65    	0.7     	9.6698e-06
0.7     	0       	3.8948e-08
0.7     	0.05    	3.318e-06
0.7     	0.1     	6.1831e-06
0.7     	0.15    	8.4622e-06
0.7     	0.2     	1.0021e-05
0.7     	0.25    	1.0846e-05
0.7     	0.3     	1.1209e-05
0.7     	0.35    	1.1341e-05
0.7     	0.4     	1.1388e-05
0.7     	0.45    	1.141e-05
0.7     	0.5     	1.1417e-05
0.7     	0.55    	1.1425e-05
0.7     	0.6     	1.1428e-05
0.7     	0.65    	1.1434e-05
0.7     	0.7     	1.1436e-05
