vg      	vd      	ids     
0       	0       	4.2291e-13
0       	0.05    	2.5621e-10
0       	0.1     	2.9373e-10
0       	0.15    	2.9955e-10
0       	0.2     	3.0068e-10
0       	0.25    	3.0108e-10
0       	0.3     	3.0136e-10
0       	0.35    	3.0159e-10
0       	0.4     	3.018e-10
0       	0.45    	3.0199e-10
0       	0.5     	3.0217e-10
0       	0.55    	3.0233e-10
0       	0.6     	3.0248e-10
0       	0.65    	3.0261e-10
0       	0.7     	3.0273e-10
0.05    	0       	3.2572e-12
0.05    	0.05    	1.7369e-09
0.05    	0.1     	1.9958e-09
0.05    	0.15    	2.0359e-09
0.05    	0.2     	2.0439e-09
0.05    	0.25    	2.0469e-09
0.05    	0.3     	2.049e-09
0.05    	0.35    	2.0508e-09
0.05    	0.4     	2.0523e-09
0.05    	0.45    	2.0538e-09
0.05    	0.5     	2.055e-09
0.05    	0.55    	2.0562e-09
0.05    	0.6     	2.0573e-09
0.05    	0.65    	2.0583e-09
0.05    	0.7     	2.0592e-09
0.1     	0       	2.2957e-11
0.1     	0.05    	1.1688e-08
0.1     	0.1     	1.3447e-08
0.1     	0.15    	1.3727e-08
0.1     	0.2     	1.3785e-08
0.1     	0.25    	1.3808e-08
0.1     	0.3     	1.3823e-08
0.1     	0.35    	1.3836e-08
0.1     	0.4     	1.3848e-08
0.1     	0.45    	1.3858e-08
0.1     	0.5     	1.3868e-08
0.1     	0.55    	1.3877e-08
0.1     	0.6     	1.3885e-08
0.1     	0.65    	1.3892e-08
0.1     	0.7     	1.3898e-08
0.15    	0       	1.4337e-10
0.15    	0.05    	7.2754e-08
0.15    	0.1     	8.4686e-08
0.15    	0.15    	8.6629e-08
0.15    	0.2     	8.7041e-08
0.15    	0.25    	8.7204e-08
0.15    	0.3     	8.7314e-08
0.15    	0.35    	8.7405e-08
0.15    	0.4     	8.7485e-08
0.15    	0.45    	8.7555e-08
0.15    	0.5     	8.7618e-08
0.15    	0.55    	8.7675e-08
0.15    	0.6     	8.7728e-08
0.15    	0.65    	8.7775e-08
0.15    	0.7     	8.7819e-08
0.2     	0       	6.027e-10
0.2     	0.05    	3.3616e-07
0.2     	0.1     	4.1014e-07
0.2     	0.15    	4.2326e-07
0.2     	0.2     	4.2598e-07
0.2     	0.25    	4.2687e-07
0.2     	0.3     	4.2747e-07
0.2     	0.35    	4.2793e-07
0.2     	0.4     	4.2836e-07
0.2     	0.45    	4.287e-07
0.2     	0.5     	4.29e-07
0.2     	0.55    	4.2927e-07
0.2     	0.6     	4.2952e-07
0.2     	0.65    	4.2974e-07
0.2     	0.7     	4.2994e-07
0.25    	0       	1.3498e-09
0.25    	0.05    	8.8654e-07
0.25    	0.1     	1.2153e-06
0.25    	0.15    	1.2921e-06
0.25    	0.2     	1.3082e-06
0.25    	0.25    	1.3129e-06
0.25    	0.3     	1.315e-06
0.25    	0.35    	1.3164e-06
0.25    	0.4     	1.3175e-06
0.25    	0.45    	1.3185e-06
0.25    	0.5     	1.3193e-06
0.25    	0.55    	1.3201e-06
0.25    	0.6     	1.3208e-06
0.25    	0.65    	1.3214e-06
0.25    	0.7     	1.3219e-06
0.3     	0       	2.0591e-09
0.3     	0.05    	1.4581e-06
0.3     	0.1     	2.2951e-06
0.3     	0.15    	2.6109e-06
0.3     	0.2     	2.6919e-06
0.3     	0.25    	2.7109e-06
0.3     	0.3     	2.7172e-06
0.3     	0.35    	2.7208e-06
0.3     	0.4     	2.7231e-06
0.3     	0.45    	2.7249e-06
0.3     	0.5     	2.7264e-06
0.3     	0.55    	2.7279e-06
0.3     	0.6     	2.7291e-06
0.3     	0.65    	2.7301e-06
0.3     	0.7     	2.731e-06
0.35    	0       	2.6835e-09
0.35    	0.05    	1.8887e-06
0.35    	0.1     	3.2591e-06
0.35    	0.15    	4.0243e-06
0.35    	0.2     	4.3255e-06
0.35    	0.25    	4.405e-06
0.35    	0.3     	4.4286e-06
0.35    	0.35    	4.4367e-06
0.35    	0.4     	4.4414e-06
0.35    	0.45    	4.4444e-06
0.35    	0.5     	4.4467e-06
0.35    	0.55    	4.4488e-06
0.35    	0.6     	4.4505e-06
0.35    	0.65    	4.4519e-06
0.35    	0.7     	4.4533e-06
0.4     	0       	3.2442e-09
0.4     	0.05    	2.1992e-06
0.4     	0.1     	3.9733e-06
0.4     	0.15    	5.2088e-06
0.4     	0.2     	5.9036e-06
0.4     	0.25    	6.1731e-06
0.4     	0.3     	6.26e-06
0.4     	0.35    	6.2875e-06
0.4     	0.4     	6.2976e-06
0.4     	0.45    	6.3034e-06
0.4     	0.5     	6.307e-06
0.4     	0.55    	6.3099e-06
0.4     	0.6     	6.3121e-06
0.4     	0.65    	6.3139e-06
0.4     	0.7     	6.3155e-06
0.45    	0       	3.7699e-09
0.45    	0.05    	2.431e-06
0.45    	0.1     	4.4895e-06
0.45    	0.15    	6.0799e-06
0.45    	0.2     	7.1724e-06
0.45    	0.25    	7.7554e-06
0.45    	0.3     	8.0263e-06
0.45    	0.35    	8.1236e-06
0.45    	0.4     	8.1563e-06
0.45    	0.45    	8.1693e-06
0.45    	0.5     	8.1764e-06
0.45    	0.55    	8.1806e-06
0.45    	0.6     	8.1836e-06
0.45    	0.65    	8.1859e-06
0.45    	0.7     	8.1875e-06
0.5     	0       	4.2621e-09
0.5     	0.05    	2.6081e-06
0.5     	0.1     	4.8743e-06
0.5     	0.15    	6.7104e-06
0.5     	0.2     	8.0436e-06
0.5     	0.25    	8.9666e-06
0.5     	0.3     	9.4995e-06
0.5     	0.35    	9.7719e-06
0.5     	0.4     	9.8787e-06
0.5     	0.45    	9.925e-06
0.5     	0.5     	9.9438e-06
0.5     	0.55    	9.9534e-06
0.5     	0.6     	9.9589e-06
0.5     	0.65    	9.9617e-06
0.5     	0.7     	9.9629e-06
0.55    	0       	4.6818e-09
0.55    	0.05    	2.7277e-06
0.55    	0.1     	5.1529e-06
0.55    	0.15    	7.1667e-06
0.55    	0.2     	8.6899e-06
0.55    	0.25    	9.8204e-06
0.55    	0.3     	1.0566e-05
0.55    	0.35    	1.1025e-05
0.55    	0.4     	1.1294e-05
0.55    	0.45    	1.1421e-05
0.55    	0.5     	1.1486e-05
0.55    	0.55    	1.1516e-05
0.55    	0.6     	1.1527e-05
0.55    	0.65    	1.1531e-05
0.55    	0.7     	1.1533e-05
0.6     	0       	5.0728e-09
0.6     	0.05    	2.8058e-06
0.6     	0.1     	5.3299e-06
0.6     	0.15    	7.4778e-06
0.6     	0.2     	9.1324e-06
0.6     	0.25    	1.0399e-05
0.6     	0.3     	1.1282e-05
0.6     	0.35    	1.1875e-05
0.6     	0.4     	1.2258e-05
0.6     	0.45    	1.2484e-05
0.6     	0.5     	1.2607e-05
0.6     	0.55    	1.2655e-05
0.6     	0.6     	1.2673e-05
0.6     	0.65    	1.268e-05
0.6     	0.7     	1.2684e-05
0.65    	0       	5.4457e-09
0.65    	0.05    	2.8566e-06
0.65    	0.1     	5.4764e-06
0.65    	0.15    	7.6906e-06
0.65    	0.2     	9.4566e-06
0.65    	0.25    	1.082e-05
0.65    	0.3     	1.1787e-05
0.65    	0.35    	1.2427e-05
0.65    	0.4     	1.2888e-05
0.65    	0.45    	1.3159e-05
0.65    	0.5     	1.3297e-05
0.65    	0.55    	1.3355e-05
0.65    	0.6     	1.3379e-05
0.65    	0.65    	1.3387e-05
0.65    	0.7     	1.3394e-05
0.7     	0       	5.8223e-09
0.7     	0.05    	2.9108e-06
0.7     	0.1     	5.5786e-06
0.7     	0.15    	7.8542e-06
0.7     	0.2     	9.6985e-06
0.7     	0.25    	1.1152e-05
0.7     	0.3     	1.215e-05
0.7     	0.35    	1.2891e-05
0.7     	0.4     	1.3371e-05
0.7     	0.45    	1.3673e-05
0.7     	0.5     	1.3812e-05
0.7     	0.55    	1.3874e-05
0.7     	0.6     	1.3895e-05
0.7     	0.65    	1.3905e-05
0.7     	0.7     	1.3915e-05
