vg      	vd      	ids     
0       	0       	1.3154e-12
0       	0.05    	1.6233e-09
0       	0.1     	2.0728e-09
0       	0.15    	2.3157e-09
0       	0.2     	2.5285e-09
0       	0.25    	2.739e-09
0       	0.3     	2.9483e-09
0       	0.35    	3.1467e-09
0       	0.4     	3.3346e-09
0       	0.45    	3.5207e-09
0       	0.5     	3.7078e-09
0       	0.55    	3.8969e-09
0       	0.6     	4.0881e-09
0       	0.65    	4.2816e-09
0       	0.7     	4.4772e-09
0.05    	0       	7.589e-12
0.05    	0.05    	8.3165e-09
0.05    	0.1     	1.0664e-08
0.05    	0.15    	1.1969e-08
0.05    	0.2     	1.3104e-08
0.05    	0.25    	1.4156e-08
0.05    	0.3     	1.5127e-08
0.05    	0.35    	1.6078e-08
0.05    	0.4     	1.7029e-08
0.05    	0.45    	1.7996e-08
0.05    	0.5     	1.8953e-08
0.05    	0.55    	1.9903e-08
0.05    	0.6     	2.0825e-08
0.05    	0.65    	2.1697e-08
0.05    	0.7     	2.2537e-08
0.1     	0       	3.2682e-11
0.1     	0.05    	3.9134e-08
0.1     	0.1     	5.0651e-08
0.1     	0.15    	5.6853e-08
0.1     	0.2     	6.1649e-08
0.1     	0.25    	6.6061e-08
0.1     	0.3     	7.0361e-08
0.1     	0.35    	7.4546e-08
0.1     	0.4     	7.8483e-08
0.1     	0.45    	8.2136e-08
0.1     	0.5     	8.563e-08
0.1     	0.55    	8.9059e-08
0.1     	0.6     	9.2455e-08
0.1     	0.65    	9.583e-08
0.1     	0.7     	9.9169e-08
0.15    	0       	1.1328e-10
0.15    	0.05    	1.5014e-07
0.15    	0.1     	1.9734e-07
0.15    	0.15    	2.1885e-07
0.15    	0.2     	2.3476e-07
0.15    	0.25    	2.4833e-07
0.15    	0.3     	2.6037e-07
0.15    	0.35    	2.717e-07
0.15    	0.4     	2.8255e-07
0.15    	0.45    	2.9292e-07
0.15    	0.5     	3.0269e-07
0.15    	0.55    	3.1173e-07
0.15    	0.6     	3.2018e-07
0.15    	0.65    	3.2824e-07
0.15    	0.7     	3.3606e-07
0.2     	0       	2.6833e-10
0.2     	0.05    	4.0674e-07
0.2     	0.1     	5.5223e-07
0.2     	0.15    	6.0793e-07
0.2     	0.2     	6.4069e-07
0.2     	0.25    	6.67e-07
0.2     	0.3     	6.8987e-07
0.2     	0.35    	7.1001e-07
0.2     	0.4     	7.2837e-07
0.2     	0.45    	7.4715e-07
0.2     	0.5     	7.6341e-07
0.2     	0.55    	7.788e-07
0.2     	0.6     	7.9336e-07
0.2     	0.65    	8.0705e-07
0.2     	0.7     	8.1986e-07
0.25    	0       	4.4626e-10
0.25    	0.05    	7.6768e-07
0.25    	0.1     	1.1092e-06
0.25    	0.15    	1.2335e-06
0.25    	0.2     	1.289e-06
0.25    	0.25    	1.3263e-06
0.25    	0.3     	1.3572e-06
0.25    	0.35    	1.3872e-06
0.25    	0.4     	1.4115e-06
0.25    	0.45    	1.4334e-06
0.25    	0.5     	1.4535e-06
0.25    	0.55    	1.4721e-06
0.25    	0.6     	1.4896e-06
0.25    	0.65    	1.5062e-06
0.25    	0.7     	1.5235e-06
0.3     	0       	6.0134e-10
0.3     	0.05    	1.1253e-06
0.3     	0.1     	1.7556e-06
0.3     	0.15    	2.0056e-06
0.3     	0.2     	2.1036e-06
0.3     	0.25    	2.1538e-06
0.3     	0.3     	2.1943e-06
0.3     	0.35    	2.2252e-06
0.3     	0.4     	2.2525e-06
0.3     	0.45    	2.2772e-06
0.3     	0.5     	2.2998e-06
0.3     	0.55    	2.3206e-06
0.3     	0.6     	2.3418e-06
0.3     	0.65    	2.3598e-06
0.3     	0.7     	2.3765e-06
0.35    	0       	7.2721e-10
0.35    	0.05    	1.4228e-06
0.35    	0.1     	2.3774e-06
0.35    	0.15    	2.8429e-06
0.35    	0.2     	3.0116e-06
0.35    	0.25    	3.0816e-06
0.35    	0.3     	3.1294e-06
0.35    	0.35    	3.1635e-06
0.35    	0.4     	3.1926e-06
0.35    	0.45    	3.2183e-06
0.35    	0.5     	3.2437e-06
0.35    	0.55    	3.2649e-06
0.35    	0.6     	3.2844e-06
0.35    	0.65    	3.3026e-06
0.35    	0.7     	3.3197e-06
0.4     	0       	8.295e-10
0.4     	0.05    	1.6557e-06
0.4     	0.1     	2.9085e-06
0.4     	0.15    	3.6471e-06
0.4     	0.2     	3.9466e-06
0.4     	0.25    	4.0625e-06
0.4     	0.3     	4.1216e-06
0.4     	0.35    	4.1591e-06
0.4     	0.4     	4.1894e-06
0.4     	0.45    	4.2157e-06
0.4     	0.5     	4.2413e-06
0.4     	0.55    	4.2627e-06
0.4     	0.6     	4.282e-06
0.4     	0.65    	4.2999e-06
0.4     	0.7     	4.3179e-06
0.45    	0       	9.1474e-10
0.45    	0.05    	1.8372e-06
0.45    	0.1     	3.3345e-06
0.45    	0.15    	4.3344e-06
0.45    	0.2     	4.8557e-06
0.45    	0.25    	5.0586e-06
0.45    	0.3     	5.14e-06
0.45    	0.35    	5.1835e-06
0.45    	0.4     	5.2155e-06
0.45    	0.45    	5.2442e-06
0.45    	0.5     	5.2673e-06
0.45    	0.55    	5.2878e-06
0.45    	0.6     	5.3064e-06
0.45    	0.65    	5.3249e-06
0.45    	0.7     	5.3408e-06
0.5     	0       	9.8765e-10
0.5     	0.05    	1.981e-06
0.5     	0.1     	3.6688e-06
0.5     	0.15    	4.9142e-06
0.5     	0.2     	5.6799e-06
0.5     	0.25    	6.0231e-06
0.5     	0.3     	6.1528e-06
0.5     	0.35    	6.2137e-06
0.5     	0.4     	6.2493e-06
0.5     	0.45    	6.2785e-06
0.5     	0.5     	6.3014e-06
0.5     	0.55    	6.3213e-06
0.5     	0.6     	6.3405e-06
0.5     	0.65    	6.3568e-06
0.5     	0.7     	6.3716e-06
0.55    	0       	1.0513e-09
0.55    	0.05    	2.0969e-06
0.55    	0.1     	3.9318e-06
0.55    	0.15    	5.3742e-06
0.55    	0.2     	6.3751e-06
0.55    	0.25    	6.9103e-06
0.55    	0.3     	7.1389e-06
0.55    	0.35    	7.2289e-06
0.55    	0.4     	7.2751e-06
0.55    	0.45    	7.3039e-06
0.55    	0.5     	7.3264e-06
0.55    	0.55    	7.3468e-06
0.55    	0.6     	7.3637e-06
0.55    	0.65    	7.3787e-06
0.55    	0.7     	7.3932e-06
0.6     	0       	1.1078e-09
0.6     	0.05    	2.1916e-06
0.6     	0.1     	4.141e-06
0.6     	0.15    	5.7349e-06
0.6     	0.2     	6.9303e-06
0.6     	0.25    	7.6703e-06
0.6     	0.3     	8.0444e-06
0.6     	0.35    	8.203e-06
0.6     	0.4     	8.2692e-06
0.6     	0.45    	8.3036e-06
0.6     	0.5     	8.3289e-06
0.6     	0.55    	8.348e-06
0.6     	0.6     	8.3641e-06
0.6     	0.65    	8.379e-06
0.6     	0.7     	8.3919e-06
0.65    	0       	1.158e-09
0.65    	0.05    	2.2698e-06
0.65    	0.1     	4.3101e-06
0.65    	0.15    	6.0196e-06
0.65    	0.2     	7.3062e-06
0.65    	0.25    	8.2444e-06
0.65    	0.3     	8.8245e-06
0.65    	0.35    	9.0943e-06
0.65    	0.4     	9.2118e-06
0.65    	0.45    	9.2635e-06
0.65    	0.5     	9.2917e-06
0.65    	0.55    	9.3125e-06
0.65    	0.6     	9.3283e-06
0.65    	0.65    	9.3422e-06
0.65    	0.7     	9.3539e-06
0.7     	0       	1.2035e-09
0.7     	0.05    	2.3352e-06
0.7     	0.1     	4.4489e-06
0.7     	0.15    	6.2475e-06
0.7     	0.2     	7.6392e-06
0.7     	0.25    	8.7087e-06
0.7     	0.3     	9.4476e-06
0.7     	0.35    	9.855e-06
0.7     	0.4     	1.0068e-05
0.7     	0.45    	1.0155e-05
0.7     	0.5     	1.0197e-05
0.7     	0.55    	1.0222e-05
0.7     	0.6     	1.0238e-05
0.7     	0.65    	1.0252e-05
0.7     	0.7     	1.0262e-05
