vg      	vd      	ids     
0       	0       	1.7651e-15
0       	0.05    	3.3361e-14
0       	0.1     	3.7928e-14
0       	0.15    	3.8623e-14
0       	0.2     	3.875e-14
0       	0.25    	3.8793e-14
0       	0.3     	3.8822e-14
0       	0.35    	3.8848e-14
0       	0.4     	3.8871e-14
0       	0.45    	3.8894e-14
0       	0.5     	3.8915e-14
0       	0.55    	3.8935e-14
0       	0.6     	3.8955e-14
0       	0.65    	3.8973e-14
0       	0.7     	3.899e-14
0.05    	0       	1.2104e-14
0.05    	0.05    	2.2651e-13
0.05    	0.1     	2.5865e-13
0.05    	0.15    	2.6344e-13
0.05    	0.2     	2.6434e-13
0.05    	0.25    	2.6465e-13
0.05    	0.3     	2.6486e-13
0.05    	0.35    	2.6505e-13
0.05    	0.4     	2.6522e-13
0.05    	0.45    	2.6538e-13
0.05    	0.5     	2.6553e-13
0.05    	0.55    	2.6568e-13
0.05    	0.6     	2.6581e-13
0.05    	0.65    	2.6594e-13
0.05    	0.7     	2.6607e-13
0.1     	0       	7.7711e-14
0.1     	0.05    	1.536e-12
0.1     	0.1     	1.7544e-12
0.1     	0.15    	1.7882e-12
0.1     	0.2     	1.7944e-12
0.1     	0.25    	1.7967e-12
0.1     	0.3     	1.7982e-12
0.1     	0.35    	1.7996e-12
0.1     	0.4     	1.8008e-12
0.1     	0.45    	1.802e-12
0.1     	0.5     	1.8031e-12
0.1     	0.55    	1.8041e-12
0.1     	0.6     	1.8051e-12
0.1     	0.65    	1.806e-12
0.1     	0.7     	1.8069e-12
0.15    	0       	4.765e-13
0.15    	0.05    	1.0458e-11
0.15    	0.1     	1.1946e-11
0.15    	0.15    	1.2176e-11
0.15    	0.2     	1.2221e-11
0.15    	0.25    	1.2238e-11
0.15    	0.3     	1.2249e-11
0.15    	0.35    	1.2259e-11
0.15    	0.4     	1.2268e-11
0.15    	0.45    	1.2277e-11
0.15    	0.5     	1.2284e-11
0.15    	0.55    	1.2292e-11
0.15    	0.6     	1.2299e-11
0.15    	0.65    	1.2305e-11
0.15    	0.7     	1.2312e-11
0.2     	0       	2.9834e-12
0.2     	0.05    	7.1284e-11
0.2     	0.1     	8.148e-11
0.2     	0.15    	8.3062e-11
0.2     	0.2     	8.3376e-11
0.2     	0.25    	8.3497e-11
0.2     	0.3     	8.3582e-11
0.2     	0.35    	8.3656e-11
0.2     	0.4     	8.3723e-11
0.2     	0.45    	8.3784e-11
0.2     	0.5     	8.3841e-11
0.2     	0.55    	8.3894e-11
0.2     	0.6     	8.3944e-11
0.2     	0.65    	8.3991e-11
0.2     	0.7     	8.4036e-11
0.25    	0       	1.9197e-11
0.25    	0.05    	4.8659e-10
0.25    	0.1     	5.5648e-10
0.25    	0.15    	5.6742e-10
0.25    	0.2     	5.6966e-10
0.25    	0.25    	5.7055e-10
0.25    	0.3     	5.7118e-10
0.25    	0.35    	5.7173e-10
0.25    	0.4     	5.7223e-10
0.25    	0.45    	5.7268e-10
0.25    	0.5     	5.731e-10
0.25    	0.55    	5.7348e-10
0.25    	0.6     	5.7384e-10
0.25    	0.65    	5.7418e-10
0.25    	0.7     	5.745e-10
0.3     	0       	1.2985e-10
0.3     	0.05    	3.1851e-09
0.3     	0.1     	3.6645e-09
0.3     	0.15    	3.7402e-09
0.3     	0.2     	3.7562e-09
0.3     	0.25    	3.7627e-09
0.3     	0.3     	3.7673e-09
0.3     	0.35    	3.7712e-09
0.3     	0.4     	3.7748e-09
0.3     	0.45    	3.778e-09
0.3     	0.5     	3.781e-09
0.3     	0.55    	3.7837e-09
0.3     	0.6     	3.7862e-09
0.3     	0.65    	3.7885e-09
0.3     	0.7     	3.7907e-09
0.35    	0       	8.0318e-10
0.35    	0.05    	1.9822e-08
0.35    	0.1     	2.2982e-08
0.35    	0.15    	2.3505e-08
0.35    	0.2     	2.3618e-08
0.35    	0.25    	2.3664e-08
0.35    	0.3     	2.3696e-08
0.35    	0.35    	2.3723e-08
0.35    	0.4     	2.3747e-08
0.35    	0.45    	2.3769e-08
0.35    	0.5     	2.3789e-08
0.35    	0.55    	2.3807e-08
0.35    	0.6     	2.3823e-08
0.35    	0.65    	2.3838e-08
0.35    	0.7     	2.3853e-08
0.4     	0       	3.7921e-09
0.4     	0.05    	1.0351e-07
0.4     	0.1     	1.2325e-07
0.4     	0.15    	1.2674e-07
0.4     	0.2     	1.2749e-07
0.4     	0.25    	1.2778e-07
0.4     	0.3     	1.2797e-07
0.4     	0.35    	1.2812e-07
0.4     	0.4     	1.2826e-07
0.4     	0.45    	1.2838e-07
0.4     	0.5     	1.2848e-07
0.4     	0.55    	1.2858e-07
0.4     	0.6     	1.2867e-07
0.4     	0.65    	1.2875e-07
0.4     	0.7     	1.2882e-07
0.45    	0       	1.0186e-08
0.45    	0.05    	3.4942e-07
0.45    	0.1     	4.4999e-07
0.45    	0.15    	4.7079e-07
0.45    	0.2     	4.7515e-07
0.45    	0.25    	4.765e-07
0.45    	0.3     	4.7725e-07
0.45    	0.35    	4.7782e-07
0.45    	0.4     	4.7829e-07
0.45    	0.45    	4.787e-07
0.45    	0.5     	4.7906e-07
0.45    	0.55    	4.7939e-07
0.45    	0.6     	4.7969e-07
0.45    	0.65    	4.7996e-07
0.45    	0.7     	4.8021e-07
0.5     	0       	1.6917e-08
0.5     	0.05    	7.0249e-07
0.5     	0.1     	1.025e-06
0.5     	0.15    	1.1184e-06
0.5     	0.2     	1.1395e-06
0.5     	0.25    	1.1449e-06
0.5     	0.3     	1.1471e-06
0.5     	0.35    	1.1485e-06
0.5     	0.4     	1.1495e-06
0.5     	0.45    	1.1504e-06
0.5     	0.5     	1.1512e-06
0.5     	0.55    	1.1519e-06
0.5     	0.6     	1.1525e-06
0.5     	0.65    	1.1531e-06
0.5     	0.7     	1.1536e-06
0.55    	0       	2.2261e-08
0.55    	0.05    	1.0228e-06
0.55    	0.1     	1.6647e-06
0.55    	0.15    	1.9425e-06
0.55    	0.2     	2.0235e-06
0.55    	0.25    	2.0441e-06
0.55    	0.3     	2.0503e-06
0.55    	0.35    	2.0532e-06
0.55    	0.4     	2.0551e-06
0.55    	0.45    	2.0567e-06
0.55    	0.5     	2.0579e-06
0.55    	0.55    	2.0591e-06
0.55    	0.6     	2.0601e-06
0.55    	0.65    	2.0609e-06
0.55    	0.7     	2.0619e-06
0.6     	0       	2.6585e-08
0.6     	0.05    	1.2745e-06
0.6     	0.1     	2.2193e-06
0.6     	0.15    	2.7756e-06
0.6     	0.2     	3.0013e-06
0.6     	0.25    	3.0699e-06
0.6     	0.3     	3.0896e-06
0.6     	0.35    	3.0965e-06
0.6     	0.4     	3.0999e-06
0.6     	0.45    	3.1023e-06
0.6     	0.5     	3.1044e-06
0.6     	0.55    	3.106e-06
0.6     	0.6     	3.1073e-06
0.6     	0.65    	3.1085e-06
0.6     	0.7     	3.1096e-06
0.65    	0       	2.9729e-08
0.65    	0.05    	1.4684e-06
0.65    	0.1     	2.6564e-06
0.65    	0.15    	3.4962e-06
0.65    	0.2     	3.9529e-06
0.65    	0.25    	4.1333e-06
0.65    	0.3     	4.192e-06
0.65    	0.35    	4.2116e-06
0.65    	0.4     	4.2187e-06
0.65    	0.45    	4.2224e-06
0.65    	0.5     	4.225e-06
0.65    	0.55    	4.2273e-06
0.65    	0.6     	4.229e-06
0.65    	0.65    	4.2305e-06
0.65    	0.7     	4.2318e-06
0.7     	0       	3.2353e-08
0.7     	0.05    	1.6196e-06
0.7     	0.1     	2.996e-06
0.7     	0.15    	4.0696e-06
0.7     	0.2     	4.7816e-06
0.7     	0.25    	5.1459e-06
0.7     	0.3     	5.2955e-06
0.7     	0.35    	5.3453e-06
0.7     	0.4     	5.3626e-06
0.7     	0.45    	5.3703e-06
0.7     	0.5     	5.3742e-06
0.7     	0.55    	5.3769e-06
0.7     	0.6     	5.379e-06
0.7     	0.65    	5.381e-06
0.7     	0.7     	5.3826e-06
