vg      	vd      	ids     
0       	0       	9.0654e-16
0       	0.05    	2.301e-14
0       	0.1     	2.6269e-14
0       	0.15    	2.6754e-14
0       	0.2     	2.6834e-14
0       	0.25    	2.6854e-14
0       	0.3     	2.6866e-14
0       	0.35    	2.6875e-14
0       	0.4     	2.6883e-14
0       	0.45    	2.6891e-14
0       	0.5     	2.6899e-14
0       	0.55    	2.6906e-14
0       	0.6     	2.6913e-14
0       	0.65    	2.692e-14
0       	0.7     	2.6926e-14
0.05    	0       	6.5133e-15
0.05    	0.05    	1.5913e-13
0.05    	0.1     	1.8162e-13
0.05    	0.15    	1.8496e-13
0.05    	0.2     	1.8552e-13
0.05    	0.25    	1.8567e-13
0.05    	0.3     	1.8575e-13
0.05    	0.35    	1.8582e-13
0.05    	0.4     	1.8588e-13
0.05    	0.45    	1.8594e-13
0.05    	0.5     	1.8599e-13
0.05    	0.55    	1.8605e-13
0.05    	0.6     	1.861e-13
0.05    	0.65    	1.8614e-13
0.05    	0.7     	1.8619e-13
0.1     	0       	4.5499e-14
0.1     	0.05    	1.114e-12
0.1     	0.1     	1.2695e-12
0.1     	0.15    	1.2926e-12
0.1     	0.2     	1.2964e-12
0.1     	0.25    	1.2975e-12
0.1     	0.3     	1.2981e-12
0.1     	0.35    	1.2986e-12
0.1     	0.4     	1.2991e-12
0.1     	0.45    	1.2995e-12
0.1     	0.5     	1.2999e-12
0.1     	0.55    	1.3003e-12
0.1     	0.6     	1.3007e-12
0.1     	0.65    	1.3011e-12
0.1     	0.7     	1.3014e-12
0.15    	0       	3.2753e-13
0.15    	0.05    	7.6649e-12
0.15    	0.1     	8.7538e-12
0.15    	0.15    	8.9139e-12
0.15    	0.2     	8.9412e-12
0.15    	0.25    	8.9489e-12
0.15    	0.3     	8.9534e-12
0.15    	0.35    	8.9572e-12
0.15    	0.4     	8.9607e-12
0.15    	0.45    	8.9639e-12
0.15    	0.5     	8.967e-12
0.15    	0.55    	8.9698e-12
0.15    	0.6     	8.9725e-12
0.15    	0.65    	8.975e-12
0.15    	0.7     	8.9774e-12
0.2     	0       	2.2193e-12
0.2     	0.05    	5.229e-11
0.2     	0.1     	5.9773e-11
0.2     	0.15    	6.0898e-11
0.2     	0.2     	6.109e-11
0.2     	0.25    	6.1146e-11
0.2     	0.3     	6.118e-11
0.2     	0.35    	6.1208e-11
0.2     	0.4     	6.1233e-11
0.2     	0.45    	6.1257e-11
0.2     	0.5     	6.1279e-11
0.2     	0.55    	6.13e-11
0.2     	0.6     	6.1319e-11
0.2     	0.65    	6.1337e-11
0.2     	0.7     	6.1355e-11
0.25    	0       	1.377e-11
0.25    	0.05    	3.5578e-10
0.25    	0.1     	4.069e-10
0.25    	0.15    	4.1467e-10
0.25    	0.2     	4.1604e-10
0.25    	0.25    	4.1645e-10
0.25    	0.3     	4.167e-10
0.25    	0.35    	4.1691e-10
0.25    	0.4     	4.171e-10
0.25    	0.45    	4.1728e-10
0.25    	0.5     	4.1744e-10
0.25    	0.55    	4.1759e-10
0.25    	0.6     	4.1773e-10
0.25    	0.65    	4.1786e-10
0.25    	0.7     	4.1798e-10
0.3     	0       	8.1779e-11
0.3     	0.05    	2.4002e-09
0.3     	0.1     	2.7499e-09
0.3     	0.15    	2.8033e-09
0.3     	0.2     	2.813e-09
0.3     	0.25    	2.8161e-09
0.3     	0.3     	2.8179e-09
0.3     	0.35    	2.8195e-09
0.3     	0.4     	2.8209e-09
0.3     	0.45    	2.8222e-09
0.3     	0.5     	2.8233e-09
0.3     	0.55    	2.8244e-09
0.3     	0.6     	2.8254e-09
0.3     	0.65    	2.8264e-09
0.3     	0.7     	2.8273e-09
0.35    	0       	5.2116e-10
0.35    	0.05    	1.5809e-08
0.35    	0.1     	1.8209e-08
0.35    	0.15    	1.8576e-08
0.35    	0.2     	1.8645e-08
0.35    	0.25    	1.8667e-08
0.35    	0.3     	1.8681e-08
0.35    	0.35    	1.8693e-08
0.35    	0.4     	1.8703e-08
0.35    	0.45    	1.8712e-08
0.35    	0.5     	1.872e-08
0.35    	0.55    	1.8728e-08
0.35    	0.6     	1.8735e-08
0.35    	0.65    	1.8742e-08
0.35    	0.7     	1.8748e-08
0.4     	0       	3.0479e-09
0.4     	0.05    	8.9771e-08
0.4     	0.1     	1.056e-07
0.4     	0.15    	1.0819e-07
0.4     	0.2     	1.0867e-07
0.4     	0.25    	1.0883e-07
0.4     	0.3     	1.0892e-07
0.4     	0.35    	1.0899e-07
0.4     	0.4     	1.0905e-07
0.4     	0.45    	1.091e-07
0.4     	0.5     	1.0915e-07
0.4     	0.55    	1.092e-07
0.4     	0.6     	1.0924e-07
0.4     	0.65    	1.0928e-07
0.4     	0.7     	1.0932e-07
0.45    	0       	1.0659e-08
0.45    	0.05    	3.5287e-07
0.45    	0.1     	4.4446e-07
0.45    	0.15    	4.621e-07
0.45    	0.2     	4.6543e-07
0.45    	0.25    	4.6631e-07
0.45    	0.3     	4.6673e-07
0.45    	0.35    	4.6704e-07
0.45    	0.4     	4.673e-07
0.45    	0.45    	4.6753e-07
0.45    	0.5     	4.6773e-07
0.45    	0.55    	4.6791e-07
0.45    	0.6     	4.6807e-07
0.45    	0.65    	4.6822e-07
0.45    	0.7     	4.6836e-07
0.5     	0       	1.9456e-08
0.5     	0.05    	7.9547e-07
0.5     	0.1     	1.1516e-06
0.5     	0.15    	1.2528e-06
0.5     	0.2     	1.2748e-06
0.5     	0.25    	1.2797e-06
0.5     	0.3     	1.2814e-06
0.5     	0.35    	1.2822e-06
0.5     	0.4     	1.2829e-06
0.5     	0.45    	1.2835e-06
0.5     	0.5     	1.284e-06
0.5     	0.55    	1.2844e-06
0.5     	0.6     	1.2848e-06
0.5     	0.65    	1.2851e-06
0.5     	0.7     	1.2854e-06
0.55    	0       	2.6157e-08
0.55    	0.05    	1.1922e-06
0.55    	0.1     	1.97e-06
0.55    	0.15    	2.3333e-06
0.55    	0.2     	2.4469e-06
0.55    	0.25    	2.4755e-06
0.55    	0.3     	2.4829e-06
0.55    	0.35    	2.4855e-06
0.55    	0.4     	2.4869e-06
0.55    	0.45    	2.4881e-06
0.55    	0.5     	2.489e-06
0.55    	0.55    	2.4897e-06
0.55    	0.6     	2.4903e-06
0.55    	0.65    	2.4909e-06
0.55    	0.7     	2.4915e-06
0.6     	0       	3.0967e-08
0.6     	0.05    	1.4726e-06
0.6     	0.1     	2.6182e-06
0.6     	0.15    	3.3697e-06
0.6     	0.2     	3.7318e-06
0.6     	0.25    	3.8601e-06
0.6     	0.3     	3.8962e-06
0.6     	0.35    	3.9066e-06
0.6     	0.4     	3.9103e-06
0.6     	0.45    	3.9125e-06
0.6     	0.5     	3.9138e-06
0.6     	0.55    	3.9148e-06
0.6     	0.6     	3.9157e-06
0.6     	0.65    	3.9166e-06
0.6     	0.7     	3.9173e-06
0.65    	0       	3.4387e-08
0.65    	0.05    	1.6667e-06
0.65    	0.1     	3.0684e-06
0.65    	0.15    	4.1478e-06
0.65    	0.2     	4.8491e-06
0.65    	0.25    	5.2086e-06
0.65    	0.3     	5.3455e-06
0.65    	0.35    	5.3913e-06
0.65    	0.4     	5.4052e-06
0.65    	0.45    	5.4104e-06
0.65    	0.5     	5.4131e-06
0.65    	0.55    	5.4147e-06
0.65    	0.6     	5.4159e-06
0.65    	0.65    	5.417e-06
0.65    	0.7     	5.4179e-06
0.7     	0       	3.6746e-08
0.7     	0.05    	1.8041e-06
0.7     	0.1     	3.3813e-06
0.7     	0.15    	4.6832e-06
0.7     	0.2     	5.662e-06
0.7     	0.25    	6.3099e-06
0.7     	0.3     	6.6543e-06
0.7     	0.35    	6.8001e-06
0.7     	0.4     	6.8518e-06
0.7     	0.45    	6.8705e-06
0.7     	0.5     	6.8773e-06
0.7     	0.55    	6.8805e-06
0.7     	0.6     	6.8825e-06
0.7     	0.65    	6.8839e-06
0.7     	0.7     	6.8849e-06
