vg      	vd      	ids     
0       	0       	1.8444e-15
0       	0.05    	1.3104e-12
0       	0.1     	1.5017e-12
0       	0.15    	1.5302e-12
0       	0.2     	1.5352e-12
0       	0.25    	1.5367e-12
0       	0.3     	1.5377e-12
0       	0.35    	1.5385e-12
0       	0.4     	1.5392e-12
0       	0.45    	1.5399e-12
0       	0.5     	1.5405e-12
0       	0.55    	1.5411e-12
0       	0.6     	1.5417e-12
0       	0.65    	1.5422e-12
0       	0.7     	1.5427e-12
0.05    	0       	1.4031e-14
0.05    	0.05    	8.9896e-12
0.05    	0.1     	1.0306e-11
0.05    	0.15    	1.0505e-11
0.05    	0.2     	1.054e-11
0.05    	0.25    	1.0551e-11
0.05    	0.3     	1.0558e-11
0.05    	0.35    	1.0564e-11
0.05    	0.4     	1.0569e-11
0.05    	0.45    	1.0574e-11
0.05    	0.5     	1.0579e-11
0.05    	0.55    	1.0583e-11
0.05    	0.6     	1.0587e-11
0.05    	0.65    	1.0591e-11
0.05    	0.7     	1.0594e-11
0.1     	0       	9.7699e-14
0.1     	0.05    	6.2499e-11
0.1     	0.1     	7.154e-11
0.1     	0.15    	7.2913e-11
0.1     	0.2     	7.3162e-11
0.1     	0.25    	7.3242e-11
0.1     	0.3     	7.3294e-11
0.1     	0.35    	7.3338e-11
0.1     	0.4     	7.3378e-11
0.1     	0.45    	7.3416e-11
0.1     	0.5     	7.345e-11
0.1     	0.55    	7.3482e-11
0.1     	0.6     	7.3512e-11
0.1     	0.65    	7.354e-11
0.1     	0.7     	7.3566e-11
0.15    	0       	7.5838e-13
0.15    	0.05    	4.277e-10
0.15    	0.1     	4.9063e-10
0.15    	0.15    	5.0012e-10
0.15    	0.2     	5.0188e-10
0.15    	0.25    	5.0247e-10
0.15    	0.3     	5.0286e-10
0.15    	0.35    	5.0319e-10
0.15    	0.4     	5.0349e-10
0.15    	0.45    	5.0376e-10
0.15    	0.5     	5.0402e-10
0.15    	0.55    	5.0425e-10
0.15    	0.6     	5.0447e-10
0.15    	0.65    	5.0467e-10
0.15    	0.7     	5.0486e-10
0.2     	0       	4.8446e-12
0.2     	0.05    	2.9487e-09
0.2     	0.1     	3.38e-09
0.2     	0.15    	3.4465e-09
0.2     	0.2     	3.4592e-09
0.2     	0.25    	3.4637e-09
0.2     	0.3     	3.4666e-09
0.2     	0.35    	3.4691e-09
0.2     	0.4     	3.4713e-09
0.2     	0.45    	3.4734e-09
0.2     	0.5     	3.4752e-09
0.2     	0.55    	3.4769e-09
0.2     	0.6     	3.4785e-09
0.2     	0.65    	3.48e-09
0.2     	0.7     	3.4814e-09
0.25    	0       	3.1259e-11
0.25    	0.05    	1.9582e-08
0.25    	0.1     	2.256e-08
0.25    	0.15    	2.3026e-08
0.25    	0.2     	2.3117e-08
0.25    	0.25    	2.315e-08
0.25    	0.3     	2.3172e-08
0.25    	0.35    	2.319e-08
0.25    	0.4     	2.3206e-08
0.25    	0.45    	2.322e-08
0.25    	0.5     	2.3233e-08
0.25    	0.55    	2.3245e-08
0.25    	0.6     	2.3256e-08
0.25    	0.65    	2.3267e-08
0.25    	0.7     	2.3276e-08
0.3     	0       	1.5618e-10
0.3     	0.05    	1.1161e-07
0.3     	0.1     	1.3164e-07
0.3     	0.15    	1.349e-07
0.3     	0.2     	1.3554e-07
0.3     	0.25    	1.3576e-07
0.3     	0.3     	1.359e-07
0.3     	0.35    	1.3601e-07
0.3     	0.4     	1.3611e-07
0.3     	0.45    	1.3619e-07
0.3     	0.5     	1.3626e-07
0.3     	0.55    	1.3633e-07
0.3     	0.6     	1.364e-07
0.3     	0.65    	1.3645e-07
0.3     	0.7     	1.3651e-07
0.35    	0       	4.3431e-10
0.35    	0.05    	3.9375e-07
0.35    	0.1     	5.1043e-07
0.35    	0.15    	5.338e-07
0.35    	0.2     	5.3811e-07
0.35    	0.25    	5.393e-07
0.35    	0.3     	5.3988e-07
0.35    	0.35    	5.403e-07
0.35    	0.4     	5.4068e-07
0.35    	0.45    	5.4097e-07
0.35    	0.5     	5.4123e-07
0.35    	0.55    	5.4147e-07
0.35    	0.6     	5.4168e-07
0.35    	0.65    	5.4187e-07
0.35    	0.7     	5.4205e-07
0.4     	0       	6.7298e-10
0.4     	0.05    	7.3088e-07
0.4     	0.1     	1.136e-06
0.4     	0.15    	1.2711e-06
0.4     	0.2     	1.3007e-06
0.4     	0.25    	1.3077e-06
0.4     	0.3     	1.3098e-06
0.4     	0.35    	1.3109e-06
0.4     	0.4     	1.3118e-06
0.4     	0.45    	1.3124e-06
0.4     	0.5     	1.313e-06
0.4     	0.55    	1.3134e-06
0.4     	0.6     	1.3139e-06
0.4     	0.65    	1.3143e-06
0.4     	0.7     	1.3146e-06
0.45    	0       	8.1626e-10
0.45    	0.05    	9.3072e-07
0.45    	0.1     	1.6416e-06
0.45    	0.15    	2.0507e-06
0.45    	0.2     	2.2144e-06
0.45    	0.25    	2.2564e-06
0.45    	0.3     	2.2668e-06
0.45    	0.35    	2.2705e-06
0.45    	0.4     	2.2722e-06
0.45    	0.45    	2.2734e-06
0.45    	0.5     	2.2743e-06
0.45    	0.55    	2.275e-06
0.45    	0.6     	2.2757e-06
0.45    	0.65    	2.2762e-06
0.45    	0.7     	2.2767e-06
0.5     	0       	8.7027e-10
0.5     	0.05    	1.0149e-06
0.5     	0.1     	1.9028e-06
0.5     	0.15    	2.5536e-06
0.5     	0.2     	2.9556e-06
0.5     	0.25    	3.1402e-06
0.5     	0.3     	3.2008e-06
0.5     	0.35    	3.2193e-06
0.5     	0.4     	3.2256e-06
0.5     	0.45    	3.2283e-06
0.5     	0.5     	3.23e-06
0.5     	0.55    	3.2311e-06
0.5     	0.6     	3.232e-06
0.5     	0.65    	3.2326e-06
0.5     	0.7     	3.2331e-06
0.55    	0       	8.9491e-10
0.55    	0.05    	1.0384e-06
0.55    	0.1     	1.9889e-06
0.55    	0.15    	2.7704e-06
0.55    	0.2     	3.3123e-06
0.55    	0.25    	3.6828e-06
0.55    	0.3     	3.8959e-06
0.55    	0.35    	3.9847e-06
0.55    	0.4     	4.0183e-06
0.55    	0.45    	4.0304e-06
0.55    	0.5     	4.0355e-06
0.55    	0.55    	4.0382e-06
0.55    	0.6     	4.0396e-06
0.55    	0.65    	4.0404e-06
0.55    	0.7     	4.0407e-06
0.6     	0       	8.9563e-10
0.6     	0.05    	1.0578e-06
0.6     	0.1     	2.011e-06
0.6     	0.15    	2.8509e-06
0.6     	0.2     	3.4781e-06
0.6     	0.25    	3.9428e-06
0.6     	0.3     	4.2426e-06
0.6     	0.35    	4.4382e-06
0.6     	0.4     	4.5433e-06
0.6     	0.45    	4.5921e-06
0.6     	0.5     	4.613e-06
0.6     	0.55    	4.622e-06
0.6     	0.6     	4.6252e-06
0.6     	0.65    	4.6262e-06
0.6     	0.7     	4.6266e-06
0.65    	0       	8.6316e-10
0.65    	0.05    	1.0762e-06
0.65    	0.1     	2.06e-06
0.65    	0.15    	2.9098e-06
0.65    	0.2     	3.5632e-06
0.65    	0.25    	4.0716e-06
0.65    	0.3     	4.4365e-06
0.65    	0.35    	4.6803e-06
0.65    	0.4     	4.8349e-06
0.65    	0.45    	4.9308e-06
0.65    	0.5     	4.974e-06
0.65    	0.55    	4.9916e-06
0.65    	0.6     	4.997e-06
0.65    	0.65    	4.9987e-06
0.65    	0.7     	5.0003e-06
0.7     	0       	8.124e-10
0.7     	0.05    	1.0927e-06
0.7     	0.1     	2.0938e-06
0.7     	0.15    	2.9618e-06
0.7     	0.2     	3.6365e-06
0.7     	0.25    	4.1643e-06
0.7     	0.3     	4.5495e-06
0.7     	0.35    	4.8247e-06
0.7     	0.4     	5.006e-06
0.7     	0.45    	5.1193e-06
0.7     	0.5     	5.166e-06
0.7     	0.55    	5.1828e-06
0.7     	0.6     	5.1902e-06
0.7     	0.65    	5.1938e-06
0.7     	0.7     	5.1971e-06
