vg      	vd      	ids     
0       	0       	-5.9565e-14
0       	0.05    	9.0413e-11
0       	0.1     	1.0369e-10
0       	0.15    	1.0575e-10
0       	0.2     	1.0615e-10
0       	0.25    	1.063e-10
0       	0.3     	1.064e-10
0       	0.35    	1.0648e-10
0       	0.4     	1.0656e-10
0       	0.45    	1.0662e-10
0       	0.5     	1.0667e-10
0       	0.55    	1.067e-10
0       	0.6     	1.0672e-10
0       	0.65    	1.0672e-10
0       	0.7     	1.0672e-10
0.05    	0       	-4.4341e-13
0.05    	0.05    	6.2017e-10
0.05    	0.1     	7.1155e-10
0.05    	0.15    	7.2581e-10
0.05    	0.2     	7.2869e-10
0.05    	0.25    	7.2981e-10
0.05    	0.3     	7.3058e-10
0.05    	0.35    	7.3124e-10
0.05    	0.4     	7.3181e-10
0.05    	0.45    	7.3232e-10
0.05    	0.5     	7.3274e-10
0.05    	0.55    	7.3308e-10
0.05    	0.6     	7.333e-10
0.05    	0.65    	7.3339e-10
0.05    	0.7     	7.3341e-10
0.1     	0       	-2.9827e-12
0.1     	0.05    	4.2088e-09
0.1     	0.1     	4.8377e-09
0.1     	0.15    	4.9367e-09
0.1     	0.2     	4.9575e-09
0.1     	0.25    	4.9659e-09
0.1     	0.3     	4.9719e-09
0.1     	0.35    	4.9768e-09
0.1     	0.4     	4.9812e-09
0.1     	0.45    	4.985e-09
0.1     	0.5     	4.9885e-09
0.1     	0.55    	4.9913e-09
0.1     	0.6     	4.9936e-09
0.1     	0.65    	4.9951e-09
0.1     	0.7     	4.9957e-09
0.15    	0       	-1.84e-11
0.15    	0.05    	2.7522e-08
0.15    	0.1     	3.1807e-08
0.15    	0.15    	3.2498e-08
0.15    	0.2     	3.2647e-08
0.15    	0.25    	3.271e-08
0.15    	0.3     	3.2756e-08
0.15    	0.35    	3.2792e-08
0.15    	0.4     	3.2823e-08
0.15    	0.45    	3.2851e-08
0.15    	0.5     	3.2876e-08
0.15    	0.55    	3.2897e-08
0.15    	0.6     	3.2915e-08
0.15    	0.65    	3.293e-08
0.15    	0.7     	3.2939e-08
0.2     	0       	-8.3524e-11
0.2     	0.05    	1.5174e-07
0.2     	0.1     	1.7994e-07
0.2     	0.15    	1.8473e-07
0.2     	0.2     	1.8577e-07
0.2     	0.25    	1.8619e-07
0.2     	0.3     	1.8646e-07
0.2     	0.35    	1.8668e-07
0.2     	0.4     	1.8687e-07
0.2     	0.45    	1.8703e-07
0.2     	0.5     	1.8717e-07
0.2     	0.55    	1.873e-07
0.2     	0.6     	1.8741e-07
0.2     	0.65    	1.875e-07
0.2     	0.7     	1.8758e-07
0.25    	0       	-1.9606e-10
0.25    	0.05    	5.2063e-07
0.25    	0.1     	6.7244e-07
0.25    	0.15    	7.0429e-07
0.25    	0.2     	7.1064e-07
0.25    	0.25    	7.1267e-07
0.25    	0.3     	7.138e-07
0.25    	0.35    	7.1464e-07
0.25    	0.4     	7.1533e-07
0.25    	0.45    	7.1597e-07
0.25    	0.5     	7.1648e-07
0.25    	0.55    	7.1692e-07
0.25    	0.6     	7.173e-07
0.25    	0.65    	7.1762e-07
0.25    	0.7     	7.1788e-07
0.3     	0       	-2.6355e-10
0.3     	0.05    	1.0202e-06
0.3     	0.1     	1.522e-06
0.3     	0.15    	1.6751e-06
0.3     	0.2     	1.7092e-06
0.3     	0.25    	1.7184e-06
0.3     	0.3     	1.7219e-06
0.3     	0.35    	1.7239e-06
0.3     	0.4     	1.7255e-06
0.3     	0.45    	1.7268e-06
0.3     	0.5     	1.728e-06
0.3     	0.55    	1.7289e-06
0.3     	0.6     	1.7297e-06
0.3     	0.65    	1.7304e-06
0.3     	0.7     	1.7309e-06
0.35    	0       	-2.658e-10
0.35    	0.05    	1.4324e-06
0.35    	0.1     	2.3976e-06
0.35    	0.15    	2.8615e-06
0.35    	0.2     	3.013e-06
0.35    	0.25    	3.0528e-06
0.35    	0.3     	3.064e-06
0.35    	0.35    	3.0693e-06
0.35    	0.4     	3.0723e-06
0.35    	0.45    	3.0745e-06
0.35    	0.5     	3.0764e-06
0.35    	0.55    	3.0778e-06
0.35    	0.6     	3.0791e-06
0.35    	0.65    	3.08e-06
0.35    	0.7     	3.0806e-06
0.4     	0       	-2.2544e-10
0.4     	0.05    	1.7282e-06
0.4     	0.1     	3.0821e-06
0.4     	0.15    	3.9472e-06
0.4     	0.2     	4.3785e-06
0.4     	0.25    	4.5239e-06
0.4     	0.3     	4.5678e-06
0.4     	0.35    	4.5824e-06
0.4     	0.4     	4.5887e-06
0.4     	0.45    	4.5924e-06
0.4     	0.5     	4.5953e-06
0.4     	0.55    	4.5973e-06
0.4     	0.6     	4.5989e-06
0.4     	0.65    	4.5998e-06
0.4     	0.7     	4.6003e-06
0.45    	0       	-1.5718e-10
0.45    	0.05    	1.9461e-06
0.45    	0.1     	3.5805e-06
0.45    	0.15    	4.7809e-06
0.45    	0.2     	5.523e-06
0.45    	0.25    	5.9221e-06
0.45    	0.3     	6.0791e-06
0.45    	0.35    	6.1308e-06
0.45    	0.4     	6.1502e-06
0.45    	0.45    	6.159e-06
0.45    	0.5     	6.1636e-06
0.45    	0.55    	6.1665e-06
0.45    	0.6     	6.1681e-06
0.45    	0.65    	6.1688e-06
0.45    	0.7     	6.169e-06
0.5     	0       	-6.875e-11
0.5     	0.05    	2.1177e-06
0.5     	0.1     	3.9557e-06
0.5     	0.15    	5.3967e-06
0.5     	0.2     	6.3987e-06
0.5     	0.25    	7.0585e-06
0.5     	0.3     	7.427e-06
0.5     	0.35    	7.5862e-06
0.5     	0.4     	7.6504e-06
0.5     	0.45    	7.6779e-06
0.5     	0.5     	7.69e-06
0.5     	0.55    	7.6949e-06
0.5     	0.6     	7.6966e-06
0.5     	0.65    	7.6971e-06
0.5     	0.7     	7.6974e-06
0.55    	0       	3.5802e-11
0.55    	0.05    	2.2593e-06
0.55    	0.1     	4.253e-06
0.55    	0.15    	5.8656e-06
0.55    	0.2     	7.0498e-06
0.55    	0.25    	7.8992e-06
0.55    	0.3     	8.4374e-06
0.55    	0.35    	8.7541e-06
0.55    	0.4     	8.9266e-06
0.55    	0.45    	9.0071e-06
0.55    	0.5     	9.039e-06
0.55    	0.55    	9.0495e-06
0.55    	0.6     	9.053e-06
0.55    	0.65    	9.0547e-06
0.55    	0.7     	9.0563e-06
0.6     	0       	1.5195e-10
0.6     	0.05    	2.3797e-06
0.6     	0.1     	4.4973e-06
0.6     	0.15    	6.2406e-06
0.6     	0.2     	7.5525e-06
0.6     	0.25    	8.5263e-06
0.6     	0.3     	9.1818e-06
0.6     	0.35    	9.5817e-06
0.6     	0.4     	9.8301e-06
0.6     	0.45    	9.9393e-06
0.6     	0.5     	9.9808e-06
0.6     	0.55    	1.0001e-05
0.6     	0.6     	1.0007e-05
0.6     	0.65    	1.0013e-05
0.6     	0.7     	1.0019e-05
0.65    	0       	2.8411e-10
0.65    	0.05    	2.4837e-06
0.65    	0.1     	4.7025e-06
0.65    	0.15    	6.5523e-06
0.65    	0.2     	7.9623e-06
0.65    	0.25    	9.0218e-06
0.65    	0.3     	9.7149e-06
0.65    	0.35    	1.0206e-05
0.65    	0.4     	1.0475e-05
0.65    	0.45    	1.0586e-05
0.65    	0.5     	1.062e-05
0.65    	0.55    	1.064e-05
0.65    	0.6     	1.065e-05
0.65    	0.65    	1.0658e-05
0.65    	0.7     	1.0666e-05
0.7     	0       	4.228e-10
0.7     	0.05    	2.5668e-06
0.7     	0.1     	4.8781e-06
0.7     	0.15    	6.8154e-06
0.7     	0.2     	8.3069e-06
0.7     	0.25    	9.4348e-06
0.7     	0.3     	1.018e-05
0.7     	0.35    	1.068e-05
0.7     	0.4     	1.0974e-05
0.7     	0.45    	1.1091e-05
0.7     	0.5     	1.1131e-05
0.7     	0.55    	1.1144e-05
0.7     	0.6     	1.1155e-05
0.7     	0.65    	1.1166e-05
0.7     	0.7     	1.1175e-05
