vg      	vd      	ids     
0       	0       	-1.2505e-15
0       	0.05    	1.1419e-12
0       	0.1     	1.3082e-12
0       	0.15    	1.3343e-12
0       	0.2     	1.3399e-12
0       	0.25    	1.3423e-12
0       	0.3     	1.3442e-12
0       	0.35    	1.3459e-12
0       	0.4     	1.3475e-12
0       	0.45    	1.349e-12
0       	0.5     	1.3504e-12
0       	0.55    	1.3517e-12
0       	0.6     	1.353e-12
0       	0.65    	1.3542e-12
0       	0.7     	1.3553e-12
0.05    	0       	4.9082e-14
0.05    	0.05    	7.9041e-12
0.05    	0.1     	9.0602e-12
0.05    	0.15    	9.241e-12
0.05    	0.2     	9.2805e-12
0.05    	0.25    	9.2983e-12
0.05    	0.3     	9.3119e-12
0.05    	0.35    	9.3242e-12
0.05    	0.4     	9.3356e-12
0.05    	0.45    	9.3462e-12
0.05    	0.5     	9.3562e-12
0.05    	0.55    	9.3657e-12
0.05    	0.6     	9.3747e-12
0.05    	0.65    	9.3833e-12
0.05    	0.7     	9.3915e-12
0.1     	0       	3.3141e-13
0.1     	0.05    	5.4172e-11
0.1     	0.1     	6.2126e-11
0.1     	0.15    	6.3392e-11
0.1     	0.2     	6.3672e-11
0.1     	0.25    	6.3801e-11
0.1     	0.3     	6.39e-11
0.1     	0.35    	6.3988e-11
0.1     	0.4     	6.407e-11
0.1     	0.45    	6.4146e-11
0.1     	0.5     	6.4217e-11
0.1     	0.55    	6.4284e-11
0.1     	0.6     	6.4347e-11
0.1     	0.65    	6.4407e-11
0.1     	0.7     	6.4464e-11
0.15    	0       	2.2008e-12
0.15    	0.05    	3.6933e-10
0.15    	0.1     	4.2395e-10
0.15    	0.15    	4.3273e-10
0.15    	0.2     	4.3474e-10
0.15    	0.25    	4.3568e-10
0.15    	0.3     	4.364e-10
0.15    	0.35    	4.3704e-10
0.15    	0.4     	4.3762e-10
0.15    	0.45    	4.3816e-10
0.15    	0.5     	4.3866e-10
0.15    	0.55    	4.3913e-10
0.15    	0.6     	4.3957e-10
0.15    	0.65    	4.3999e-10
0.15    	0.7     	4.4038e-10
0.2     	0       	1.3296e-11
0.2     	0.05    	2.5194e-09
0.2     	0.1     	2.8927e-09
0.2     	0.15    	2.9538e-09
0.2     	0.2     	2.9682e-09
0.2     	0.25    	2.975e-09
0.2     	0.3     	2.9803e-09
0.2     	0.35    	2.9849e-09
0.2     	0.4     	2.9891e-09
0.2     	0.45    	2.9929e-09
0.2     	0.5     	2.9964e-09
0.2     	0.55    	2.9997e-09
0.2     	0.6     	3.0027e-09
0.2     	0.65    	3.0056e-09
0.2     	0.7     	3.0083e-09
0.25    	0       	8.5938e-11
0.25    	0.05    	1.6548e-08
0.25    	0.1     	1.9104e-08
0.25    	0.15    	1.9526e-08
0.25    	0.2     	1.9628e-08
0.25    	0.25    	1.9676e-08
0.25    	0.3     	1.9713e-08
0.25    	0.35    	1.9745e-08
0.25    	0.4     	1.9773e-08
0.25    	0.45    	1.9799e-08
0.25    	0.5     	1.9822e-08
0.25    	0.55    	1.9844e-08
0.25    	0.6     	1.9864e-08
0.25    	0.65    	1.9883e-08
0.25    	0.7     	1.99e-08
0.3     	0       	4.5085e-10
0.3     	0.05    	9.4573e-08
0.3     	0.1     	1.1139e-07
0.3     	0.15    	1.1427e-07
0.3     	0.2     	1.1494e-07
0.3     	0.25    	1.1525e-07
0.3     	0.3     	1.1546e-07
0.3     	0.35    	1.1564e-07
0.3     	0.4     	1.158e-07
0.3     	0.45    	1.1594e-07
0.3     	0.5     	1.1607e-07
0.3     	0.55    	1.1619e-07
0.3     	0.6     	1.163e-07
0.3     	0.65    	1.164e-07
0.3     	0.7     	1.1649e-07
0.35    	0       	1.3667e-09
0.35    	0.05    	3.5477e-07
0.35    	0.1     	4.4697e-07
0.35    	0.15    	4.6442e-07
0.35    	0.2     	4.6817e-07
0.35    	0.25    	4.6953e-07
0.35    	0.3     	4.7039e-07
0.35    	0.35    	4.7107e-07
0.35    	0.4     	4.7165e-07
0.35    	0.45    	4.7215e-07
0.35    	0.5     	4.726e-07
0.35    	0.55    	4.73e-07
0.35    	0.6     	4.7337e-07
0.35    	0.65    	4.737e-07
0.35    	0.7     	4.7402e-07
0.4     	0       	2.3841e-09
0.4     	0.05    	7.5669e-07
0.4     	0.1     	1.0813e-06
0.4     	0.15    	1.1626e-06
0.4     	0.2     	1.1801e-06
0.4     	0.25    	1.185e-06
0.4     	0.3     	1.1874e-06
0.4     	0.35    	1.1891e-06
0.4     	0.4     	1.1904e-06
0.4     	0.45    	1.1917e-06
0.4     	0.5     	1.1927e-06
0.4     	0.55    	1.1936e-06
0.4     	0.6     	1.1944e-06
0.4     	0.65    	1.1951e-06
0.4     	0.7     	1.1957e-06
0.45    	0       	3.135e-09
0.45    	0.05    	1.1071e-06
0.45    	0.1     	1.8027e-06
0.45    	0.15    	2.0651e-06
0.45    	0.2     	2.1358e-06
0.45    	0.25    	2.1525e-06
0.45    	0.3     	2.1583e-06
0.45    	0.35    	2.1619e-06
0.45    	0.4     	2.1642e-06
0.45    	0.45    	2.1661e-06
0.45    	0.5     	2.1676e-06
0.45    	0.55    	2.169e-06
0.45    	0.6     	2.1704e-06
0.45    	0.65    	2.1715e-06
0.45    	0.7     	2.1725e-06
0.5     	0       	3.6696e-09
0.5     	0.05    	1.3622e-06
0.5     	0.1     	2.3947e-06
0.5     	0.15    	2.9804e-06
0.5     	0.2     	3.185e-06
0.5     	0.25    	3.2429e-06
0.5     	0.3     	3.2588e-06
0.5     	0.35    	3.2656e-06
0.5     	0.4     	3.2693e-06
0.5     	0.45    	3.272e-06
0.5     	0.5     	3.2742e-06
0.5     	0.55    	3.2763e-06
0.5     	0.6     	3.278e-06
0.5     	0.65    	3.2794e-06
0.5     	0.7     	3.2807e-06
0.55    	0       	4.0721e-09
0.55    	0.05    	1.5429e-06
0.55    	0.1     	2.8169e-06
0.55    	0.15    	3.7342e-06
0.55    	0.2     	4.1826e-06
0.55    	0.25    	4.3529e-06
0.55    	0.3     	4.403e-06
0.55    	0.35    	4.4185e-06
0.55    	0.4     	4.4248e-06
0.55    	0.45    	4.4287e-06
0.55    	0.5     	4.4319e-06
0.55    	0.55    	4.4343e-06
0.55    	0.6     	4.4364e-06
0.55    	0.65    	4.4383e-06
0.55    	0.7     	4.4399e-06
0.6     	0       	4.385e-09
0.6     	0.05    	1.6708e-06
0.6     	0.1     	3.1237e-06
0.6     	0.15    	4.274e-06
0.6     	0.2     	5.0182e-06
0.6     	0.25    	5.3835e-06
0.6     	0.3     	5.5187e-06
0.6     	0.35    	5.5605e-06
0.6     	0.4     	5.5739e-06
0.6     	0.45    	5.5806e-06
0.6     	0.5     	5.5846e-06
0.6     	0.55    	5.5875e-06
0.6     	0.6     	5.5902e-06
0.6     	0.65    	5.5923e-06
0.6     	0.7     	5.594e-06
0.65    	0       	4.632e-09
0.65    	0.05    	1.7586e-06
0.65    	0.1     	3.3299e-06
0.65    	0.15    	4.6427e-06
0.65    	0.2     	5.6118e-06
0.65    	0.25    	6.1833e-06
0.65    	0.3     	6.5086e-06
0.65    	0.35    	6.6316e-06
0.65    	0.4     	6.6695e-06
0.65    	0.45    	6.6825e-06
0.65    	0.5     	6.6892e-06
0.65    	0.55    	6.6931e-06
0.65    	0.6     	6.696e-06
0.65    	0.65    	6.6985e-06
0.65    	0.7     	6.7005e-06
0.7     	0       	4.7962e-09
0.7     	0.05    	1.8262e-06
0.7     	0.1     	3.4823e-06
0.7     	0.15    	4.8992e-06
0.7     	0.2     	6.0128e-06
0.7     	0.25    	6.7565e-06
0.7     	0.3     	7.2714e-06
0.7     	0.35    	7.5421e-06
0.7     	0.4     	7.6544e-06
0.7     	0.45    	7.6921e-06
0.7     	0.5     	7.7063e-06
0.7     	0.55    	7.7127e-06
0.7     	0.6     	7.7168e-06
0.7     	0.65    	7.7196e-06
0.7     	0.7     	7.7218e-06
