vg      	vd      	ids     
0       	0       	-1.9317e-17
0       	0.05    	1.141e-13
0       	0.1     	1.3071e-13
0       	0.15    	1.3312e-13
0       	0.2     	1.3347e-13
0       	0.25    	1.3352e-13
0       	0.3     	1.3352e-13
0       	0.35    	1.3353e-13
0       	0.4     	1.3353e-13
0       	0.45    	1.3353e-13
0       	0.5     	1.3353e-13
0       	0.55    	1.3353e-13
0       	0.6     	1.3353e-13
0       	0.65    	1.3353e-13
0       	0.7     	1.3353e-13
0.05    	0       	-3.4954e-16
0.05    	0.05    	7.7474e-13
0.05    	0.1     	8.8914e-13
0.05    	0.15    	9.0579e-13
0.05    	0.2     	9.082e-13
0.05    	0.25    	9.0855e-13
0.05    	0.3     	9.0861e-13
0.05    	0.35    	9.0861e-13
0.05    	0.4     	9.0862e-13
0.05    	0.45    	9.0862e-13
0.05    	0.5     	9.0862e-13
0.05    	0.55    	9.0862e-13
0.05    	0.6     	9.0862e-13
0.05    	0.65    	9.0862e-13
0.05    	0.7     	9.0862e-13
0.1     	0       	-2.8168e-15
0.1     	0.05    	5.275e-12
0.1     	0.1     	6.0529e-12
0.1     	0.15    	6.1686e-12
0.1     	0.2     	6.1855e-12
0.1     	0.25    	6.188e-12
0.1     	0.3     	6.1884e-12
0.1     	0.35    	6.1884e-12
0.1     	0.4     	6.1885e-12
0.1     	0.45    	6.1885e-12
0.1     	0.5     	6.1885e-12
0.1     	0.55    	6.1885e-12
0.1     	0.6     	6.1885e-12
0.1     	0.65    	6.1885e-12
0.1     	0.7     	6.1885e-12
0.15    	0       	-1.918e-14
0.15    	0.05    	3.5835e-11
0.15    	0.1     	4.1151e-11
0.15    	0.15    	4.1951e-11
0.15    	0.2     	4.2077e-11
0.15    	0.25    	4.2096e-11
0.15    	0.3     	4.2098e-11
0.15    	0.35    	4.2099e-11
0.15    	0.4     	4.2099e-11
0.15    	0.45    	4.2099e-11
0.15    	0.5     	4.2099e-11
0.15    	0.55    	4.2099e-11
0.15    	0.6     	4.2099e-11
0.15    	0.65    	4.2099e-11
0.15    	0.7     	4.2099e-11
0.2     	0       	-6.9266e-14
0.2     	0.05    	2.4295e-10
0.2     	0.1     	2.7912e-10
0.2     	0.15    	2.8469e-10
0.2     	0.2     	2.8564e-10
0.2     	0.25    	2.8584e-10
0.2     	0.3     	2.8587e-10
0.2     	0.35    	2.8588e-10
0.2     	0.4     	2.8588e-10
0.2     	0.45    	2.8588e-10
0.2     	0.5     	2.8588e-10
0.2     	0.55    	2.8588e-10
0.2     	0.6     	2.8588e-10
0.2     	0.65    	2.8588e-10
0.2     	0.7     	2.8588e-10
0.25    	0       	1.707e-13
0.25    	0.05    	1.6384e-09
0.25    	0.1     	1.8842e-09
0.25    	0.15    	1.9228e-09
0.25    	0.2     	1.9302e-09
0.25    	0.25    	1.9322e-09
0.25    	0.3     	1.9328e-09
0.25    	0.35    	1.9329e-09
0.25    	0.4     	1.933e-09
0.25    	0.45    	1.933e-09
0.25    	0.5     	1.933e-09
0.25    	0.55    	1.933e-09
0.25    	0.6     	1.933e-09
0.25    	0.65    	1.933e-09
0.25    	0.7     	1.933e-09
0.3     	0       	-1.344e-11
0.3     	0.05    	1.0726e-08
0.3     	0.1     	1.2395e-08
0.3     	0.15    	1.2664e-08
0.3     	0.2     	1.272e-08
0.3     	0.25    	1.2738e-08
0.3     	0.3     	1.2747e-08
0.3     	0.35    	1.275e-08
0.3     	0.4     	1.2751e-08
0.3     	0.45    	1.2751e-08
0.3     	0.5     	1.2751e-08
0.3     	0.55    	1.2751e-08
0.3     	0.6     	1.2751e-08
0.3     	0.65    	1.2751e-08
0.3     	0.7     	1.2751e-08
0.35    	0       	5.3939e-11
0.35    	0.05    	6.1133e-08
0.35    	0.1     	7.2287e-08
0.35    	0.15    	7.4198e-08
0.35    	0.2     	7.4605e-08
0.35    	0.25    	7.4747e-08
0.35    	0.3     	7.4824e-08
0.35    	0.35    	7.4867e-08
0.35    	0.4     	7.4882e-08
0.35    	0.45    	7.4887e-08
0.35    	0.5     	7.4888e-08
0.35    	0.55    	7.4888e-08
0.35    	0.6     	7.4889e-08
0.35    	0.65    	7.4889e-08
0.35    	0.7     	7.4889e-08
0.4     	0       	2.3669e-10
0.4     	0.05    	2.2419e-07
0.4     	0.1     	2.9021e-07
0.4     	0.15    	3.0445e-07
0.4     	0.2     	3.074e-07
0.4     	0.25    	3.083e-07
0.4     	0.3     	3.0874e-07
0.4     	0.35    	3.0898e-07
0.4     	0.4     	3.0908e-07
0.4     	0.45    	3.0912e-07
0.4     	0.5     	3.0913e-07
0.4     	0.55    	3.0914e-07
0.4     	0.6     	3.0914e-07
0.4     	0.65    	3.0914e-07
0.4     	0.7     	3.0914e-07
0.45    	0       	5.2543e-10
0.45    	0.05    	4.4449e-07
0.45    	0.1     	6.8221e-07
0.45    	0.15    	7.6589e-07
0.45    	0.2     	7.8781e-07
0.45    	0.25    	7.9353e-07
0.45    	0.3     	7.9556e-07
0.45    	0.35    	7.9655e-07
0.45    	0.4     	7.9694e-07
0.45    	0.45    	7.9706e-07
0.45    	0.5     	7.971e-07
0.45    	0.55    	7.9712e-07
0.45    	0.6     	7.9714e-07
0.45    	0.65    	7.9715e-07
0.45    	0.7     	7.9716e-07
0.5     	0       	8.5592e-10
0.5     	0.05    	6.0731e-07
0.5     	0.1     	1.0464e-06
0.5     	0.15    	1.2969e-06
0.5     	0.2     	1.4047e-06
0.5     	0.25    	1.4435e-06
0.5     	0.3     	1.4553e-06
0.5     	0.35    	1.4597e-06
0.5     	0.4     	1.4612e-06
0.5     	0.45    	1.4616e-06
0.5     	0.5     	1.4617e-06
0.5     	0.55    	1.4618e-06
0.5     	0.6     	1.4619e-06
0.5     	0.65    	1.462e-06
0.5     	0.7     	1.462e-06
0.55    	0       	1.2171e-09
0.55    	0.05    	7.1996e-07
0.55    	0.1     	1.2869e-06
0.55    	0.15    	1.7106e-06
0.55    	0.2     	1.9544e-06
0.55    	0.25    	2.0839e-06
0.55    	0.3     	2.138e-06
0.55    	0.35    	2.1578e-06
0.55    	0.4     	2.1635e-06
0.55    	0.45    	2.1653e-06
0.55    	0.5     	2.166e-06
0.55    	0.55    	2.1667e-06
0.55    	0.6     	2.1673e-06
0.55    	0.65    	2.1678e-06
0.55    	0.7     	2.1683e-06
0.6     	0       	1.6029e-09
0.6     	0.05    	8.0183e-07
0.6     	0.1     	1.4665e-06
0.6     	0.15    	1.9833e-06
0.6     	0.2     	2.3525e-06
0.6     	0.25    	2.5634e-06
0.6     	0.3     	2.677e-06
0.6     	0.35    	2.719e-06
0.6     	0.4     	2.731e-06
0.6     	0.45    	2.7344e-06
0.6     	0.5     	2.7374e-06
0.6     	0.55    	2.7402e-06
0.6     	0.6     	2.7426e-06
0.6     	0.65    	2.7448e-06
0.6     	0.7     	2.7467e-06
0.65    	0       	2.004e-09
0.65    	0.05    	8.6283e-07
0.65    	0.1     	1.6001e-06
0.65    	0.15    	2.1963e-06
0.65    	0.2     	2.6405e-06
0.65    	0.25    	2.9122e-06
0.65    	0.3     	3.0656e-06
0.65    	0.35    	3.1159e-06
0.65    	0.4     	3.1352e-06
0.65    	0.45    	3.1404e-06
0.65    	0.5     	3.1451e-06
0.65    	0.55    	3.1492e-06
0.65    	0.6     	3.1527e-06
0.65    	0.65    	3.1558e-06
0.65    	0.7     	3.1584e-06
0.7     	0       	2.4475e-09
0.7     	0.05    	9.1658e-07
0.7     	0.1     	1.7264e-06
0.7     	0.15    	2.3872e-06
0.7     	0.2     	2.8584e-06
0.7     	0.25    	3.2008e-06
0.7     	0.3     	3.3749e-06
0.7     	0.35    	3.4455e-06
0.7     	0.4     	3.4701e-06
0.7     	0.45    	3.4767e-06
0.7     	0.5     	3.4825e-06
0.7     	0.55    	3.4875e-06
0.7     	0.6     	3.4919e-06
0.7     	0.65    	3.4956e-06
0.7     	0.7     	3.4987e-06
