vg      	vd      	ids     
0       	0       	2.2749e-14
0       	0.05    	3.8135e-13
0       	0.1     	4.4224e-13
0       	0.15    	4.5545e-13
0       	0.2     	4.6127e-13
0       	0.25    	4.6587e-13
0       	0.3     	4.7016e-13
0       	0.35    	4.7428e-13
0       	0.4     	4.7824e-13
0       	0.45    	4.8209e-13
0       	0.5     	4.8583e-13
0       	0.55    	4.8947e-13
0       	0.6     	4.9303e-13
0       	0.65    	4.9649e-13
0       	0.7     	4.9986e-13
0.05    	0       	1.3449e-13
0.05    	0.05    	2.5194e-12
0.05    	0.1     	2.927e-12
0.05    	0.15    	3.0158e-12
0.05    	0.2     	3.0556e-12
0.05    	0.25    	3.0871e-12
0.05    	0.3     	3.1166e-12
0.05    	0.35    	3.1447e-12
0.05    	0.4     	3.1718e-12
0.05    	0.45    	3.1979e-12
0.05    	0.5     	3.223e-12
0.05    	0.55    	3.2473e-12
0.05    	0.6     	3.2708e-12
0.05    	0.65    	3.2935e-12
0.05    	0.7     	3.3154e-12
0.1     	0       	8.1561e-13
0.1     	0.05    	1.6766e-11
0.1     	0.1     	1.9498e-11
0.1     	0.15    	2.0098e-11
0.1     	0.2     	2.0371e-11
0.1     	0.25    	2.0588e-11
0.1     	0.3     	2.079e-11
0.1     	0.35    	2.0983e-11
0.1     	0.4     	2.1167e-11
0.1     	0.45    	2.1344e-11
0.1     	0.5     	2.1512e-11
0.1     	0.55    	2.1672e-11
0.1     	0.6     	2.1824e-11
0.1     	0.65    	2.1969e-11
0.1     	0.7     	2.2107e-11
0.15    	0       	5.0855e-12
0.15    	0.05    	1.1194e-10
0.15    	0.1     	1.3031e-10
0.15    	0.15    	1.3441e-10
0.15    	0.2     	1.363e-10
0.15    	0.25    	1.3779e-10
0.15    	0.3     	1.3917e-10
0.15    	0.35    	1.4048e-10
0.15    	0.4     	1.4172e-10
0.15    	0.45    	1.4289e-10
0.15    	0.5     	1.4398e-10
0.15    	0.55    	1.45e-10
0.15    	0.6     	1.4594e-10
0.15    	0.65    	1.4681e-10
0.15    	0.7     	1.4763e-10
0.2     	0       	3.3131e-11
0.2     	0.05    	7.2288e-10
0.2     	0.1     	8.462e-10
0.2     	0.15    	8.7391e-10
0.2     	0.2     	8.8674e-10
0.2     	0.25    	8.9671e-10
0.2     	0.3     	9.057e-10
0.2     	0.35    	9.1402e-10
0.2     	0.4     	9.2174e-10
0.2     	0.45    	9.2884e-10
0.2     	0.5     	9.3531e-10
0.2     	0.55    	9.4117e-10
0.2     	0.6     	9.4651e-10
0.2     	0.65    	9.514e-10
0.2     	0.7     	9.5595e-10
0.25    	0       	2.0877e-10
0.25    	0.05    	4.4902e-09
0.25    	0.1     	5.2864e-09
0.25    	0.15    	5.4698e-09
0.25    	0.2     	5.5526e-09
0.25    	0.25    	5.6147e-09
0.25    	0.3     	5.668e-09
0.25    	0.35    	5.7152e-09
0.25    	0.4     	5.7574e-09
0.25    	0.45    	5.7953e-09
0.25    	0.5     	5.8297e-09
0.25    	0.55    	5.8611e-09
0.25    	0.6     	5.8901e-09
0.25    	0.65    	5.9173e-09
0.25    	0.7     	5.9429e-09
0.3     	0       	1.1809e-09
0.3     	0.05    	2.6037e-08
0.3     	0.1     	3.0948e-08
0.3     	0.15    	3.2072e-08
0.3     	0.2     	3.2537e-08
0.3     	0.25    	3.2856e-08
0.3     	0.3     	3.3117e-08
0.3     	0.35    	3.3343e-08
0.3     	0.4     	3.3544e-08
0.3     	0.45    	3.3729e-08
0.3     	0.5     	3.3901e-08
0.3     	0.55    	3.4063e-08
0.3     	0.6     	3.4216e-08
0.3     	0.65    	3.4362e-08
0.3     	0.7     	3.45e-08
0.35    	0       	5.1195e-09
0.35    	0.05    	1.2627e-07
0.35    	0.1     	1.5425e-07
0.35    	0.15    	1.6038e-07
0.35    	0.2     	1.6245e-07
0.35    	0.25    	1.6371e-07
0.35    	0.3     	1.6473e-07
0.35    	0.35    	1.6563e-07
0.35    	0.4     	1.6645e-07
0.35    	0.45    	1.6721e-07
0.35    	0.5     	1.6793e-07
0.35    	0.55    	1.6861e-07
0.35    	0.6     	1.6925e-07
0.35    	0.65    	1.6987e-07
0.35    	0.7     	1.7046e-07
0.4     	0       	1.3328e-08
0.4     	0.05    	4.0432e-07
0.4     	0.1     	5.3324e-07
0.4     	0.15    	5.637e-07
0.4     	0.2     	5.7166e-07
0.4     	0.25    	5.7535e-07
0.4     	0.3     	5.78e-07
0.4     	0.35    	5.8025e-07
0.4     	0.4     	5.8224e-07
0.4     	0.45    	5.8404e-07
0.4     	0.5     	5.8568e-07
0.4     	0.55    	5.8721e-07
0.4     	0.6     	5.8863e-07
0.4     	0.65    	5.8996e-07
0.4     	0.7     	5.912e-07
0.45    	0       	2.2036e-08
0.45    	0.05    	7.9694e-07
0.45    	0.1     	1.1846e-06
0.45    	0.15    	1.3067e-06
0.45    	0.2     	1.3383e-06
0.45    	0.25    	1.3476e-06
0.45    	0.3     	1.3526e-06
0.45    	0.35    	1.3559e-06
0.45    	0.4     	1.3588e-06
0.45    	0.45    	1.3613e-06
0.45    	0.5     	1.3636e-06
0.45    	0.55    	1.3657e-06
0.45    	0.6     	1.3676e-06
0.45    	0.65    	1.3694e-06
0.45    	0.7     	1.3711e-06
0.5     	0       	2.8911e-08
0.5     	0.05    	1.1558e-06
0.5     	0.1     	1.9045e-06
0.5     	0.15    	2.2451e-06
0.5     	0.2     	2.3547e-06
0.5     	0.25    	2.3848e-06
0.5     	0.3     	2.3952e-06
0.5     	0.35    	2.4006e-06
0.5     	0.4     	2.4044e-06
0.5     	0.45    	2.4079e-06
0.5     	0.5     	2.4106e-06
0.5     	0.55    	2.4131e-06
0.5     	0.6     	2.4155e-06
0.5     	0.65    	2.4177e-06
0.5     	0.7     	2.4197e-06
0.55    	0       	3.4352e-08
0.55    	0.05    	1.4428e-06
0.55    	0.1     	2.5353e-06
0.55    	0.15    	3.1904e-06
0.55    	0.2     	3.475e-06
0.55    	0.25    	3.5701e-06
0.55    	0.3     	3.5988e-06
0.55    	0.35    	3.6096e-06
0.55    	0.4     	3.6155e-06
0.55    	0.45    	3.6197e-06
0.55    	0.5     	3.6232e-06
0.55    	0.55    	3.6262e-06
0.55    	0.6     	3.6289e-06
0.55    	0.65    	3.6312e-06
0.55    	0.7     	3.6336e-06
0.6     	0       	3.8858e-08
0.6     	0.05    	1.6707e-06
0.6     	0.1     	3.0463e-06
0.6     	0.15    	4.0218e-06
0.6     	0.2     	4.5706e-06
0.6     	0.25    	4.8058e-06
0.6     	0.3     	4.8854e-06
0.6     	0.35    	4.9124e-06
0.6     	0.4     	4.9235e-06
0.6     	0.45    	4.9296e-06
0.6     	0.5     	4.9339e-06
0.6     	0.55    	4.9375e-06
0.6     	0.6     	4.9406e-06
0.6     	0.65    	4.9433e-06
0.6     	0.7     	4.9458e-06
0.65    	0       	4.2663e-08
0.65    	0.05    	1.8552e-06
0.65    	0.1     	3.4572e-06
0.65    	0.15    	4.7086e-06
0.65    	0.2     	5.5452e-06
0.65    	0.25    	5.9935e-06
0.65    	0.3     	6.1857e-06
0.65    	0.35    	6.2544e-06
0.65    	0.4     	6.2798e-06
0.65    	0.45    	6.2908e-06
0.65    	0.5     	6.297e-06
0.65    	0.55    	6.3014e-06
0.65    	0.6     	6.3049e-06
0.65    	0.65    	6.308e-06
0.65    	0.7     	6.3107e-06
0.7     	0       	4.591e-08
0.7     	0.05    	2.0073e-06
0.7     	0.1     	3.7914e-06
0.7     	0.15    	5.2668e-06
0.7     	0.2     	6.3638e-06
0.7     	0.25    	7.0618e-06
0.7     	0.3     	7.4286e-06
0.7     	0.35    	7.5828e-06
0.7     	0.4     	7.6426e-06
0.7     	0.45    	7.6663e-06
0.7     	0.5     	7.6772e-06
0.7     	0.55    	7.6834e-06
0.7     	0.6     	7.6877e-06
0.7     	0.65    	7.6914e-06
0.7     	0.7     	7.6943e-06
