vg      	vd      	ids     
0       	0       	-9.2158e-21
0       	0.05    	2.3144e-17
0       	0.1     	2.6519e-17
0       	0.15    	2.7019e-17
0       	0.2     	2.7105e-17
0       	0.25    	2.713e-17
0       	0.3     	2.7144e-17
0       	0.35    	2.7157e-17
0       	0.4     	2.7167e-17
0       	0.45    	2.7175e-17
0       	0.5     	2.718e-17
0       	0.55    	2.7182e-17
0       	0.6     	2.7182e-17
0       	0.65    	2.7183e-17
0       	0.7     	2.7183e-17
0.05    	0       	-5.0193e-20
0.05    	0.05    	1.5904e-16
0.05    	0.1     	1.823e-16
0.05    	0.15    	1.8578e-16
0.05    	0.2     	1.8638e-16
0.05    	0.25    	1.8656e-16
0.05    	0.3     	1.8667e-16
0.05    	0.35    	1.8676e-16
0.05    	0.4     	1.8684e-16
0.05    	0.45    	1.8691e-16
0.05    	0.5     	1.8697e-16
0.05    	0.55    	1.87e-16
0.05    	0.6     	1.8702e-16
0.05    	0.65    	1.8702e-16
0.05    	0.7     	1.8702e-16
0.1     	0       	8.0171e-20
0.1     	0.05    	1.1039e-15
0.1     	0.1     	1.2638e-15
0.1     	0.15    	1.2878e-15
0.1     	0.2     	1.292e-15
0.1     	0.25    	1.2933e-15
0.1     	0.3     	1.2941e-15
0.1     	0.35    	1.2948e-15
0.1     	0.4     	1.2955e-15
0.1     	0.45    	1.296e-15
0.1     	0.5     	1.2965e-15
0.1     	0.55    	1.2969e-15
0.1     	0.6     	1.2971e-15
0.1     	0.65    	1.2972e-15
0.1     	0.7     	1.2973e-15
0.15    	0       	1.9629e-18
0.15    	0.05    	7.5894e-15
0.15    	0.1     	8.6991e-15
0.15    	0.15    	8.8649e-15
0.15    	0.2     	8.8946e-15
0.15    	0.25    	8.9039e-15
0.15    	0.3     	8.9099e-15
0.15    	0.35    	8.9151e-15
0.15    	0.4     	8.9198e-15
0.15    	0.45    	8.9241e-15
0.15    	0.5     	8.9279e-15
0.15    	0.55    	8.9313e-15
0.15    	0.6     	8.9341e-15
0.15    	0.65    	8.9357e-15
0.15    	0.7     	8.9363e-15
0.2     	0       	2.7424e-17
0.2     	0.05    	5.2555e-14
0.2     	0.1     	6.0187e-14
0.2     	0.15    	6.1341e-14
0.2     	0.2     	6.1549e-14
0.2     	0.25    	6.1617e-14
0.2     	0.3     	6.1662e-14
0.2     	0.35    	6.1701e-14
0.2     	0.4     	6.1736e-14
0.2     	0.45    	6.1768e-14
0.2     	0.5     	6.1798e-14
0.2     	0.55    	6.1825e-14
0.2     	0.6     	6.1848e-14
0.2     	0.65    	6.1867e-14
0.2     	0.7     	6.1878e-14
0.25    	0       	2.7953e-16
0.25    	0.05    	3.6163e-13
0.25    	0.1     	4.1449e-13
0.25    	0.15    	4.2247e-13
0.25    	0.2     	4.2394e-13
0.25    	0.25    	4.2443e-13
0.25    	0.3     	4.2477e-13
0.25    	0.35    	4.2505e-13
0.25    	0.4     	4.2532e-13
0.25    	0.45    	4.2556e-13
0.25    	0.5     	4.2578e-13
0.25    	0.55    	4.2599e-13
0.25    	0.6     	4.2617e-13
0.25    	0.65    	4.2633e-13
0.25    	0.7     	4.2646e-13
0.3     	0       	2.5068e-15
0.3     	0.05    	2.4829e-12
0.3     	0.1     	2.8468e-12
0.3     	0.15    	2.9023e-12
0.3     	0.2     	2.9126e-12
0.3     	0.25    	2.9163e-12
0.3     	0.3     	2.9188e-12
0.3     	0.35    	2.9209e-12
0.3     	0.4     	2.9229e-12
0.3     	0.45    	2.9247e-12
0.3     	0.5     	2.9263e-12
0.3     	0.55    	2.9278e-12
0.3     	0.6     	2.9292e-12
0.3     	0.65    	2.9305e-12
0.3     	0.7     	2.9316e-12
0.35    	0       	2.1701e-14
0.35    	0.05    	1.7226e-11
0.35    	0.1     	1.9725e-11
0.35    	0.15    	2.011e-11
0.35    	0.2     	2.0184e-11
0.35    	0.25    	2.0211e-11
0.35    	0.3     	2.023e-11
0.35    	0.35    	2.0246e-11
0.35    	0.4     	2.0261e-11
0.35    	0.45    	2.0274e-11
0.35    	0.5     	2.0287e-11
0.35    	0.55    	2.0298e-11
0.35    	0.6     	2.0309e-11
0.35    	0.65    	2.0318e-11
0.35    	0.7     	2.0327e-11
0.4     	0       	2.0031e-13
0.4     	0.05    	1.1797e-10
0.4     	0.1     	1.3535e-10
0.4     	0.15    	1.3801e-10
0.4     	0.2     	1.3854e-10
0.4     	0.25    	1.3875e-10
0.4     	0.3     	1.3889e-10
0.4     	0.35    	1.3901e-10
0.4     	0.4     	1.3912e-10
0.4     	0.45    	1.3922e-10
0.4     	0.5     	1.3931e-10
0.4     	0.55    	1.394e-10
0.4     	0.6     	1.3948e-10
0.4     	0.65    	1.3955e-10
0.4     	0.7     	1.3961e-10
0.45    	0       	1.2163e-12
0.45    	0.05    	8.1425e-10
0.45    	0.1     	9.3354e-10
0.45    	0.15    	9.5228e-10
0.45    	0.2     	9.5612e-10
0.45    	0.25    	9.5765e-10
0.45    	0.3     	9.5874e-10
0.45    	0.35    	9.5966e-10
0.45    	0.4     	9.6049e-10
0.45    	0.45    	9.6125e-10
0.45    	0.5     	9.6194e-10
0.45    	0.55    	9.6257e-10
0.45    	0.6     	9.6315e-10
0.45    	0.65    	9.6369e-10
0.45    	0.7     	9.6418e-10
0.5     	0       	7.6051e-12
0.5     	0.05    	5.4744e-09
0.5     	0.1     	6.3009e-09
0.5     	0.15    	6.4316e-09
0.5     	0.2     	6.4596e-09
0.5     	0.25    	6.4713e-09
0.5     	0.3     	6.4795e-09
0.5     	0.35    	6.4864e-09
0.5     	0.4     	6.4926e-09
0.5     	0.45    	6.4981e-09
0.5     	0.5     	6.5031e-09
0.5     	0.55    	6.5077e-09
0.5     	0.6     	6.5118e-09
0.5     	0.65    	6.5158e-09
0.5     	0.7     	6.5193e-09
0.55    	0       	3.8776e-11
0.55    	0.05    	3.364e-08
0.55    	0.1     	3.924e-08
0.55    	0.15    	4.0155e-08
0.55    	0.2     	4.0356e-08
0.55    	0.25    	4.0439e-08
0.55    	0.3     	4.0496e-08
0.55    	0.35    	4.0542e-08
0.55    	0.4     	4.0583e-08
0.55    	0.45    	4.062e-08
0.55    	0.5     	4.0652e-08
0.55    	0.55    	4.0682e-08
0.55    	0.6     	4.0709e-08
0.55    	0.65    	4.0734e-08
0.55    	0.7     	4.0756e-08
0.6     	0       	1.2951e-10
0.6     	0.05    	1.4411e-07
0.6     	0.1     	1.7878e-07
0.6     	0.15    	1.8497e-07
0.6     	0.2     	1.8628e-07
0.6     	0.25    	1.8674e-07
0.6     	0.3     	1.8702e-07
0.6     	0.35    	1.8724e-07
0.6     	0.4     	1.8742e-07
0.6     	0.45    	1.876e-07
0.6     	0.5     	1.8774e-07
0.6     	0.55    	1.8786e-07
0.6     	0.6     	1.8798e-07
0.6     	0.65    	1.8808e-07
0.6     	0.7     	1.8818e-07
0.65    	0       	2.3978e-10
0.65    	0.05    	3.3022e-07
0.65    	0.1     	4.773e-07
0.65    	0.15    	5.1462e-07
0.65    	0.2     	5.2242e-07
0.65    	0.25    	5.2448e-07
0.65    	0.3     	5.255e-07
0.65    	0.35    	5.2611e-07
0.65    	0.4     	5.2658e-07
0.65    	0.45    	5.2698e-07
0.65    	0.5     	5.2732e-07
0.65    	0.55    	5.2766e-07
0.65    	0.6     	5.2793e-07
0.65    	0.65    	5.2818e-07
0.65    	0.7     	5.284e-07
0.7     	0       	3.3219e-10
0.7     	0.05    	4.8152e-07
0.7     	0.1     	8.0604e-07
0.7     	0.15    	9.5068e-07
0.7     	0.2     	9.9417e-07
0.7     	0.25    	1.0045e-06
0.7     	0.3     	1.0074e-06
0.7     	0.35    	1.0088e-06
0.7     	0.4     	1.0098e-06
0.7     	0.45    	1.0105e-06
0.7     	0.5     	1.0111e-06
0.7     	0.55    	1.0116e-06
0.7     	0.6     	1.0121e-06
0.7     	0.65    	1.0125e-06
0.7     	0.7     	1.0128e-06
