vg      	vd      	ids     
0       	0       	-2.1695e-17
0       	0.05    	1.2814e-13
0       	0.1     	1.468e-13
0       	0.15    	1.495e-13
0       	0.2     	1.499e-13
0       	0.25    	1.4995e-13
0       	0.3     	1.4996e-13
0       	0.35    	1.4996e-13
0       	0.4     	1.4996e-13
0       	0.45    	1.4996e-13
0       	0.5     	1.4996e-13
0       	0.55    	1.4996e-13
0       	0.6     	1.4996e-13
0       	0.65    	1.4996e-13
0       	0.7     	1.4996e-13
0.05    	0       	-3.9176e-16
0.05    	0.05    	8.6894e-13
0.05    	0.1     	9.9761e-13
0.05    	0.15    	1.0164e-12
0.05    	0.2     	1.0191e-12
0.05    	0.25    	1.0195e-12
0.05    	0.3     	1.0196e-12
0.05    	0.35    	1.0196e-12
0.05    	0.4     	1.0196e-12
0.05    	0.45    	1.0196e-12
0.05    	0.5     	1.0196e-12
0.05    	0.55    	1.0196e-12
0.05    	0.6     	1.0196e-12
0.05    	0.65    	1.0196e-12
0.05    	0.7     	1.0196e-12
0.1     	0       	-3.1489e-15
0.1     	0.05    	5.9036e-12
0.1     	0.1     	6.7796e-12
0.1     	0.15    	6.9117e-12
0.1     	0.2     	6.9312e-12
0.1     	0.25    	6.934e-12
0.1     	0.3     	6.9346e-12
0.1     	0.35    	6.9347e-12
0.1     	0.4     	6.9347e-12
0.1     	0.45    	6.9347e-12
0.1     	0.5     	6.9347e-12
0.1     	0.55    	6.9347e-12
0.1     	0.6     	6.9347e-12
0.1     	0.65    	6.9347e-12
0.1     	0.7     	6.9347e-12
0.15    	0       	-2.137e-14
0.15    	0.05    	3.9986e-11
0.15    	0.1     	4.5975e-11
0.15    	0.15    	4.6904e-11
0.15    	0.2     	4.706e-11
0.15    	0.25    	4.7085e-11
0.15    	0.3     	4.7089e-11
0.15    	0.35    	4.709e-11
0.15    	0.4     	4.709e-11
0.15    	0.45    	4.709e-11
0.15    	0.5     	4.709e-11
0.15    	0.55    	4.709e-11
0.15    	0.6     	4.709e-11
0.15    	0.65    	4.709e-11
0.15    	0.7     	4.709e-11
0.2     	0       	-7.6859e-14
0.2     	0.05    	2.7008e-10
0.2     	0.1     	3.1076e-10
0.2     	0.15    	3.1734e-10
0.2     	0.2     	3.1863e-10
0.2     	0.25    	3.1894e-10
0.2     	0.3     	3.19e-10
0.2     	0.35    	3.1901e-10
0.2     	0.4     	3.1902e-10
0.2     	0.45    	3.1902e-10
0.2     	0.5     	3.1902e-10
0.2     	0.55    	3.1902e-10
0.2     	0.6     	3.1902e-10
0.2     	0.65    	3.1902e-10
0.2     	0.7     	3.1902e-10
0.25    	0       	1.884e-13
0.25    	0.05    	1.8127e-09
0.25    	0.1     	2.0883e-09
0.25    	0.15    	2.134e-09
0.25    	0.2     	2.1445e-09
0.25    	0.25    	2.1481e-09
0.25    	0.3     	2.1495e-09
0.25    	0.35    	2.1497e-09
0.25    	0.4     	2.1498e-09
0.25    	0.45    	2.1498e-09
0.25    	0.5     	2.1498e-09
0.25    	0.55    	2.1498e-09
0.25    	0.6     	2.1498e-09
0.25    	0.65    	2.1498e-09
0.25    	0.7     	2.1498e-09
0.3     	0       	-1.4708e-11
0.3     	0.05    	1.1777e-08
0.3     	0.1     	1.3639e-08
0.3     	0.15    	1.3956e-08
0.3     	0.2     	1.4035e-08
0.3     	0.25    	1.4067e-08
0.3     	0.3     	1.4085e-08
0.3     	0.35    	1.4092e-08
0.3     	0.4     	1.4093e-08
0.3     	0.45    	1.4094e-08
0.3     	0.5     	1.4094e-08
0.3     	0.55    	1.4094e-08
0.3     	0.6     	1.4094e-08
0.3     	0.65    	1.4094e-08
0.3     	0.7     	1.4094e-08
0.35    	0       	5.7728e-11
0.35    	0.05    	6.6041e-08
0.35    	0.1     	7.8366e-08
0.35    	0.15    	8.0569e-08
0.35    	0.2     	8.1095e-08
0.35    	0.25    	8.1313e-08
0.35    	0.3     	8.1444e-08
0.35    	0.35    	8.1519e-08
0.35    	0.4     	8.1546e-08
0.35    	0.45    	8.1553e-08
0.35    	0.5     	8.1555e-08
0.35    	0.55    	8.1557e-08
0.35    	0.6     	8.1557e-08
0.35    	0.65    	8.1557e-08
0.35    	0.7     	8.1558e-08
0.4     	0       	2.4628e-10
0.4     	0.05    	2.3597e-07
0.4     	0.1     	3.0799e-07
0.4     	0.15    	3.2333e-07
0.4     	0.2     	3.2677e-07
0.4     	0.25    	3.279e-07
0.4     	0.3     	3.285e-07
0.4     	0.35    	3.2883e-07
0.4     	0.4     	3.2898e-07
0.4     	0.45    	3.2902e-07
0.4     	0.5     	3.2903e-07
0.4     	0.55    	3.2904e-07
0.4     	0.6     	3.2905e-07
0.4     	0.65    	3.2905e-07
0.4     	0.7     	3.2906e-07
0.45    	0       	5.3761e-10
0.45    	0.05    	4.5769e-07
0.45    	0.1     	7.0728e-07
0.45    	0.15    	7.9763e-07
0.45    	0.2     	8.2202e-07
0.45    	0.25    	8.2855e-07
0.45    	0.3     	8.3103e-07
0.45    	0.35    	8.321e-07
0.45    	0.4     	8.3256e-07
0.45    	0.45    	8.327e-07
0.45    	0.5     	8.3272e-07
0.45    	0.55    	8.3275e-07
0.45    	0.6     	8.3277e-07
0.45    	0.65    	8.3278e-07
0.45    	0.7     	8.328e-07
0.5     	0       	8.6905e-10
0.5     	0.05    	6.1831e-07
0.5     	0.1     	1.069e-06
0.5     	0.15    	1.3297e-06
0.5     	0.2     	1.4446e-06
0.5     	0.25    	1.4873e-06
0.5     	0.3     	1.5009e-06
0.5     	0.35    	1.5054e-06
0.5     	0.4     	1.5071e-06
0.5     	0.45    	1.5075e-06
0.5     	0.5     	1.5077e-06
0.5     	0.55    	1.5078e-06
0.5     	0.6     	1.5078e-06
0.5     	0.65    	1.5079e-06
0.5     	0.7     	1.508e-06
0.55    	0       	1.2308e-09
0.55    	0.05    	7.291e-07
0.55    	0.1     	1.3048e-06
0.55    	0.15    	1.7369e-06
0.55    	0.2     	1.9873e-06
0.55    	0.25    	2.1222e-06
0.55    	0.3     	2.1795e-06
0.55    	0.35    	2.2007e-06
0.55    	0.4     	2.2068e-06
0.55    	0.45    	2.2086e-06
0.55    	0.5     	2.2094e-06
0.55    	0.55    	2.2101e-06
0.55    	0.6     	2.2108e-06
0.55    	0.65    	2.2113e-06
0.55    	0.7     	2.2118e-06
0.6     	0       	1.6172e-09
0.6     	0.05    	8.0966e-07
0.6     	0.1     	1.4814e-06
0.6     	0.15    	2.0038e-06
0.6     	0.2     	2.3773e-06
0.6     	0.25    	2.5907e-06
0.6     	0.3     	2.7054e-06
0.6     	0.35    	2.7475e-06
0.6     	0.4     	2.7595e-06
0.6     	0.45    	2.7628e-06
0.6     	0.5     	2.7658e-06
0.6     	0.55    	2.7685e-06
0.6     	0.6     	2.7709e-06
0.6     	0.65    	2.773e-06
0.6     	0.7     	2.7748e-06
0.65    	0       	2.0189e-09
0.65    	0.05    	8.6968e-07
0.65    	0.1     	1.6129e-06
0.65    	0.15    	2.2134e-06
0.65    	0.2     	2.6601e-06
0.65    	0.25    	2.9323e-06
0.65    	0.3     	3.0852e-06
0.65    	0.35    	3.1348e-06
0.65    	0.4     	3.1536e-06
0.65    	0.45    	3.1586e-06
0.65    	0.5     	3.1631e-06
0.65    	0.55    	3.1671e-06
0.65    	0.6     	3.1705e-06
0.65    	0.65    	3.1734e-06
0.65    	0.7     	3.1759e-06
0.7     	0       	2.4631e-09
0.7     	0.05    	9.2272e-07
0.7     	0.1     	1.7378e-06
0.7     	0.15    	2.4022e-06
0.7     	0.2     	2.8746e-06
0.7     	0.25    	3.217e-06
0.7     	0.3     	3.3899e-06
0.7     	0.35    	3.4596e-06
0.7     	0.4     	3.4836e-06
0.7     	0.45    	3.4899e-06
0.7     	0.5     	3.4955e-06
0.7     	0.55    	3.5004e-06
0.7     	0.6     	3.5047e-06
0.7     	0.65    	3.5082e-06
0.7     	0.7     	3.5112e-06
