vg      	vd      	ids     
0       	0       	4.2648e-16
0       	0.05    	2.1599e-13
0       	0.1     	2.5297e-13
0       	0.15    	2.6313e-13
0       	0.2     	2.6915e-13
0       	0.25    	2.7441e-13
0       	0.3     	2.7945e-13
0       	0.35    	2.8434e-13
0       	0.4     	2.8908e-13
0       	0.45    	2.9367e-13
0       	0.5     	2.9807e-13
0       	0.55    	3.0227e-13
0       	0.6     	3.0623e-13
0       	0.65    	3.0992e-13
0       	0.7     	3.1332e-13
0.05    	0       	2.4865e-15
0.05    	0.05    	1.4317e-12
0.05    	0.1     	1.6763e-12
0.05    	0.15    	1.7452e-12
0.05    	0.2     	1.7867e-12
0.05    	0.25    	1.8231e-12
0.05    	0.3     	1.8576e-12
0.05    	0.35    	1.8908e-12
0.05    	0.4     	1.9227e-12
0.05    	0.45    	1.953e-12
0.05    	0.5     	1.9816e-12
0.05    	0.55    	2.0081e-12
0.05    	0.6     	2.0326e-12
0.05    	0.65    	2.055e-12
0.05    	0.7     	2.0756e-12
0.1     	0       	2.0127e-14
0.1     	0.05    	9.3375e-12
0.1     	0.1     	1.0968e-11
0.1     	0.15    	1.1433e-11
0.1     	0.2     	1.1716e-11
0.1     	0.25    	1.1963e-11
0.1     	0.3     	1.2195e-11
0.1     	0.35    	1.2414e-11
0.1     	0.4     	1.2619e-11
0.1     	0.45    	1.2809e-11
0.1     	0.5     	1.2982e-11
0.1     	0.55    	1.314e-11
0.1     	0.6     	1.3285e-11
0.1     	0.65    	1.3421e-11
0.1     	0.7     	1.3548e-11
0.15    	0       	1.1386e-13
0.15    	0.05    	6.1138e-11
0.15    	0.1     	7.1872e-11
0.15    	0.15    	7.503e-11
0.15    	0.2     	7.6961e-11
0.15    	0.25    	7.8621e-11
0.15    	0.3     	8.0141e-11
0.15    	0.35    	8.1528e-11
0.15    	0.4     	8.2774e-11
0.15    	0.45    	8.3898e-11
0.15    	0.5     	8.4922e-11
0.15    	0.55    	8.5872e-11
0.15    	0.6     	8.6768e-11
0.15    	0.65    	8.7621e-11
0.15    	0.7     	8.8441e-11
0.2     	0       	8.4043e-13
0.2     	0.05    	3.9381e-10
0.2     	0.1     	4.6464e-10
0.2     	0.15    	4.8575e-10
0.2     	0.2     	4.9855e-10
0.2     	0.25    	5.0911e-10
0.2     	0.3     	5.1829e-10
0.2     	0.35    	5.2635e-10
0.2     	0.4     	5.3357e-10
0.2     	0.45    	5.4018e-10
0.2     	0.5     	5.4639e-10
0.2     	0.55    	5.5231e-10
0.2     	0.6     	5.5798e-10
0.2     	0.65    	5.6345e-10
0.2     	0.7     	5.6874e-10
0.25    	0       	4.6625e-12
0.25    	0.05    	2.5024e-09
0.25    	0.1     	2.9615e-09
0.25    	0.15    	3.0988e-09
0.25    	0.2     	3.177e-09
0.25    	0.25    	3.2374e-09
0.25    	0.3     	3.289e-09
0.25    	0.35    	3.3355e-09
0.25    	0.4     	3.3786e-09
0.25    	0.45    	3.4193e-09
0.25    	0.5     	3.4577e-09
0.25    	0.55    	3.4949e-09
0.25    	0.6     	3.5308e-09
0.25    	0.65    	3.5656e-09
0.25    	0.7     	3.5994e-09
0.3     	0       	2.3893e-11
0.3     	0.05    	1.4909e-08
0.3     	0.1     	1.7775e-08
0.3     	0.15    	1.8571e-08
0.3     	0.2     	1.8986e-08
0.3     	0.25    	1.9308e-08
0.3     	0.3     	1.9593e-08
0.3     	0.35    	1.9856e-08
0.3     	0.4     	2.0103e-08
0.3     	0.45    	2.0337e-08
0.3     	0.5     	2.0552e-08
0.3     	0.55    	2.0766e-08
0.3     	0.6     	2.0973e-08
0.3     	0.65    	2.1173e-08
0.3     	0.7     	2.1375e-08
0.35    	0       	9.3954e-11
0.35    	0.05    	7.147e-08
0.35    	0.1     	8.7413e-08
0.35    	0.15    	9.1457e-08
0.35    	0.2     	9.3326e-08
0.35    	0.25    	9.4706e-08
0.35    	0.3     	9.59e-08
0.35    	0.35    	9.6977e-08
0.35    	0.4     	9.7962e-08
0.35    	0.45    	9.8867e-08
0.35    	0.5     	9.97e-08
0.35    	0.55    	1.0047e-07
0.35    	0.6     	1.0118e-07
0.35    	0.65    	1.0183e-07
0.35    	0.7     	1.0244e-07
0.4     	0       	2.2057e-10
0.4     	0.05    	2.1202e-07
0.4     	0.1     	2.8154e-07
0.4     	0.15    	2.998e-07
0.4     	0.2     	3.0549e-07
0.4     	0.25    	3.0865e-07
0.4     	0.3     	3.1104e-07
0.4     	0.35    	3.1305e-07
0.4     	0.4     	3.1481e-07
0.4     	0.45    	3.1657e-07
0.4     	0.5     	3.1802e-07
0.4     	0.55    	3.1936e-07
0.4     	0.6     	3.2062e-07
0.4     	0.65    	3.218e-07
0.4     	0.7     	3.2293e-07
0.45    	0       	3.3423e-10
0.45    	0.05    	3.7778e-07
0.45    	0.1     	5.7683e-07
0.45    	0.15    	6.4296e-07
0.45    	0.2     	6.6029e-07
0.45    	0.25    	6.6716e-07
0.45    	0.3     	6.7085e-07
0.45    	0.35    	6.7368e-07
0.45    	0.4     	6.7607e-07
0.45    	0.45    	6.7818e-07
0.45    	0.5     	6.8028e-07
0.45    	0.55    	6.82e-07
0.45    	0.6     	6.8357e-07
0.45    	0.65    	6.8503e-07
0.45    	0.7     	6.8639e-07
0.5     	0       	4.1634e-10
0.5     	0.05    	4.9844e-07
0.5     	0.1     	8.5096e-07
0.5     	0.15    	1.0283e-06
0.5     	0.2     	1.0889e-06
0.5     	0.25    	1.1067e-06
0.5     	0.3     	1.1131e-06
0.5     	0.35    	1.1172e-06
0.5     	0.4     	1.12e-06
0.5     	0.45    	1.1223e-06
0.5     	0.5     	1.1243e-06
0.5     	0.55    	1.1262e-06
0.5     	0.6     	1.1278e-06
0.5     	0.65    	1.1293e-06
0.5     	0.7     	1.1307e-06
0.55    	0       	4.7868e-10
0.55    	0.05    	5.7468e-07
0.55    	0.1     	1.0417e-06
0.55    	0.15    	1.3515e-06
0.55    	0.2     	1.5103e-06
0.55    	0.25    	1.5644e-06
0.55    	0.3     	1.5815e-06
0.55    	0.35    	1.5879e-06
0.55    	0.4     	1.5918e-06
0.55    	0.45    	1.5943e-06
0.55    	0.5     	1.5964e-06
0.55    	0.55    	1.5983e-06
0.55    	0.6     	1.5998e-06
0.55    	0.65    	1.6013e-06
0.55    	0.7     	1.6026e-06
0.6     	0       	5.2948e-10
0.6     	0.05    	6.243e-07
0.6     	0.1     	1.1636e-06
0.6     	0.15    	1.5718e-06
0.6     	0.2     	1.8314e-06
0.6     	0.25    	1.9779e-06
0.6     	0.3     	2.0285e-06
0.6     	0.35    	2.046e-06
0.6     	0.4     	2.0529e-06
0.6     	0.45    	2.0564e-06
0.6     	0.5     	2.0588e-06
0.6     	0.55    	2.0606e-06
0.6     	0.6     	2.0622e-06
0.6     	0.65    	2.0634e-06
0.6     	0.7     	2.0645e-06
0.65    	0       	5.7261e-10
0.65    	0.05    	6.5894e-07
0.65    	0.1     	1.2442e-06
0.65    	0.15    	1.7135e-06
0.65    	0.2     	2.048e-06
0.65    	0.25    	2.2757e-06
0.65    	0.3     	2.4038e-06
0.65    	0.35    	2.4559e-06
0.65    	0.4     	2.475e-06
0.65    	0.45    	2.4828e-06
0.65    	0.5     	2.4864e-06
0.65    	0.55    	2.4888e-06
0.65    	0.6     	2.4904e-06
0.65    	0.65    	2.4917e-06
0.65    	0.7     	2.4926e-06
0.7     	0       	6.0867e-10
0.7     	0.05    	6.8344e-07
0.7     	0.1     	1.2989e-06
0.7     	0.15    	1.8061e-06
0.7     	0.2     	2.1858e-06
0.7     	0.25    	2.4684e-06
0.7     	0.3     	2.6533e-06
0.7     	0.35    	2.7677e-06
0.7     	0.4     	2.8242e-06
0.7     	0.45    	2.8472e-06
0.7     	0.5     	2.8577e-06
0.7     	0.55    	2.8623e-06
0.7     	0.6     	2.8647e-06
0.7     	0.65    	2.8661e-06
0.7     	0.7     	2.8667e-06
