vg      	vd      	ids     
0       	0       	1.5953e-16
0       	0.05    	1.0865e-13
0       	0.1     	1.2457e-13
0       	0.15    	1.27e-13
0       	0.2     	1.2747e-13
0       	0.25    	1.2765e-13
0       	0.3     	1.2777e-13
0       	0.35    	1.2788e-13
0       	0.4     	1.2799e-13
0       	0.45    	1.2809e-13
0       	0.5     	1.2818e-13
0       	0.55    	1.2827e-13
0       	0.6     	1.2835e-13
0       	0.65    	1.2842e-13
0       	0.7     	1.2849e-13
0.05    	0       	1.2838e-15
0.05    	0.05    	7.4493e-13
0.05    	0.1     	8.5437e-13
0.05    	0.15    	8.7123e-13
0.05    	0.2     	8.7453e-13
0.05    	0.25    	8.7579e-13
0.05    	0.3     	8.7671e-13
0.05    	0.35    	8.7752e-13
0.05    	0.4     	8.7828e-13
0.05    	0.45    	8.7898e-13
0.05    	0.5     	8.7965e-13
0.05    	0.55    	8.8027e-13
0.05    	0.6     	8.8085e-13
0.05    	0.65    	8.814e-13
0.05    	0.7     	8.8191e-13
0.1     	0       	8.9247e-15
0.1     	0.05    	5.1573e-12
0.1     	0.1     	5.9082e-12
0.1     	0.15    	6.0247e-12
0.1     	0.2     	6.0481e-12
0.1     	0.25    	6.0573e-12
0.1     	0.3     	6.0641e-12
0.1     	0.35    	6.07e-12
0.1     	0.4     	6.0755e-12
0.1     	0.45    	6.0806e-12
0.1     	0.5     	6.0854e-12
0.1     	0.55    	6.0899e-12
0.1     	0.6     	6.0942e-12
0.1     	0.65    	6.0981e-12
0.1     	0.7     	6.1018e-12
0.15    	0       	7.3156e-14
0.15    	0.05    	3.5339e-11
0.15    	0.1     	4.0544e-11
0.15    	0.15    	4.1349e-11
0.15    	0.2     	4.1514e-11
0.15    	0.25    	4.1582e-11
0.15    	0.3     	4.1631e-11
0.15    	0.35    	4.1674e-11
0.15    	0.4     	4.1714e-11
0.15    	0.45    	4.1751e-11
0.15    	0.5     	4.1785e-11
0.15    	0.55    	4.1818e-11
0.15    	0.6     	4.1848e-11
0.15    	0.65    	4.1876e-11
0.15    	0.7     	4.1903e-11
0.2     	0       	4.7184e-13
0.2     	0.05    	2.4373e-10
0.2     	0.1     	2.7945e-10
0.2     	0.15    	2.8507e-10
0.2     	0.2     	2.8625e-10
0.2     	0.25    	2.8675e-10
0.2     	0.3     	2.8711e-10
0.2     	0.35    	2.8743e-10
0.2     	0.4     	2.8772e-10
0.2     	0.45    	2.8799e-10
0.2     	0.5     	2.8824e-10
0.2     	0.55    	2.8847e-10
0.2     	0.6     	2.8869e-10
0.2     	0.65    	2.8889e-10
0.2     	0.7     	2.8908e-10
0.25    	0       	3.6094e-12
0.25    	0.05    	1.6573e-09
0.25    	0.1     	1.9043e-09
0.25    	0.15    	1.9433e-09
0.25    	0.2     	1.9518e-09
0.25    	0.25    	1.9554e-09
0.25    	0.3     	1.9581e-09
0.25    	0.35    	1.9604e-09
0.25    	0.4     	1.9625e-09
0.25    	0.45    	1.9644e-09
0.25    	0.5     	1.9662e-09
0.25    	0.55    	1.9678e-09
0.25    	0.6     	1.9694e-09
0.25    	0.65    	1.9708e-09
0.25    	0.7     	1.9721e-09
0.3     	0       	2.0083e-11
0.3     	0.05    	1.0991e-08
0.3     	0.1     	1.2674e-08
0.3     	0.15    	1.2947e-08
0.3     	0.2     	1.3007e-08
0.3     	0.25    	1.3034e-08
0.3     	0.3     	1.3053e-08
0.3     	0.35    	1.3069e-08
0.3     	0.4     	1.3084e-08
0.3     	0.45    	1.3097e-08
0.3     	0.5     	1.3109e-08
0.3     	0.55    	1.312e-08
0.3     	0.6     	1.313e-08
0.3     	0.65    	1.314e-08
0.3     	0.7     	1.3149e-08
0.35    	0       	9.6379e-11
0.35    	0.05    	6.2694e-08
0.35    	0.1     	7.3982e-08
0.35    	0.15    	7.5876e-08
0.35    	0.2     	7.629e-08
0.35    	0.25    	7.6458e-08
0.35    	0.3     	7.6573e-08
0.35    	0.35    	7.6668e-08
0.35    	0.4     	7.675e-08
0.35    	0.45    	7.6824e-08
0.35    	0.5     	7.689e-08
0.35    	0.55    	7.6951e-08
0.35    	0.6     	7.7007e-08
0.35    	0.65    	7.7058e-08
0.35    	0.7     	7.7106e-08
0.4     	0       	2.6452e-10
0.4     	0.05    	2.2428e-07
0.4     	0.1     	2.8927e-07
0.4     	0.15    	3.0244e-07
0.4     	0.2     	3.0503e-07
0.4     	0.25    	3.0585e-07
0.4     	0.3     	3.0631e-07
0.4     	0.35    	3.0665e-07
0.4     	0.4     	3.0694e-07
0.4     	0.45    	3.072e-07
0.4     	0.5     	3.0744e-07
0.4     	0.55    	3.0764e-07
0.4     	0.6     	3.0782e-07
0.4     	0.65    	3.0799e-07
0.4     	0.7     	3.0814e-07
0.45    	0       	4.1543e-10
0.45    	0.05    	4.2874e-07
0.45    	0.1     	6.5703e-07
0.45    	0.15    	7.3035e-07
0.45    	0.2     	7.4656e-07
0.45    	0.25    	7.5068e-07
0.45    	0.3     	7.5212e-07
0.45    	0.35    	7.5297e-07
0.45    	0.4     	7.5362e-07
0.45    	0.45    	7.542e-07
0.45    	0.5     	7.5465e-07
0.45    	0.55    	7.5505e-07
0.45    	0.6     	7.5541e-07
0.45    	0.65    	7.5573e-07
0.45    	0.7     	7.5605e-07
0.5     	0       	5.1557e-10
0.5     	0.05    	5.6109e-07
0.5     	0.1     	9.7809e-07
0.5     	0.15    	1.2073e-06
0.5     	0.2     	1.2918e-06
0.5     	0.25    	1.3145e-06
0.5     	0.3     	1.3207e-06
0.5     	0.35    	1.3229e-06
0.5     	0.4     	1.3242e-06
0.5     	0.45    	1.3251e-06
0.5     	0.5     	1.3259e-06
0.5     	0.55    	1.3265e-06
0.5     	0.6     	1.327e-06
0.5     	0.65    	1.3275e-06
0.5     	0.7     	1.3279e-06
0.55    	0       	5.8164e-10
0.55    	0.05    	6.3266e-07
0.55    	0.1     	1.1661e-06
0.55    	0.15    	1.5488e-06
0.55    	0.2     	1.7759e-06
0.55    	0.25    	1.8713e-06
0.55    	0.3     	1.9006e-06
0.55    	0.35    	1.9093e-06
0.55    	0.4     	1.9129e-06
0.55    	0.45    	1.9146e-06
0.55    	0.5     	1.9158e-06
0.55    	0.55    	1.9167e-06
0.55    	0.6     	1.9174e-06
0.55    	0.65    	1.9179e-06
0.55    	0.7     	1.9184e-06
0.6     	0       	6.1877e-10
0.6     	0.05    	6.6272e-07
0.6     	0.1     	1.259e-06
0.6     	0.15    	1.7331e-06
0.6     	0.2     	2.0637e-06
0.6     	0.25    	2.277e-06
0.6     	0.3     	2.3873e-06
0.6     	0.35    	2.4284e-06
0.6     	0.4     	2.4425e-06
0.6     	0.45    	2.4479e-06
0.6     	0.5     	2.4506e-06
0.6     	0.55    	2.4521e-06
0.6     	0.6     	2.4531e-06
0.6     	0.65    	2.4538e-06
0.6     	0.7     	2.4542e-06
0.65    	0       	6.4725e-10
0.65    	0.05    	6.7394e-07
0.65    	0.1     	1.2928e-06
0.65    	0.15    	1.8138e-06
0.65    	0.2     	2.1996e-06
0.65    	0.25    	2.4837e-06
0.65    	0.3     	2.6678e-06
0.65    	0.35    	2.7794e-06
0.65    	0.4     	2.8321e-06
0.65    	0.45    	2.8558e-06
0.65    	0.5     	2.8657e-06
0.65    	0.55    	2.8701e-06
0.65    	0.6     	2.8721e-06
0.65    	0.65    	2.8727e-06
0.65    	0.7     	2.873e-06
0.7     	0       	6.7172e-10
0.7     	0.05    	6.8294e-07
0.7     	0.1     	1.3116e-06
0.7     	0.15    	1.8509e-06
0.7     	0.2     	2.273e-06
0.7     	0.25    	2.5954e-06
0.7     	0.3     	2.8163e-06
0.7     	0.35    	2.9646e-06
0.7     	0.4     	3.0623e-06
0.7     	0.45    	3.1158e-06
0.7     	0.5     	3.1424e-06
0.7     	0.55    	3.1545e-06
0.7     	0.6     	3.1578e-06
0.7     	0.65    	3.1592e-06
0.7     	0.7     	3.1597e-06
