vg      	vd      	ids     
0       	0       	2.9436e-16
0       	0.05    	5.8789e-14
0       	0.1     	6.7398e-14
0       	0.15    	6.874e-14
0       	0.2     	6.9019e-14
0       	0.25    	6.9142e-14
0       	0.3     	6.9237e-14
0       	0.35    	6.9324e-14
0       	0.4     	6.9406e-14
0       	0.45    	6.9485e-14
0       	0.5     	6.956e-14
0       	0.55    	6.9633e-14
0       	0.6     	6.9703e-14
0       	0.65    	6.977e-14
0       	0.7     	6.9835e-14
0.05    	0       	2.1713e-15
0.05    	0.05    	4.0425e-13
0.05    	0.1     	4.6354e-13
0.05    	0.15    	4.7281e-13
0.05    	0.2     	4.7479e-13
0.05    	0.25    	4.7565e-13
0.05    	0.3     	4.7633e-13
0.05    	0.35    	4.7695e-13
0.05    	0.4     	4.7753e-13
0.05    	0.45    	4.7808e-13
0.05    	0.5     	4.7861e-13
0.05    	0.55    	4.7912e-13
0.05    	0.6     	4.7961e-13
0.05    	0.65    	4.8007e-13
0.05    	0.7     	4.8052e-13
0.1     	0       	1.8003e-14
0.1     	0.05    	2.7697e-12
0.1     	0.1     	3.1775e-12
0.1     	0.15    	3.2416e-12
0.1     	0.2     	3.2554e-12
0.1     	0.25    	3.2616e-12
0.1     	0.3     	3.2664e-12
0.1     	0.35    	3.2708e-12
0.1     	0.4     	3.2749e-12
0.1     	0.45    	3.2788e-12
0.1     	0.5     	3.2824e-12
0.1     	0.55    	3.286e-12
0.1     	0.6     	3.2893e-12
0.1     	0.65    	3.2926e-12
0.1     	0.7     	3.2957e-12
0.15    	0       	9.6834e-14
0.15    	0.05    	1.9283e-11
0.15    	0.1     	2.2077e-11
0.15    	0.15    	2.2521e-11
0.15    	0.2     	2.2618e-11
0.15    	0.25    	2.2663e-11
0.15    	0.3     	2.2698e-11
0.15    	0.35    	2.2729e-11
0.15    	0.4     	2.2758e-11
0.15    	0.45    	2.2786e-11
0.15    	0.5     	2.2812e-11
0.15    	0.55    	2.2837e-11
0.15    	0.6     	2.286e-11
0.15    	0.65    	2.2883e-11
0.15    	0.7     	2.2904e-11
0.2     	0       	6.7404e-13
0.2     	0.05    	1.3178e-10
0.2     	0.1     	1.5128e-10
0.2     	0.15    	1.5434e-10
0.2     	0.2     	1.5503e-10
0.2     	0.25    	1.5535e-10
0.2     	0.3     	1.5559e-10
0.2     	0.35    	1.5581e-10
0.2     	0.4     	1.5602e-10
0.2     	0.45    	1.5621e-10
0.2     	0.5     	1.5639e-10
0.2     	0.55    	1.5656e-10
0.2     	0.6     	1.5672e-10
0.2     	0.65    	1.5688e-10
0.2     	0.7     	1.5703e-10
0.25    	0       	4.1337e-12
0.25    	0.05    	8.9492e-10
0.25    	0.1     	1.0283e-09
0.25    	0.15    	1.0498e-09
0.25    	0.2     	1.0546e-09
0.25    	0.25    	1.0569e-09
0.25    	0.3     	1.0587e-09
0.25    	0.35    	1.0602e-09
0.25    	0.4     	1.0616e-09
0.25    	0.45    	1.063e-09
0.25    	0.5     	1.0642e-09
0.25    	0.55    	1.0653e-09
0.25    	0.6     	1.0664e-09
0.25    	0.65    	1.0675e-09
0.25    	0.7     	1.0685e-09
0.3     	0       	1.9463e-11
0.3     	0.05    	6.0155e-09
0.3     	0.1     	6.9226e-09
0.3     	0.15    	7.0705e-09
0.3     	0.2     	7.1047e-09
0.3     	0.25    	7.1206e-09
0.3     	0.3     	7.1327e-09
0.3     	0.35    	7.1433e-09
0.3     	0.4     	7.1529e-09
0.3     	0.45    	7.1617e-09
0.3     	0.5     	7.1699e-09
0.3     	0.55    	7.1775e-09
0.3     	0.6     	7.1847e-09
0.3     	0.65    	7.1915e-09
0.3     	0.7     	7.1978e-09
0.35    	0       	1.2049e-10
0.35    	0.05    	3.743e-08
0.35    	0.1     	4.3568e-08
0.35    	0.15    	4.4583e-08
0.35    	0.2     	4.4814e-08
0.35    	0.25    	4.4916e-08
0.35    	0.3     	4.4991e-08
0.35    	0.35    	4.5055e-08
0.35    	0.4     	4.5112e-08
0.35    	0.45    	4.5163e-08
0.35    	0.5     	4.5211e-08
0.35    	0.55    	4.5255e-08
0.35    	0.6     	4.5296e-08
0.35    	0.65    	4.5335e-08
0.35    	0.7     	4.5371e-08
0.4     	0       	6.213e-10
0.4     	0.05    	1.7664e-07
0.4     	0.1     	2.1507e-07
0.4     	0.15    	2.2186e-07
0.4     	0.2     	2.2328e-07
0.4     	0.25    	2.2379e-07
0.4     	0.3     	2.2412e-07
0.4     	0.35    	2.2439e-07
0.4     	0.4     	2.2462e-07
0.4     	0.45    	2.2483e-07
0.4     	0.5     	2.2501e-07
0.4     	0.55    	2.2519e-07
0.4     	0.6     	2.2534e-07
0.4     	0.65    	2.2549e-07
0.4     	0.7     	2.2563e-07
0.45    	0       	1.4447e-09
0.45    	0.05    	4.719e-07
0.45    	0.1     	6.5282e-07
0.45    	0.15    	6.949e-07
0.45    	0.2     	7.0338e-07
0.45    	0.25    	7.056e-07
0.45    	0.3     	7.0662e-07
0.45    	0.35    	7.0733e-07
0.45    	0.4     	7.0791e-07
0.45    	0.45    	7.0842e-07
0.45    	0.5     	7.0886e-07
0.45    	0.55    	7.0931e-07
0.45    	0.6     	7.0967e-07
0.45    	0.65    	7.1e-07 
0.45    	0.7     	7.1031e-07
0.5     	0       	2.0371e-09
0.5     	0.05    	7.52e-07
0.5     	0.1     	1.2165e-06
0.5     	0.15    	1.4018e-06
0.5     	0.2     	1.4519e-06
0.5     	0.25    	1.463e-06
0.5     	0.3     	1.4663e-06
0.5     	0.35    	1.4681e-06
0.5     	0.4     	1.4692e-06
0.5     	0.45    	1.47e-06
0.5     	0.5     	1.4708e-06
0.5     	0.55    	1.4715e-06
0.5     	0.6     	1.4721e-06
0.5     	0.65    	1.4726e-06
0.5     	0.7     	1.4731e-06
0.55    	0       	2.4078e-09
0.55    	0.05    	9.2161e-07
0.55    	0.1     	1.6444e-06
0.55    	0.15    	2.0866e-06
0.55    	0.2     	2.2817e-06
0.55    	0.25    	2.3402e-06
0.55    	0.3     	2.3553e-06
0.55    	0.35    	2.3597e-06
0.55    	0.4     	2.3618e-06
0.55    	0.45    	2.3633e-06
0.55    	0.5     	2.3643e-06
0.55    	0.55    	2.3652e-06
0.55    	0.6     	2.3661e-06
0.55    	0.65    	2.3668e-06
0.55    	0.7     	2.3674e-06
0.6     	0       	2.5316e-09
0.6     	0.05    	1.0152e-06
0.6     	0.1     	1.8932e-06
0.6     	0.15    	2.554e-06
0.6     	0.2     	2.967e-06
0.6     	0.25    	3.1709e-06
0.6     	0.3     	3.2367e-06
0.6     	0.35    	3.2557e-06
0.6     	0.4     	3.2616e-06
0.6     	0.45    	3.2643e-06
0.6     	0.5     	3.2659e-06
0.6     	0.55    	3.267e-06
0.6     	0.6     	3.2681e-06
0.6     	0.65    	3.2689e-06
0.6     	0.7     	3.2696e-06
0.65    	0       	2.5425e-09
0.65    	0.05    	1.0244e-06
0.65    	0.1     	1.9926e-06
0.65    	0.15    	2.7992e-06
0.65    	0.2     	3.3886e-06
0.65    	0.25    	3.7749e-06
0.65    	0.3     	3.9728e-06
0.65    	0.35    	4.0484e-06
0.65    	0.4     	4.0735e-06
0.65    	0.45    	4.0819e-06
0.65    	0.5     	4.0852e-06
0.65    	0.55    	4.0872e-06
0.65    	0.6     	4.0884e-06
0.65    	0.65    	4.0894e-06
0.65    	0.7     	4.0902e-06
0.7     	0       	2.4855e-09
0.7     	0.05    	1.0178e-06
0.7     	0.1     	1.9845e-06
0.7     	0.15    	2.8516e-06
0.7     	0.2     	3.5517e-06
0.7     	0.25    	4.0402e-06
0.7     	0.3     	4.3988e-06
0.7     	0.35    	4.6143e-06
0.7     	0.4     	4.7079e-06
0.7     	0.45    	4.7426e-06
0.7     	0.5     	4.7553e-06
0.7     	0.55    	4.7605e-06
0.7     	0.6     	4.763e-06
0.7     	0.65    	4.7645e-06
0.7     	0.7     	4.7656e-06
