vg      	vd      	ids     
0       	0       	3.1413e-13
0       	0.05    	4.3415e-11
0       	0.1     	5.1638e-11
0       	0.15    	5.4478e-11
0       	0.2     	5.6422e-11
0       	0.25    	5.8127e-11
0       	0.3     	5.966e-11
0       	0.35    	6.1047e-11
0       	0.4     	6.2295e-11
0       	0.45    	6.3463e-11
0       	0.5     	6.458e-11
0       	0.55    	6.566e-11
0       	0.6     	6.6713e-11
0       	0.65    	6.7744e-11
0       	0.7     	6.8757e-11
0.05    	0       	1.9102e-12
0.05    	0.05    	2.7468e-10
0.05    	0.1     	3.2716e-10
0.05    	0.15    	3.4567e-10
0.05    	0.2     	3.5808e-10
0.05    	0.25    	3.6842e-10
0.05    	0.3     	3.7745e-10
0.05    	0.35    	3.8565e-10
0.05    	0.4     	3.9342e-10
0.05    	0.45    	4.0076e-10
0.05    	0.5     	4.0787e-10
0.05    	0.55    	4.1478e-10
0.05    	0.6     	4.2154e-10
0.05    	0.65    	4.2817e-10
0.05    	0.7     	4.3469e-10
0.1     	0       	1.1906e-11
0.1     	0.05    	1.698e-09
0.1     	0.1     	2.0324e-09
0.1     	0.15    	2.1474e-09
0.1     	0.2     	2.2209e-09
0.1     	0.25    	2.2805e-09
0.1     	0.3     	2.3339e-09
0.1     	0.35    	2.3839e-09
0.1     	0.4     	2.4316e-09
0.1     	0.45    	2.4781e-09
0.1     	0.5     	2.5228e-09
0.1     	0.55    	2.5663e-09
0.1     	0.6     	2.6088e-09
0.1     	0.65    	2.6505e-09
0.1     	0.7     	2.6914e-09
0.15    	0       	6.8293e-11
0.15    	0.05    	1.0132e-08
0.15    	0.1     	1.2173e-08
0.15    	0.15    	1.2846e-08
0.15    	0.2     	1.3251e-08
0.15    	0.25    	1.3594e-08
0.15    	0.3     	1.3911e-08
0.15    	0.35    	1.4207e-08
0.15    	0.4     	1.4492e-08
0.15    	0.45    	1.4768e-08
0.15    	0.5     	1.5033e-08
0.15    	0.55    	1.529e-08
0.15    	0.6     	1.5539e-08
0.15    	0.65    	1.5781e-08
0.15    	0.7     	1.6016e-08
0.2     	0       	3.2715e-10
0.2     	0.05    	5.3203e-08
0.2     	0.1     	6.4675e-08
0.2     	0.15    	6.8188e-08
0.2     	0.2     	7.0241e-08
0.2     	0.25    	7.1937e-08
0.2     	0.3     	7.3472e-08
0.2     	0.35    	7.4887e-08
0.2     	0.4     	7.6194e-08
0.2     	0.45    	7.7393e-08
0.2     	0.5     	7.8489e-08
0.2     	0.55    	7.9492e-08
0.2     	0.6     	8.042e-08
0.2     	0.65    	8.1283e-08
0.2     	0.7     	8.2098e-08
0.25    	0       	1.0349e-09
0.25    	0.05    	1.9856e-07
0.25    	0.1     	2.5237e-07
0.25    	0.15    	2.6701e-07
0.25    	0.2     	2.7368e-07
0.25    	0.25    	2.7833e-07
0.25    	0.3     	2.8217e-07
0.25    	0.35    	2.8554e-07
0.25    	0.4     	2.8859e-07
0.25    	0.45    	2.9141e-07
0.25    	0.5     	2.9404e-07
0.25    	0.55    	2.9652e-07
0.25    	0.6     	2.9888e-07
0.25    	0.65    	3.0113e-07
0.25    	0.7     	3.0328e-07
0.3     	0       	1.9514e-09
0.3     	0.05    	4.5677e-07
0.3     	0.1     	6.3364e-07
0.3     	0.15    	6.8195e-07
0.3     	0.2     	6.9912e-07
0.3     	0.25    	7.0774e-07
0.3     	0.3     	7.1426e-07
0.3     	0.35    	7.1982e-07
0.3     	0.4     	7.2473e-07
0.3     	0.45    	7.2915e-07
0.3     	0.5     	7.3317e-07
0.3     	0.55    	7.3686e-07
0.3     	0.6     	7.4064e-07
0.3     	0.65    	7.4381e-07
0.3     	0.7     	7.4676e-07
0.35    	0       	2.7107e-09
0.35    	0.05    	7.2114e-07
0.35    	0.1     	1.1148e-06
0.35    	0.15    	1.2559e-06
0.35    	0.2     	1.2975e-06
0.35    	0.25    	1.3127e-06
0.35    	0.3     	1.3217e-06
0.35    	0.35    	1.3287e-06
0.35    	0.4     	1.3346e-06
0.35    	0.45    	1.3405e-06
0.35    	0.5     	1.3452e-06
0.35    	0.55    	1.3494e-06
0.35    	0.6     	1.3534e-06
0.35    	0.65    	1.357e-06
0.35    	0.7     	1.3608e-06
0.4     	0       	3.2737e-09
0.4     	0.05    	9.2863e-07
0.4     	0.1     	1.5648e-06
0.4     	0.15    	1.8752e-06
0.4     	0.2     	1.9832e-06
0.4     	0.25    	2.0145e-06
0.4     	0.3     	2.0282e-06
0.4     	0.35    	2.0379e-06
0.4     	0.4     	2.0447e-06
0.4     	0.45    	2.0505e-06
0.4     	0.5     	2.0555e-06
0.4     	0.55    	2.0601e-06
0.4     	0.6     	2.0646e-06
0.4     	0.65    	2.0685e-06
0.4     	0.7     	2.072e-06
0.45    	0       	3.6988e-09
0.45    	0.05    	1.0807e-06
0.45    	0.1     	1.9213e-06
0.45    	0.15    	2.4415e-06
0.45    	0.2     	2.6784e-06
0.45    	0.25    	2.7539e-06
0.45    	0.3     	2.7804e-06
0.45    	0.35    	2.7924e-06
0.45    	0.4     	2.8004e-06
0.45    	0.45    	2.8067e-06
0.45    	0.5     	2.8125e-06
0.45    	0.55    	2.8172e-06
0.45    	0.6     	2.8213e-06
0.45    	0.65    	2.8254e-06
0.45    	0.7     	2.8289e-06
0.5     	0       	4.0349e-09
0.5     	0.05    	1.1931e-06
0.5     	0.1     	2.1856e-06
0.5     	0.15    	2.8975e-06
0.5     	0.2     	3.3116e-06
0.5     	0.25    	3.4811e-06
0.5     	0.3     	3.5368e-06
0.5     	0.35    	3.5571e-06
0.5     	0.4     	3.5684e-06
0.5     	0.45    	3.5755e-06
0.5     	0.5     	3.5811e-06
0.5     	0.55    	3.5862e-06
0.5     	0.6     	3.5904e-06
0.5     	0.65    	3.594e-06
0.5     	0.7     	3.5973e-06
0.55    	0       	4.306e-09
0.55    	0.05    	1.2781e-06
0.55    	0.1     	2.3802e-06
0.55    	0.15    	3.2389e-06
0.55    	0.2     	3.8266e-06
0.55    	0.25    	4.1354e-06
0.55    	0.3     	4.2576e-06
0.55    	0.35    	4.3024e-06
0.55    	0.4     	4.3207e-06
0.55    	0.45    	4.33e-06
0.55    	0.5     	4.3367e-06
0.55    	0.55    	4.3416e-06
0.55    	0.6     	4.3456e-06
0.55    	0.65    	4.3494e-06
0.55    	0.7     	4.3525e-06
0.6     	0       	4.5308e-09
0.6     	0.05    	1.3438e-06
0.6     	0.1     	2.5262e-06
0.6     	0.15    	3.4901e-06
0.6     	0.2     	4.1846e-06
0.6     	0.25    	4.6518e-06
0.6     	0.3     	4.9028e-06
0.6     	0.35    	5.0012e-06
0.6     	0.4     	5.0373e-06
0.6     	0.45    	5.0523e-06
0.6     	0.5     	5.0609e-06
0.6     	0.55    	5.0665e-06
0.6     	0.6     	5.0707e-06
0.6     	0.65    	5.0744e-06
0.6     	0.7     	5.0774e-06
0.65    	0       	4.7228e-09
0.65    	0.05    	1.3958e-06
0.65    	0.1     	2.6387e-06
0.65    	0.15    	3.6775e-06
0.65    	0.2     	4.4623e-06
0.65    	0.25    	5.0419e-06
0.65    	0.3     	5.4035e-06
0.65    	0.35    	5.6044e-06
0.65    	0.4     	5.6883e-06
0.65    	0.45    	5.7214e-06
0.65    	0.5     	5.7363e-06
0.65    	0.55    	5.744e-06
0.65    	0.6     	5.7493e-06
0.65    	0.65    	5.7531e-06
0.65    	0.7     	5.7561e-06
0.7     	0       	4.8896e-09
0.7     	0.05    	1.4376e-06
0.7     	0.1     	2.7267e-06
0.7     	0.15    	3.8198e-06
0.7     	0.2     	4.6666e-06
0.7     	0.25    	5.3216e-06
0.7     	0.3     	5.7717e-06
0.7     	0.35    	6.0705e-06
0.7     	0.4     	6.229e-06
0.7     	0.45    	6.3089e-06
0.7     	0.5     	6.3415e-06
0.7     	0.55    	6.3566e-06
0.7     	0.6     	6.3644e-06
0.7     	0.65    	6.3692e-06
0.7     	0.7     	6.3727e-06
