vg      	vd      	ids     
0       	0       	-4.3937e-21
0       	0.05    	1.1012e-17
0       	0.1     	1.2609e-17
0       	0.15    	1.2842e-17
0       	0.2     	1.2876e-17
0       	0.25    	1.2881e-17
0       	0.3     	1.2882e-17
0       	0.35    	1.2882e-17
0       	0.4     	1.2882e-17
0       	0.45    	1.2882e-17
0       	0.5     	1.2882e-17
0       	0.55    	1.2882e-17
0       	0.6     	1.2882e-17
0       	0.65    	1.2882e-17
0       	0.7     	1.2882e-17
0.05    	0       	-2.6032e-20
0.05    	0.05    	7.5479e-17
0.05    	0.1     	8.6521e-17
0.05    	0.15    	8.814e-17
0.05    	0.2     	8.8383e-17
0.05    	0.25    	8.842e-17
0.05    	0.3     	8.8426e-17
0.05    	0.35    	8.8427e-17
0.05    	0.4     	8.8427e-17
0.05    	0.45    	8.8427e-17
0.05    	0.5     	8.8427e-17
0.05    	0.55    	8.8427e-17
0.05    	0.6     	8.8427e-17
0.05    	0.65    	8.8427e-17
0.05    	0.7     	8.8427e-17
0.1     	0       	-1.287e-19
0.1     	0.05    	5.2199e-16
0.1     	0.1     	5.9772e-16
0.1     	0.15    	6.0892e-16
0.1     	0.2     	6.1066e-16
0.1     	0.25    	6.1097e-16
0.1     	0.3     	6.1104e-16
0.1     	0.35    	6.1105e-16
0.1     	0.4     	6.1105e-16
0.1     	0.45    	6.1105e-16
0.1     	0.5     	6.1105e-16
0.1     	0.55    	6.1105e-16
0.1     	0.6     	6.1105e-16
0.1     	0.65    	6.1105e-16
0.1     	0.7     	6.1105e-16
0.15    	0       	-4.8999e-19
0.15    	0.05    	3.5884e-15
0.15    	0.1     	4.1121e-15
0.15    	0.15    	4.1891e-15
0.15    	0.2     	4.2014e-15
0.15    	0.25    	4.204e-15
0.15    	0.3     	4.2048e-15
0.15    	0.35    	4.205e-15
0.15    	0.4     	4.205e-15
0.15    	0.45    	4.205e-15
0.15    	0.5     	4.2051e-15
0.15    	0.55    	4.2051e-15
0.15    	0.6     	4.2051e-15
0.15    	0.65    	4.2051e-15
0.15    	0.7     	4.2051e-15
0.2     	0       	-8.2734e-19
0.2     	0.05    	2.4851e-14
0.2     	0.1     	2.8452e-14
0.2     	0.15    	2.8985e-14
0.2     	0.2     	2.9071e-14
0.2     	0.25    	2.9091e-14
0.2     	0.3     	2.91e-14
0.2     	0.35    	2.9104e-14
0.2     	0.4     	2.9105e-14
0.2     	0.45    	2.9106e-14
0.2     	0.5     	2.9106e-14
0.2     	0.55    	2.9106e-14
0.2     	0.6     	2.9106e-14
0.2     	0.65    	2.9106e-14
0.2     	0.7     	2.9106e-14
0.25    	0       	1.1012e-17
0.25    	0.05    	1.7097e-13
0.25    	0.1     	1.9592e-13
0.25    	0.15    	1.996e-13
0.25    	0.2     	2.002e-13
0.25    	0.25    	2.0035e-13
0.25    	0.3     	2.0042e-13
0.25    	0.35    	2.0047e-13
0.25    	0.4     	2.005e-13
0.25    	0.45    	2.0051e-13
0.25    	0.5     	2.0051e-13
0.25    	0.55    	2.0051e-13
0.25    	0.6     	2.0051e-13
0.25    	0.65    	2.0051e-13
0.25    	0.7     	2.0051e-13
0.3     	0       	1.7858e-16
0.3     	0.05    	1.1843e-12
0.3     	0.1     	1.356e-12
0.3     	0.15    	1.3816e-12
0.3     	0.2     	1.3858e-12
0.3     	0.25    	1.3869e-12
0.3     	0.3     	1.3875e-12
0.3     	0.35    	1.3879e-12
0.3     	0.4     	1.3883e-12
0.3     	0.45    	1.3884e-12
0.3     	0.5     	1.3885e-12
0.3     	0.55    	1.3885e-12
0.3     	0.6     	1.3885e-12
0.3     	0.65    	1.3885e-12
0.3     	0.7     	1.3885e-12
0.35    	0       	2.0058e-15
0.35    	0.05    	8.144e-12
0.35    	0.1     	9.3345e-12
0.35    	0.15    	9.511e-12
0.35    	0.2     	9.5409e-12
0.35    	0.25    	9.5489e-12
0.35    	0.3     	9.5534e-12
0.35    	0.35    	9.557e-12
0.35    	0.4     	9.5599e-12
0.35    	0.45    	9.5622e-12
0.35    	0.5     	9.5635e-12
0.35    	0.55    	9.564e-12
0.35    	0.6     	9.564e-12
0.35    	0.65    	9.564e-12
0.35    	0.7     	9.5641e-12
0.4     	0       	1.8079e-14
0.4     	0.05    	5.6382e-11
0.4     	0.1     	6.458e-11
0.4     	0.15    	6.5809e-11
0.4     	0.2     	6.602e-11
0.4     	0.25    	6.6081e-11
0.4     	0.3     	6.6115e-11
0.4     	0.35    	6.6143e-11
0.4     	0.4     	6.6167e-11
0.4     	0.45    	6.6188e-11
0.4     	0.5     	6.6204e-11
0.4     	0.55    	6.6212e-11
0.4     	0.6     	6.6215e-11
0.4     	0.65    	6.6216e-11
0.4     	0.7     	6.6216e-11
0.45    	0       	1.5084e-13
0.45    	0.05    	3.8884e-10
0.45    	0.1     	4.4571e-10
0.45    	0.15    	4.5423e-10
0.45    	0.2     	4.5575e-10
0.45    	0.25    	4.562e-10
0.45    	0.3     	4.5647e-10
0.45    	0.35    	4.5669e-10
0.45    	0.4     	4.5688e-10
0.45    	0.45    	4.5704e-10
0.45    	0.5     	4.5718e-10
0.45    	0.55    	4.5729e-10
0.45    	0.6     	4.5735e-10
0.45    	0.65    	4.5738e-10
0.45    	0.7     	4.5738e-10
0.5     	0       	1.4558e-12
0.5     	0.05    	2.6433e-09
0.5     	0.1     	3.0368e-09
0.5     	0.15    	3.0966e-09
0.5     	0.2     	3.1075e-09
0.5     	0.25    	3.111e-09
0.5     	0.3     	3.1131e-09
0.5     	0.35    	3.1147e-09
0.5     	0.4     	3.1162e-09
0.5     	0.45    	3.1175e-09
0.5     	0.5     	3.1186e-09
0.5     	0.55    	3.1196e-09
0.5     	0.6     	3.1203e-09
0.5     	0.65    	3.1207e-09
0.5     	0.7     	3.1208e-09
0.55    	0       	8.644e-12
0.55    	0.05    	1.7218e-08
0.55    	0.1     	1.9919e-08
0.55    	0.15    	2.034e-08
0.55    	0.2     	2.042e-08
0.55    	0.25    	2.0447e-08
0.55    	0.3     	2.0462e-08
0.55    	0.35    	2.0474e-08
0.55    	0.4     	2.0485e-08
0.55    	0.45    	2.0494e-08
0.55    	0.5     	2.0502e-08
0.55    	0.55    	2.0509e-08
0.55    	0.6     	2.0515e-08
0.55    	0.65    	2.052e-08
0.55    	0.7     	2.0522e-08
0.6     	0       	2.9176e-11
0.6     	0.05    	8.826e-08
0.6     	0.1     	1.0627e-07
0.6     	0.15    	1.0929e-07
0.6     	0.2     	1.0987e-07
0.6     	0.25    	1.1005e-07
0.6     	0.3     	1.1014e-07
0.6     	0.35    	1.1022e-07
0.6     	0.4     	1.1027e-07
0.6     	0.45    	1.1032e-07
0.6     	0.5     	1.1036e-07
0.6     	0.55    	1.104e-07
0.6     	0.6     	1.1043e-07
0.6     	0.65    	1.1046e-07
0.6     	0.7     	1.1047e-07
0.65    	0       	6.3677e-11
0.65    	0.05    	2.4369e-07
0.65    	0.1     	3.4147e-07
0.65    	0.15    	3.6434e-07
0.65    	0.2     	3.6872e-07
0.65    	0.25    	3.6979e-07
0.65    	0.3     	3.7022e-07
0.65    	0.35    	3.7048e-07
0.65    	0.4     	3.7066e-07
0.65    	0.45    	3.708e-07
0.65    	0.5     	3.7092e-07
0.65    	0.55    	3.7103e-07
0.65    	0.6     	3.7111e-07
0.65    	0.65    	3.7117e-07
0.65    	0.7     	3.7119e-07
0.7     	0       	8.2948e-11
0.7     	0.05    	3.5549e-07
0.7     	0.1     	6.0819e-07
0.7     	0.15    	7.2739e-07
0.7     	0.2     	7.6469e-07
0.7     	0.25    	7.7295e-07
0.7     	0.3     	7.7537e-07
0.7     	0.35    	7.7628e-07
0.7     	0.4     	7.768e-07
0.7     	0.45    	7.7711e-07
0.7     	0.5     	7.7735e-07
0.7     	0.55    	7.7751e-07
0.7     	0.6     	7.7761e-07
0.7     	0.65    	7.7764e-07
0.7     	0.7     	7.7765e-07
