vg      	vd      	ids     
0       	0       	2.2692e-14
0       	0.05    	4.4947e-13
0       	0.1     	5.2229e-13
0       	0.15    	5.4033e-13
0       	0.2     	5.499e-13
0       	0.25    	5.58e-13
0       	0.3     	5.6571e-13
0       	0.35    	5.7321e-13
0       	0.4     	5.8049e-13
0       	0.45    	5.8751e-13
0       	0.5     	5.9422e-13
0       	0.55    	6.0055e-13
0       	0.6     	6.0647e-13
0       	0.65    	6.1197e-13
0       	0.7     	6.1701e-13
0.05    	0       	1.3701e-13
0.05    	0.05    	2.9699e-12
0.05    	0.1     	3.462e-12
0.05    	0.15    	3.5843e-12
0.05    	0.2     	3.6497e-12
0.05    	0.25    	3.7048e-12
0.05    	0.3     	3.7567e-12
0.05    	0.35    	3.8066e-12
0.05    	0.4     	3.8545e-12
0.05    	0.45    	3.9e-12 
0.05    	0.5     	3.9427e-12
0.05    	0.55    	3.9823e-12
0.05    	0.6     	4.0188e-12
0.05    	0.65    	4.0524e-12
0.05    	0.7     	4.0836e-12
0.1     	0       	8.709e-13
0.1     	0.05    	1.9536e-11
0.1     	0.1     	2.2882e-11
0.1     	0.15    	2.3712e-11
0.1     	0.2     	2.416e-11
0.1     	0.25    	2.4534e-11
0.1     	0.3     	2.488e-11
0.1     	0.35    	2.5205e-11
0.1     	0.4     	2.5511e-11
0.1     	0.45    	2.5794e-11
0.1     	0.5     	2.6056e-11
0.1     	0.55    	2.6296e-11
0.1     	0.6     	2.6518e-11
0.1     	0.65    	2.6725e-11
0.1     	0.7     	2.6921e-11
0.15    	0       	5.7936e-12
0.15    	0.05    	1.2438e-10
0.15    	0.1     	1.4652e-10
0.15    	0.15    	1.5203e-10
0.15    	0.2     	1.55e-10
0.15    	0.25    	1.5743e-10
0.15    	0.3     	1.5963e-10
0.15    	0.35    	1.6163e-10
0.15    	0.4     	1.6344e-10
0.15    	0.45    	1.651e-10
0.15    	0.5     	1.6663e-10
0.15    	0.55    	1.6805e-10
0.15    	0.6     	1.6939e-10
0.15    	0.65    	1.7067e-10
0.15    	0.7     	1.7189e-10
0.2     	0       	3.7262e-11
0.2     	0.05    	7.6669e-10
0.2     	0.1     	9.0745e-10
0.2     	0.15    	9.4318e-10
0.2     	0.2     	9.6187e-10
0.2     	0.25    	9.7676e-10
0.2     	0.3     	9.8971e-10
0.2     	0.35    	1.0011e-09
0.2     	0.4     	1.0114e-09
0.2     	0.45    	1.0208e-09
0.2     	0.5     	1.0296e-09
0.2     	0.55    	1.038e-09
0.2     	0.6     	1.046e-09
0.2     	0.65    	1.0538e-09
0.2     	0.7     	1.0613e-09
0.25    	0       	2.2126e-10
0.25    	0.05    	4.6055e-09
0.25    	0.1     	5.471e-09
0.25    	0.15    	5.6914e-09
0.25    	0.2     	5.8011e-09
0.25    	0.25    	5.884e-09
0.25    	0.3     	5.9548e-09
0.25    	0.35    	6.0178e-09
0.25    	0.4     	6.0753e-09
0.25    	0.45    	6.1289e-09
0.25    	0.5     	6.1797e-09
0.25    	0.55    	6.2286e-09
0.25    	0.6     	6.2759e-09
0.25    	0.65    	6.3219e-09
0.25    	0.7     	6.3667e-09
0.3     	0       	1.1733e-09
0.3     	0.05    	2.5936e-08
0.3     	0.1     	3.1092e-08
0.3     	0.15    	3.2346e-08
0.3     	0.2     	3.2908e-08
0.3     	0.25    	3.3319e-08
0.3     	0.3     	3.3678e-08
0.3     	0.35    	3.4006e-08
0.3     	0.4     	3.4312e-08
0.3     	0.45    	3.4599e-08
0.3     	0.5     	3.4872e-08
0.3     	0.55    	3.5134e-08
0.3     	0.6     	3.5388e-08
0.3     	0.65    	3.5634e-08
0.3     	0.7     	3.5874e-08
0.35    	0       	4.7075e-09
0.35    	0.05    	1.1964e-07
0.35    	0.1     	1.4754e-07
0.35    	0.15    	1.5394e-07
0.35    	0.2     	1.5638e-07
0.35    	0.25    	1.5802e-07
0.35    	0.3     	1.5942e-07
0.35    	0.35    	1.607e-07
0.35    	0.4     	1.6188e-07
0.35    	0.45    	1.6297e-07
0.35    	0.5     	1.6398e-07
0.35    	0.55    	1.6492e-07
0.35    	0.6     	1.658e-07
0.35    	0.65    	1.6662e-07
0.35    	0.7     	1.674e-07
0.4     	0       	1.1452e-08
0.4     	0.05    	3.5818e-07
0.4     	0.1     	4.7604e-07
0.4     	0.15    	5.0401e-07
0.4     	0.2     	5.1212e-07
0.4     	0.25    	5.1612e-07
0.4     	0.3     	5.1907e-07
0.4     	0.35    	5.216e-07
0.4     	0.4     	5.2387e-07
0.4     	0.45    	5.2592e-07
0.4     	0.5     	5.2779e-07
0.4     	0.55    	5.2951e-07
0.4     	0.6     	5.3113e-07
0.4     	0.65    	5.3265e-07
0.4     	0.7     	5.341e-07
0.45    	0       	1.8509e-08
0.45    	0.05    	6.8205e-07
0.45    	0.1     	1.0081e-06
0.45    	0.15    	1.1054e-06
0.45    	0.2     	1.1308e-06
0.45    	0.25    	1.1395e-06
0.45    	0.3     	1.1444e-06
0.45    	0.35    	1.1482e-06
0.45    	0.4     	1.1515e-06
0.45    	0.45    	1.1544e-06
0.45    	0.5     	1.1571e-06
0.45    	0.55    	1.1595e-06
0.45    	0.6     	1.1617e-06
0.45    	0.65    	1.1638e-06
0.45    	0.7     	1.1658e-06
0.5     	0       	2.4238e-08
0.5     	0.05    	9.8578e-07
0.5     	0.1     	1.5955e-06
0.5     	0.15    	1.8506e-06
0.5     	0.2     	1.9247e-06
0.5     	0.25    	1.9462e-06
0.5     	0.3     	1.9549e-06
0.5     	0.35    	1.9602e-06
0.5     	0.4     	1.9644e-06
0.5     	0.45    	1.968e-06
0.5     	0.5     	1.9713e-06
0.5     	0.55    	1.9742e-06
0.5     	0.6     	1.9768e-06
0.5     	0.65    	1.9793e-06
0.5     	0.7     	1.9816e-06
0.55    	0       	2.8803e-08
0.55    	0.05    	1.2388e-06
0.55    	0.1     	2.1364e-06
0.55    	0.15    	2.6198e-06
0.55    	0.2     	2.8039e-06
0.55    	0.25    	2.8586e-06
0.55    	0.3     	2.8767e-06
0.55    	0.35    	2.885e-06
0.55    	0.4     	2.8905e-06
0.55    	0.45    	2.8949e-06
0.55    	0.5     	2.8987e-06
0.55    	0.55    	2.9021e-06
0.55    	0.6     	2.9052e-06
0.55    	0.65    	2.908e-06
0.55    	0.7     	2.9106e-06
0.6     	0       	3.2575e-08
0.6     	0.05    	1.447e-06
0.6     	0.1     	2.5969e-06
0.6     	0.15    	3.3385e-06
0.6     	0.2     	3.6971e-06
0.6     	0.25    	3.8228e-06
0.6     	0.3     	3.8635e-06
0.6     	0.35    	3.8789e-06
0.6     	0.4     	3.8868e-06
0.6     	0.45    	3.8924e-06
0.6     	0.5     	3.8968e-06
0.6     	0.55    	3.9007e-06
0.6     	0.6     	3.9042e-06
0.6     	0.65    	3.9073e-06
0.6     	0.7     	3.9101e-06
0.65    	0       	3.5797e-08
0.65    	0.05    	1.6206e-06
0.65    	0.1     	2.9826e-06
0.65    	0.15    	3.9692e-06
0.65    	0.2     	4.5403e-06
0.65    	0.25    	4.7936e-06
0.65    	0.3     	4.882e-06
0.65    	0.35    	4.9132e-06
0.65    	0.4     	4.9264e-06
0.65    	0.45    	4.9339e-06
0.65    	0.5     	4.9394e-06
0.65    	0.55    	4.9438e-06
0.65    	0.6     	4.9477e-06
0.65    	0.65    	4.9511e-06
0.65    	0.7     	4.9542e-06
0.7     	0       	3.8588e-08
0.7     	0.05    	1.7679e-06
0.7     	0.1     	3.3074e-06
0.7     	0.15    	4.5084e-06
0.7     	0.2     	5.3042e-06
0.7     	0.25    	5.728e-06
0.7     	0.3     	5.9008e-06
0.7     	0.35    	5.9645e-06
0.7     	0.4     	5.9892e-06
0.7     	0.45    	6.0008e-06
0.7     	0.5     	6.0078e-06
0.7     	0.55    	6.0131e-06
0.7     	0.6     	6.0174e-06
0.7     	0.65    	6.0215e-06
0.7     	0.7     	6.0249e-06
