vg      	vd      	ids     
0       	0       	-2.0043e-23
0       	0.05    	2.7088e-17
0       	0.1     	3.0933e-17
0       	0.15    	3.1492e-17
0       	0.2     	3.1573e-17
0       	0.25    	3.1585e-17
0       	0.3     	3.1586e-17
0       	0.35    	3.1587e-17
0       	0.4     	3.1587e-17
0       	0.45    	3.1587e-17
0       	0.5     	3.1587e-17
0       	0.55    	3.1587e-17
0       	0.6     	3.1587e-17
0       	0.65    	3.1587e-17
0       	0.7     	3.1587e-17
0.05    	0       	-1.3435e-21
0.05    	0.05    	1.8673e-16
0.05    	0.1     	2.1407e-16
0.05    	0.15    	2.1802e-16
0.05    	0.2     	2.1859e-16
0.05    	0.25    	2.1867e-16
0.05    	0.3     	2.1868e-16
0.05    	0.35    	2.1868e-16
0.05    	0.4     	2.1868e-16
0.05    	0.45    	2.1868e-16
0.05    	0.5     	2.1868e-16
0.05    	0.55    	2.1868e-16
0.05    	0.6     	2.1868e-16
0.05    	0.65    	2.1868e-16
0.05    	0.7     	2.1868e-16
0.1     	0       	-1.1118e-19
0.1     	0.05    	1.2932e-15
0.1     	0.1     	1.4809e-15
0.1     	0.15    	1.508e-15
0.1     	0.2     	1.512e-15
0.1     	0.25    	1.5125e-15
0.1     	0.3     	1.5126e-15
0.1     	0.35    	1.5126e-15
0.1     	0.4     	1.5126e-15
0.1     	0.45    	1.5126e-15
0.1     	0.5     	1.5126e-15
0.1     	0.55    	1.5126e-15
0.1     	0.6     	1.5126e-15
0.1     	0.65    	1.5126e-15
0.1     	0.7     	1.5126e-15
0.15    	0       	-7.7451e-19
0.15    	0.05    	8.9363e-15
0.15    	0.1     	1.0232e-14
0.15    	0.15    	1.0419e-14
0.15    	0.2     	1.0446e-14
0.15    	0.25    	1.045e-14
0.15    	0.3     	1.0451e-14
0.15    	0.35    	1.0451e-14
0.15    	0.4     	1.0451e-14
0.15    	0.45    	1.0451e-14
0.15    	0.5     	1.0451e-14
0.15    	0.55    	1.0451e-14
0.15    	0.6     	1.0451e-14
0.15    	0.65    	1.0451e-14
0.15    	0.7     	1.0451e-14
0.2     	0       	-8.0391e-17
0.2     	0.05    	6.127e-14
0.2     	0.1     	7.0239e-14
0.2     	0.15    	7.1538e-14
0.2     	0.2     	7.1726e-14
0.2     	0.25    	7.1754e-14
0.2     	0.3     	7.1759e-14
0.2     	0.35    	7.1759e-14
0.2     	0.4     	7.1759e-14
0.2     	0.45    	7.1759e-14
0.2     	0.5     	7.1759e-14
0.2     	0.55    	7.1759e-14
0.2     	0.6     	7.1759e-14
0.2     	0.65    	7.1759e-14
0.2     	0.7     	7.1759e-14
0.25    	0       	-6.0134e-16
0.25    	0.05    	4.1778e-13
0.25    	0.1     	4.7959e-13
0.25    	0.15    	4.8872e-13
0.25    	0.2     	4.9006e-13
0.25    	0.25    	4.9026e-13
0.25    	0.3     	4.9029e-13
0.25    	0.35    	4.903e-13
0.25    	0.4     	4.903e-13
0.25    	0.45    	4.903e-13
0.25    	0.5     	4.903e-13
0.25    	0.55    	4.903e-13
0.25    	0.6     	4.903e-13
0.25    	0.65    	4.903e-13
0.25    	0.7     	4.903e-13
0.3     	0       	-3.2484e-15
0.3     	0.05    	2.8617e-12
0.3     	0.1     	3.2844e-12
0.3     	0.15    	3.349e-12
0.3     	0.2     	3.3594e-12
0.3     	0.25    	3.361e-12
0.3     	0.3     	3.3613e-12
0.3     	0.35    	3.3613e-12
0.3     	0.4     	3.3614e-12
0.3     	0.45    	3.3614e-12
0.3     	0.5     	3.3614e-12
0.3     	0.55    	3.3614e-12
0.3     	0.6     	3.3614e-12
0.3     	0.65    	3.3614e-12
0.3     	0.7     	3.3614e-12
0.35    	0       	-1.8e-14
0.35    	0.05    	1.9514e-11
0.35    	0.1     	2.2415e-11
0.35    	0.15    	2.2867e-11
0.35    	0.2     	2.2951e-11
0.35    	0.25    	2.297e-11
0.35    	0.3     	2.2973e-11
0.35    	0.35    	2.2974e-11
0.35    	0.4     	2.2974e-11
0.35    	0.45    	2.2974e-11
0.35    	0.5     	2.2974e-11
0.35    	0.55    	2.2974e-11
0.35    	0.6     	2.2974e-11
0.35    	0.65    	2.2974e-11
0.35    	0.7     	2.2974e-11
0.4     	0       	-7.4744e-14
0.4     	0.05    	1.3371e-10
0.4     	0.1     	1.5354e-10
0.4     	0.15    	1.5669e-10
0.4     	0.2     	1.5735e-10
0.4     	0.25    	1.5756e-10
0.4     	0.3     	1.5764e-10
0.4     	0.35    	1.5765e-10
0.4     	0.4     	1.5765e-10
0.4     	0.45    	1.5766e-10
0.4     	0.5     	1.5766e-10
0.4     	0.55    	1.5766e-10
0.4     	0.6     	1.5766e-10
0.4     	0.65    	1.5766e-10
0.4     	0.7     	1.5766e-10
0.45    	0       	-7.7306e-14
0.45    	0.05    	9.1254e-10
0.45    	0.1     	1.0489e-09
0.45    	0.15    	1.0708e-09
0.45    	0.2     	1.0757e-09
0.45    	0.25    	1.0776e-09
0.45    	0.3     	1.0787e-09
0.45    	0.35    	1.0791e-09
0.45    	0.4     	1.0792e-09
0.45    	0.45    	1.0792e-09
0.45    	0.5     	1.0792e-09
0.45    	0.55    	1.0793e-09
0.45    	0.6     	1.0793e-09
0.45    	0.65    	1.0793e-09
0.45    	0.7     	1.0793e-09
0.5     	0       	1.9742e-12
0.5     	0.05    	6.1311e-09
0.5     	0.1     	7.0646e-09
0.5     	0.15    	7.2179e-09
0.5     	0.2     	7.2535e-09
0.5     	0.25    	7.2691e-09
0.5     	0.3     	7.2792e-09
0.5     	0.35    	7.2858e-09
0.5     	0.4     	7.2883e-09
0.5     	0.45    	7.2889e-09
0.5     	0.5     	7.289e-09
0.5     	0.55    	7.2891e-09
0.5     	0.6     	7.2891e-09
0.5     	0.65    	7.2891e-09
0.5     	0.7     	7.2891e-09
0.55    	0       	2.2353e-11
0.55    	0.05    	3.7726e-08
0.55    	0.1     	4.4034e-08
0.55    	0.15    	4.5109e-08
0.55    	0.2     	4.5356e-08
0.55    	0.25    	4.5468e-08
0.55    	0.3     	4.554e-08
0.55    	0.35    	4.5591e-08
0.55    	0.4     	4.5624e-08
0.55    	0.45    	4.5636e-08
0.55    	0.5     	4.5639e-08
0.55    	0.55    	4.564e-08
0.55    	0.6     	4.564e-08
0.55    	0.65    	4.564e-08
0.55    	0.7     	4.564e-08
0.6     	0       	1.3472e-10
0.6     	0.05    	1.6606e-07
0.6     	0.1     	2.0633e-07
0.6     	0.15    	2.1391e-07
0.6     	0.2     	2.1556e-07
0.6     	0.25    	2.1617e-07
0.6     	0.3     	2.1651e-07
0.6     	0.35    	2.1674e-07
0.6     	0.4     	2.169e-07
0.6     	0.45    	2.1699e-07
0.6     	0.5     	2.1702e-07
0.6     	0.55    	2.1703e-07
0.6     	0.6     	2.1703e-07
0.6     	0.65    	2.1704e-07
0.6     	0.7     	2.1704e-07
0.65    	0       	3.5615e-10
0.65    	0.05    	3.9208e-07
0.65    	0.1     	5.6962e-07
0.65    	0.15    	6.2074e-07
0.65    	0.2     	6.3274e-07
0.65    	0.25    	6.3579e-07
0.65    	0.3     	6.3702e-07
0.65    	0.35    	6.3777e-07
0.65    	0.4     	6.382e-07
0.65    	0.45    	6.3844e-07
0.65    	0.5     	6.3851e-07
0.65    	0.55    	6.3854e-07
0.65    	0.6     	6.3855e-07
0.65    	0.65    	6.3856e-07
0.65    	0.7     	6.3857e-07
0.7     	0       	6.1316e-10
0.7     	0.05    	5.6921e-07
0.7     	0.1     	9.6236e-07
0.7     	0.15    	1.1609e-06
0.7     	0.2     	1.2356e-06
0.7     	0.25    	1.2559e-06
0.7     	0.3     	1.2619e-06
0.7     	0.35    	1.2645e-06
0.7     	0.4     	1.2656e-06
0.7     	0.45    	1.2661e-06
0.7     	0.5     	1.2662e-06
0.7     	0.55    	1.2663e-06
0.7     	0.6     	1.2663e-06
0.7     	0.65    	1.2663e-06
0.7     	0.7     	1.2663e-06
