vg      	vd      	ids     
0       	0       	6.5253e-20
0       	0.05    	2.6447e-17
0       	0.1     	3.0292e-17
0       	0.15    	3.0896e-17
0       	0.2     	3.1027e-17
0       	0.25    	3.1087e-17
0       	0.3     	3.1135e-17
0       	0.35    	3.1179e-17
0       	0.4     	3.1222e-17
0       	0.45    	3.1263e-17
0       	0.5     	3.1302e-17
0       	0.55    	3.134e-17
0       	0.6     	3.1377e-17
0       	0.65    	3.1413e-17
0       	0.7     	3.1447e-17
0.05    	0       	4.2986e-19
0.05    	0.05    	1.8203e-16
0.05    	0.1     	2.0874e-16
0.05    	0.15    	2.129e-16
0.05    	0.2     	2.1382e-16
0.05    	0.25    	2.1424e-16
0.05    	0.3     	2.1458e-16
0.05    	0.35    	2.149e-16
0.05    	0.4     	2.152e-16
0.05    	0.45    	2.1549e-16
0.05    	0.5     	2.1577e-16
0.05    	0.55    	2.1603e-16
0.05    	0.6     	2.1629e-16
0.05    	0.65    	2.1654e-16
0.05    	0.7     	2.1678e-16
0.1     	0       	3.0777e-18
0.1     	0.05    	1.2528e-15
0.1     	0.1     	1.4367e-15
0.1     	0.15    	1.4658e-15
0.1     	0.2     	1.4721e-15
0.1     	0.25    	1.4752e-15
0.1     	0.3     	1.4776e-15
0.1     	0.35    	1.4798e-15
0.1     	0.4     	1.4819e-15
0.1     	0.45    	1.484e-15
0.1     	0.5     	1.4859e-15
0.1     	0.55    	1.4878e-15
0.1     	0.6     	1.4896e-15
0.1     	0.65    	1.4913e-15
0.1     	0.7     	1.493e-15
0.15    	0       	2.2091e-17
0.15    	0.05    	8.6062e-15
0.15    	0.1     	9.8731e-15
0.15    	0.15    	1.0074e-14
0.15    	0.2     	1.0119e-14
0.15    	0.25    	1.014e-14
0.15    	0.3     	1.0157e-14
0.15    	0.35    	1.0173e-14
0.15    	0.4     	1.0188e-14
0.15    	0.45    	1.0203e-14
0.15    	0.5     	1.0216e-14
0.15    	0.55    	1.0229e-14
0.15    	0.6     	1.0242e-14
0.15    	0.65    	1.0254e-14
0.15    	0.7     	1.0266e-14
0.2     	0       	-1.6641e-16
0.2     	0.05    	5.9327e-14
0.2     	0.1     	6.8029e-14
0.2     	0.15    	6.9418e-14
0.2     	0.2     	6.9734e-14
0.2     	0.25    	6.9887e-14
0.2     	0.3     	7.0009e-14
0.2     	0.35    	7.0122e-14
0.2     	0.4     	7.0228e-14
0.2     	0.45    	7.0329e-14
0.2     	0.5     	7.0425e-14
0.2     	0.55    	7.0517e-14
0.2     	0.6     	7.0605e-14
0.2     	0.65    	7.069e-14
0.2     	0.7     	7.0771e-14
0.25    	0       	1.0741e-15
0.25    	0.05    	4.1005e-13
0.25    	0.1     	4.7042e-13
0.25    	0.15    	4.8002e-13
0.25    	0.2     	4.8225e-13
0.25    	0.25    	4.8334e-13
0.25    	0.3     	4.8423e-13
0.25    	0.35    	4.8503e-13
0.25    	0.4     	4.8579e-13
0.25    	0.45    	4.865e-13
0.25    	0.5     	4.8718e-13
0.25    	0.55    	4.8783e-13
0.25    	0.6     	4.8845e-13
0.25    	0.65    	4.8904e-13
0.25    	0.7     	4.8961e-13
0.3     	0       	7.9644e-15
0.3     	0.05    	2.816e-12
0.3     	0.1     	3.2315e-12
0.3     	0.15    	3.2984e-12
0.3     	0.2     	3.3141e-12
0.3     	0.25    	3.322e-12
0.3     	0.3     	3.3283e-12
0.3     	0.35    	3.334e-12
0.3     	0.4     	3.3394e-12
0.3     	0.45    	3.3444e-12
0.3     	0.5     	3.3492e-12
0.3     	0.55    	3.3537e-12
0.3     	0.6     	3.358e-12
0.3     	0.65    	3.3621e-12
0.3     	0.7     	3.366e-12
0.35    	0       	6.153e-14
0.35    	0.05    	1.9267e-11
0.35    	0.1     	2.2124e-11
0.35    	0.15    	2.2588e-11
0.35    	0.2     	2.2699e-11
0.35    	0.25    	2.2756e-11
0.35    	0.3     	2.2801e-11
0.35    	0.35    	2.2841e-11
0.35    	0.4     	2.2879e-11
0.35    	0.45    	2.2914e-11
0.35    	0.5     	2.2948e-11
0.35    	0.55    	2.2979e-11
0.35    	0.6     	2.3009e-11
0.35    	0.65    	2.3037e-11
0.35    	0.7     	2.3065e-11
0.4     	0       	3.2662e-13
0.4     	0.05    	1.333e-10
0.4     	0.1     	1.5288e-10
0.4     	0.15    	1.5611e-10
0.4     	0.2     	1.569e-10
0.4     	0.25    	1.5731e-10
0.4     	0.3     	1.5764e-10
0.4     	0.35    	1.5793e-10
0.4     	0.4     	1.582e-10
0.4     	0.45    	1.5845e-10
0.4     	0.5     	1.5868e-10
0.4     	0.55    	1.589e-10
0.4     	0.6     	1.5911e-10
0.4     	0.65    	1.593e-10
0.4     	0.7     	1.5949e-10
0.45    	0       	2.1545e-12
0.45    	0.05    	9.0675e-10
0.45    	0.1     	1.0426e-09
0.45    	0.15    	1.065e-09
0.45    	0.2     	1.0707e-09
0.45    	0.25    	1.0736e-09
0.45    	0.3     	1.0759e-09
0.45    	0.35    	1.078e-09
0.45    	0.4     	1.0799e-09
0.45    	0.45    	1.0816e-09
0.45    	0.5     	1.0832e-09
0.45    	0.55    	1.0847e-09
0.45    	0.6     	1.0861e-09
0.45    	0.65    	1.0875e-09
0.45    	0.7     	1.0887e-09
0.5     	0       	1.095e-11
0.5     	0.05    	6.0691e-09
0.5     	0.1     	6.9961e-09
0.5     	0.15    	7.1526e-09
0.5     	0.2     	7.1926e-09
0.5     	0.25    	7.2133e-09
0.5     	0.3     	7.2294e-09
0.5     	0.35    	7.2434e-09
0.5     	0.4     	7.256e-09
0.5     	0.45    	7.2675e-09
0.5     	0.5     	7.2782e-09
0.5     	0.55    	7.288e-09
0.5     	0.6     	7.2972e-09
0.5     	0.65    	7.3059e-09
0.5     	0.7     	7.314e-09
0.55    	0       	4.6105e-11
0.55    	0.05    	3.6358e-08
0.55    	0.1     	4.2569e-08
0.55    	0.15    	4.3628e-08
0.55    	0.2     	4.3892e-08
0.55    	0.25    	4.402e-08
0.55    	0.3     	4.4115e-08
0.55    	0.35    	4.4196e-08
0.55    	0.4     	4.4267e-08
0.55    	0.45    	4.4331e-08
0.55    	0.5     	4.4389e-08
0.55    	0.55    	4.4443e-08
0.55    	0.6     	4.4493e-08
0.55    	0.65    	4.4539e-08
0.55    	0.7     	4.4581e-08
0.6     	0       	1.2401e-10
0.6     	0.05    	1.4806e-07
0.6     	0.1     	1.8492e-07
0.6     	0.15    	1.9171e-07
0.6     	0.2     	1.9319e-07
0.6     	0.25    	1.9377e-07
0.6     	0.3     	1.9414e-07
0.6     	0.35    	1.9444e-07
0.6     	0.4     	1.947e-07
0.6     	0.45    	1.9492e-07
0.6     	0.5     	1.9512e-07
0.6     	0.55    	1.9531e-07
0.6     	0.6     	1.9547e-07
0.6     	0.65    	1.9563e-07
0.6     	0.7     	1.9577e-07
0.65    	0       	1.9743e-10
0.65    	0.05    	3.2683e-07
0.65    	0.1     	4.7001e-07
0.65    	0.15    	5.0764e-07
0.65    	0.2     	5.1514e-07
0.65    	0.25    	5.1735e-07
0.65    	0.3     	5.1853e-07
0.65    	0.35    	5.1925e-07
0.65    	0.4     	5.1982e-07
0.65    	0.45    	5.2031e-07
0.65    	0.5     	5.2074e-07
0.65    	0.55    	5.2113e-07
0.65    	0.6     	5.2151e-07
0.65    	0.65    	5.2183e-07
0.65    	0.7     	5.2211e-07
0.7     	0       	2.4865e-10
0.7     	0.05    	4.6528e-07
0.7     	0.1     	7.7737e-07
0.7     	0.15    	9.1165e-07
0.7     	0.2     	9.4984e-07
0.7     	0.25    	9.588e-07
0.7     	0.3     	9.6146e-07
0.7     	0.35    	9.6288e-07
0.7     	0.4     	9.639e-07
0.7     	0.45    	9.6483e-07
0.7     	0.5     	9.6552e-07
0.7     	0.55    	9.6611e-07
0.7     	0.6     	9.6663e-07
0.7     	0.65    	9.6716e-07
0.7     	0.7     	9.6759e-07
