vg      	vd      	ids     
0       	0       	4.3146e-13
0       	0.05    	1.3656e-11
0       	0.1     	1.601e-11
0       	0.15    	1.6694e-11
0       	0.2     	1.7119e-11
0       	0.25    	1.7497e-11
0       	0.3     	1.7859e-11
0       	0.35    	1.8213e-11
0       	0.4     	1.8557e-11
0       	0.45    	1.8891e-11
0       	0.5     	1.9208e-11
0       	0.55    	1.9502e-11
0       	0.6     	1.9769e-11
0       	0.65    	2.0006e-11
0       	0.7     	2.0219e-11
0.05    	0       	2.8062e-12
0.05    	0.05    	8.841e-11
0.05    	0.1     	1.0384e-10
0.05    	0.15    	1.0845e-10
0.05    	0.2     	1.1134e-10
0.05    	0.25    	1.1389e-10
0.05    	0.3     	1.163e-10
0.05    	0.35    	1.186e-10
0.05    	0.4     	1.2079e-10
0.05    	0.45    	1.2282e-10
0.05    	0.5     	1.2465e-10
0.05    	0.55    	1.2627e-10
0.05    	0.6     	1.2771e-10
0.05    	0.65    	1.2903e-10
0.05    	0.7     	1.3026e-10
0.1     	0       	1.8317e-11
0.1     	0.05    	5.4911e-10
0.1     	0.1     	6.4884e-10
0.1     	0.15    	6.7898e-10
0.1     	0.2     	6.9793e-10
0.1     	0.25    	7.1435e-10
0.1     	0.3     	7.294e-10
0.1     	0.35    	7.4305e-10
0.1     	0.4     	7.5513e-10
0.1     	0.45    	7.6569e-10
0.1     	0.5     	7.751e-10
0.1     	0.55    	7.8374e-10
0.1     	0.6     	7.9185e-10
0.1     	0.65    	7.9955e-10
0.1     	0.7     	8.0694e-10
0.15    	0       	1.1343e-10
0.15    	0.05    	3.3178e-09
0.15    	0.1     	3.9357e-09
0.15    	0.15    	4.1268e-09
0.15    	0.2     	4.2438e-09
0.15    	0.25    	4.3405e-09
0.15    	0.3     	4.4223e-09
0.15    	0.35    	4.4911e-09
0.15    	0.4     	4.5508e-09
0.15    	0.45    	4.6052e-09
0.15    	0.5     	4.6562e-09
0.15    	0.55    	4.7052e-09
0.15    	0.6     	4.7524e-09
0.15    	0.65    	4.7982e-09
0.15    	0.7     	4.8425e-09
0.2     	0       	6.4469e-10
0.2     	0.05    	1.9204e-08
0.2     	0.1     	2.2908e-08
0.2     	0.15    	2.4023e-08
0.2     	0.2     	2.4637e-08
0.2     	0.25    	2.5091e-08
0.2     	0.3     	2.5471e-08
0.2     	0.35    	2.581e-08
0.2     	0.4     	2.6122e-08
0.2     	0.45    	2.6416e-08
0.2     	0.5     	2.6698e-08
0.2     	0.55    	2.6971e-08
0.2     	0.6     	2.7237e-08
0.2     	0.65    	2.7496e-08
0.2     	0.7     	2.7749e-08
0.25    	0       	3.0218e-09
0.25    	0.05    	9.9268e-08
0.25    	0.1     	1.1977e-07
0.25    	0.15    	1.2518e-07
0.25    	0.2     	1.2772e-07
0.25    	0.25    	1.2963e-07
0.25    	0.3     	1.3133e-07
0.25    	0.35    	1.3292e-07
0.25    	0.4     	1.344e-07
0.25    	0.45    	1.3581e-07
0.25    	0.5     	1.3715e-07
0.25    	0.55    	1.3844e-07
0.25    	0.6     	1.3969e-07
0.25    	0.65    	1.4091e-07
0.25    	0.7     	1.421e-07
0.3     	0       	9.3012e-09
0.3     	0.05    	3.7395e-07
0.3     	0.1     	4.6874e-07
0.3     	0.15    	4.9207e-07
0.3     	0.2     	5.0115e-07
0.3     	0.25    	5.0725e-07
0.3     	0.3     	5.1246e-07
0.3     	0.35    	5.172e-07
0.3     	0.4     	5.2153e-07
0.3     	0.45    	5.2549e-07
0.3     	0.5     	5.2909e-07
0.3     	0.55    	5.3237e-07
0.3     	0.6     	5.3537e-07
0.3     	0.65    	5.3813e-07
0.3     	0.7     	5.4069e-07
0.35    	0       	1.7367e-08
0.35    	0.05    	8.8353e-07
0.35    	0.1     	1.2095e-06
0.35    	0.15    	1.2921e-06
0.35    	0.2     	1.3169e-06
0.35    	0.25    	1.3287e-06
0.35    	0.3     	1.3371e-06
0.35    	0.35    	1.3441e-06
0.35    	0.4     	1.3502e-06
0.35    	0.45    	1.3558e-06
0.35    	0.5     	1.3608e-06
0.35    	0.55    	1.3655e-06
0.35    	0.6     	1.3698e-06
0.35    	0.65    	1.3738e-06
0.35    	0.7     	1.3777e-06
0.4     	0       	2.4596e-08
0.4     	0.05    	1.4779e-06
0.4     	0.1     	2.2181e-06
0.4     	0.15    	2.4541e-06
0.4     	0.2     	2.5184e-06
0.4     	0.25    	2.5438e-06
0.4     	0.3     	2.5566e-06
0.4     	0.35    	2.566e-06
0.4     	0.4     	2.5741e-06
0.4     	0.45    	2.5813e-06
0.4     	0.5     	2.5878e-06
0.4     	0.55    	2.5938e-06
0.4     	0.6     	2.5993e-06
0.4     	0.65    	2.6045e-06
0.4     	0.7     	2.6093e-06
0.45    	0       	3.0407e-08
0.45    	0.05    	2.0361e-06
0.45    	0.1     	3.2994e-06
0.45    	0.15    	3.8169e-06
0.45    	0.2     	3.974e-06
0.45    	0.25    	4.022e-06
0.45    	0.3     	4.0441e-06
0.45    	0.35    	4.0567e-06
0.45    	0.4     	4.0663e-06
0.45    	0.45    	4.0745e-06
0.45    	0.5     	4.0818e-06
0.45    	0.55    	4.0884e-06
0.45    	0.6     	4.0944e-06
0.45    	0.65    	4.0999e-06
0.45    	0.7     	4.105e-06
0.5     	0       	3.5162e-08
0.5     	0.05    	2.5338e-06
0.5     	0.1     	4.326e-06
0.5     	0.15    	5.246e-06
0.5     	0.2     	5.5745e-06
0.5     	0.25    	5.6685e-06
0.5     	0.3     	5.7046e-06
0.5     	0.35    	5.7196e-06
0.5     	0.4     	5.7382e-06
0.5     	0.45    	5.7438e-06
0.5     	0.5     	5.7496e-06
0.5     	0.55    	5.7566e-06
0.5     	0.6     	5.7679e-06
0.5     	0.65    	5.7708e-06
0.5     	0.7     	5.775e-06
0.55    	0       	3.8763e-08
0.55    	0.05    	2.972e-06
0.55    	0.1     	5.2278e-06
0.55    	0.15    	6.6053e-06
0.55    	0.2     	7.2101e-06
0.55    	0.25    	7.4121e-06
0.55    	0.3     	7.4808e-06
0.55    	0.35    	7.4971e-06
0.55    	0.4     	7.5161e-06
0.55    	0.45    	7.5282e-06
0.55    	0.5     	7.5382e-06
0.55    	0.55    	7.5395e-06
0.55    	0.6     	7.5487e-06
0.55    	0.65    	7.5565e-06
0.55    	0.7     	7.5625e-06
0.6     	0       	4.1665e-08
0.6     	0.05    	3.3351e-06
0.6     	0.1     	6.0207e-06
0.6     	0.15    	7.8566e-06
0.6     	0.2     	8.818e-06
0.6     	0.25    	9.1816e-06
0.6     	0.3     	9.3021e-06
0.6     	0.35    	9.3448e-06
0.6     	0.4     	9.3642e-06
0.6     	0.45    	9.3762e-06
0.6     	0.5     	9.3908e-06
0.6     	0.55    	9.3915e-06
0.6     	0.6     	9.3968e-06
0.6     	0.65    	9.4142e-06
0.6     	0.7     	9.4163e-06
0.65    	0       	4.4068e-08
0.65    	0.05    	3.6338e-06
0.65    	0.1     	6.6779e-06
0.65    	0.15    	8.9381e-06
0.65    	0.2     	1.03e-05
0.65    	0.25    	1.0923e-05
0.65    	0.3     	1.1144e-05
0.65    	0.35    	1.1229e-05
0.65    	0.4     	1.1254e-05
0.65    	0.45    	1.1275e-05
0.65    	0.5     	1.1287e-05
0.65    	0.55    	1.1287e-05
0.65    	0.6     	1.1301e-05
0.65    	0.65    	1.1308e-05
0.65    	0.7     	1.1314e-05
0.7     	0       	4.6105e-08
0.7     	0.05    	3.874e-06
0.7     	0.1     	7.2263e-06
0.7     	0.15    	9.8638e-06
0.7     	0.2     	1.1637e-05
0.7     	0.25    	1.2572e-05
0.7     	0.3     	1.297e-05
0.7     	0.35    	1.3112e-05
0.7     	0.4     	1.3163e-05
0.7     	0.45    	1.3185e-05
0.7     	0.5     	1.3198e-05
0.7     	0.55    	1.3198e-05
0.7     	0.6     	1.3214e-05
0.7     	0.65    	1.322e-05
0.7     	0.7     	1.3226e-05
