vg      	vd      	ids     
0       	0       	2.6076e-14
0       	0.05    	9.1802e-11
0       	0.1     	1.0534e-10
0       	0.15    	1.0745e-10
0       	0.2     	1.079e-10
0       	0.25    	1.081e-10
0       	0.3     	1.0824e-10
0       	0.35    	1.0837e-10
0       	0.4     	1.0849e-10
0       	0.45    	1.086e-10
0       	0.5     	1.0871e-10
0       	0.55    	1.0881e-10
0       	0.6     	1.089e-10
0       	0.65    	1.0898e-10
0       	0.7     	1.0907e-10
0.05    	0       	1.7656e-13
0.05    	0.05    	6.2778e-10
0.05    	0.1     	7.2094e-10
0.05    	0.15    	7.3573e-10
0.05    	0.2     	7.3896e-10
0.05    	0.25    	7.404e-10
0.05    	0.3     	7.4148e-10
0.05    	0.35    	7.4243e-10
0.05    	0.4     	7.4329e-10
0.05    	0.45    	7.4409e-10
0.05    	0.5     	7.4483e-10
0.05    	0.55    	7.4552e-10
0.05    	0.6     	7.4617e-10
0.05    	0.65    	7.4678e-10
0.05    	0.7     	7.4736e-10
0.1     	0       	5.7645e-13
0.1     	0.05    	4.2773e-09
0.1     	0.1     	4.9159e-09
0.1     	0.15    	5.0188e-09
0.1     	0.2     	5.0421e-09
0.1     	0.25    	5.0527e-09
0.1     	0.3     	5.0607e-09
0.1     	0.35    	5.0676e-09
0.1     	0.4     	5.0738e-09
0.1     	0.45    	5.0795e-09
0.1     	0.5     	5.0847e-09
0.1     	0.55    	5.0896e-09
0.1     	0.6     	5.0941e-09
0.1     	0.65    	5.0984e-09
0.1     	0.7     	5.1024e-09
0.15    	0       	2.0263e-12
0.15    	0.05    	2.7984e-08
0.15    	0.1     	3.2347e-08
0.15    	0.15    	3.306e-08
0.15    	0.2     	3.3225e-08
0.15    	0.25    	3.3301e-08
0.15    	0.3     	3.3357e-08
0.15    	0.35    	3.3405e-08
0.15    	0.4     	3.3448e-08
0.15    	0.45    	3.3486e-08
0.15    	0.5     	3.3522e-08
0.15    	0.55    	3.3554e-08
0.15    	0.6     	3.3584e-08
0.15    	0.65    	3.3612e-08
0.15    	0.7     	3.3638e-08
0.2     	0       	-9.9322e-12
0.2     	0.05    	1.5464e-07
0.2     	0.1     	1.832e-07
0.2     	0.15    	1.8808e-07
0.2     	0.2     	1.8918e-07
0.2     	0.25    	1.8965e-07
0.2     	0.3     	1.8998e-07
0.2     	0.35    	1.9025e-07
0.2     	0.4     	1.9048e-07
0.2     	0.45    	1.9069e-07
0.2     	0.5     	1.9088e-07
0.2     	0.55    	1.9105e-07
0.2     	0.6     	1.9121e-07
0.2     	0.65    	1.9136e-07
0.2     	0.7     	1.9149e-07
0.25    	0       	3.3886e-11
0.25    	0.05    	5.3262e-07
0.25    	0.1     	6.8494e-07
0.25    	0.15    	7.1612e-07
0.25    	0.2     	7.224e-07
0.25    	0.25    	7.2452e-07
0.25    	0.3     	7.2578e-07
0.25    	0.35    	7.2675e-07
0.25    	0.4     	7.2757e-07
0.25    	0.45    	7.2828e-07
0.25    	0.5     	7.2891e-07
0.25    	0.55    	7.2947e-07
0.25    	0.6     	7.3005e-07
0.25    	0.65    	7.3052e-07
0.25    	0.7     	7.3095e-07
0.3     	0       	6.8216e-11
0.3     	0.05    	1.038e-06
0.3     	0.1     	1.5431e-06
0.3     	0.15    	1.6902e-06
0.3     	0.2     	1.7216e-06
0.3     	0.25    	1.7298e-06
0.3     	0.3     	1.7336e-06
0.3     	0.35    	1.7358e-06
0.3     	0.4     	1.7376e-06
0.3     	0.45    	1.7391e-06
0.3     	0.5     	1.7404e-06
0.3     	0.55    	1.7415e-06
0.3     	0.6     	1.7426e-06
0.3     	0.65    	1.7436e-06
0.3     	0.7     	1.7444e-06
0.35    	0       	1.0291e-10
0.35    	0.05    	1.4285e-06
0.35    	0.1     	2.4026e-06
0.35    	0.15    	2.8585e-06
0.35    	0.2     	2.9968e-06
0.35    	0.25    	3.0305e-06
0.35    	0.3     	3.04e-06
0.35    	0.35    	3.0445e-06
0.35    	0.4     	3.0479e-06
0.35    	0.45    	3.0503e-06
0.35    	0.5     	3.0523e-06
0.35    	0.55    	3.0542e-06
0.35    	0.6     	3.0558e-06
0.35    	0.65    	3.0571e-06
0.35    	0.7     	3.0584e-06
0.4     	0       	1.3221e-10
0.4     	0.05    	1.6738e-06
0.4     	0.1     	3.0165e-06
0.4     	0.15    	3.8792e-06
0.4     	0.2     	4.2948e-06
0.4     	0.25    	4.4213e-06
0.4     	0.3     	4.4555e-06
0.4     	0.35    	4.4661e-06
0.4     	0.4     	4.4718e-06
0.4     	0.45    	4.4753e-06
0.4     	0.5     	4.478e-06
0.4     	0.55    	4.4805e-06
0.4     	0.6     	4.4825e-06
0.4     	0.65    	4.4842e-06
0.4     	0.7     	4.4859e-06
0.45    	0       	1.5098e-10
0.45    	0.05    	1.8188e-06
0.45    	0.1     	3.3926e-06
0.45    	0.15    	4.5685e-06
0.45    	0.2     	5.3323e-06
0.45    	0.25    	5.6969e-06
0.45    	0.3     	5.8222e-06
0.45    	0.35    	5.8564e-06
0.45    	0.4     	5.8691e-06
0.45    	0.45    	5.875e-06
0.45    	0.5     	5.879e-06
0.45    	0.55    	5.8819e-06
0.45    	0.6     	5.8844e-06
0.45    	0.65    	5.8864e-06
0.45    	0.7     	5.8881e-06
0.5     	0       	1.5525e-10
0.5     	0.05    	1.8786e-06
0.5     	0.1     	3.5877e-06
0.5     	0.15    	4.9623e-06
0.5     	0.2     	5.9311e-06
0.5     	0.25    	6.6178e-06
0.5     	0.3     	6.9485e-06
0.5     	0.35    	7.0811e-06
0.5     	0.4     	7.1246e-06
0.5     	0.45    	7.1388e-06
0.5     	0.5     	7.1458e-06
0.5     	0.55    	7.1498e-06
0.5     	0.6     	7.1526e-06
0.5     	0.65    	7.1551e-06
0.5     	0.7     	7.157e-06
0.55    	0       	1.5077e-10
0.55    	0.05    	1.8893e-06
0.55    	0.1     	3.6481e-06
0.55    	0.15    	5.1269e-06
0.55    	0.2     	6.2869e-06
0.55    	0.25    	7.065e-06
0.55    	0.3     	7.6416e-06
0.55    	0.35    	7.9623e-06
0.55    	0.4     	8.1048e-06
0.55    	0.45    	8.1605e-06
0.55    	0.5     	8.1807e-06
0.55    	0.55    	8.1892e-06
0.55    	0.6     	8.194e-06
0.55    	0.65    	8.1973e-06
0.55    	0.7     	8.1996e-06
0.6     	0       	1.3094e-10
0.6     	0.05    	1.8966e-06
0.6     	0.1     	3.6623e-06
0.6     	0.15    	5.1777e-06
0.6     	0.2     	6.4175e-06
0.6     	0.25    	7.2835e-06
0.6     	0.3     	7.9412e-06
0.6     	0.35    	8.4117e-06
0.6     	0.4     	8.7028e-06
0.6     	0.45    	8.8604e-06
0.6     	0.5     	8.93e-06
0.6     	0.55    	8.9583e-06
0.6     	0.6     	8.9705e-06
0.6     	0.65    	8.9767e-06
0.6     	0.7     	8.9804e-06
0.65    	0       	9.1313e-11
0.65    	0.05    	1.9003e-06
0.65    	0.1     	3.6713e-06
0.65    	0.15    	5.1979e-06
0.65    	0.2     	6.4591e-06
0.65    	0.25    	7.3805e-06
0.65    	0.3     	8.1007e-06
0.65    	0.35    	8.6429e-06
0.65    	0.4     	8.9997e-06
0.65    	0.45    	9.252e-06
0.65    	0.5     	9.4059e-06
0.65    	0.55    	9.486e-06
0.65    	0.6     	9.5238e-06
0.65    	0.65    	9.5415e-06
0.65    	0.7     	9.5497e-06
0.7     	0       	3.1036e-11
0.7     	0.05    	1.9032e-06
0.7     	0.1     	3.6785e-06
0.7     	0.15    	5.2153e-06
0.7     	0.2     	6.4884e-06
0.7     	0.25    	7.4281e-06
0.7     	0.3     	8.1766e-06
0.7     	0.35    	8.7688e-06
0.7     	0.4     	9.1735e-06
0.7     	0.45    	9.4698e-06
0.7     	0.5     	9.6884e-06
0.7     	0.55    	9.8266e-06
0.7     	0.6     	9.9128e-06
0.7     	0.65    	9.9605e-06
0.7     	0.7     	9.9844e-06
