vg      	vd      	ids     
0       	0       	6.2421e-15
0       	0.05    	1.7512e-12
0       	0.1     	2.0052e-12
0       	0.15    	2.0444e-12
0       	0.2     	2.0521e-12
0       	0.25    	2.0551e-12
0       	0.3     	2.0573e-12
0       	0.35    	2.0593e-12
0       	0.4     	2.0611e-12
0       	0.45    	2.0628e-12
0       	0.5     	2.0644e-12
0       	0.55    	2.0659e-12
0       	0.6     	2.0674e-12
0       	0.65    	2.0688e-12
0       	0.7     	2.0701e-12
0.05    	0       	4.5441e-14
0.05    	0.05    	1.2017e-11
0.05    	0.1     	1.3789e-11
0.05    	0.15    	1.406e-11
0.05    	0.2     	1.4114e-11
0.05    	0.25    	1.4136e-11
0.05    	0.3     	1.4152e-11
0.05    	0.35    	1.4166e-11
0.05    	0.4     	1.4179e-11
0.05    	0.45    	1.4191e-11
0.05    	0.5     	1.4203e-11
0.05    	0.55    	1.4213e-11
0.05    	0.6     	1.4224e-11
0.05    	0.65    	1.4234e-11
0.05    	0.7     	1.4243e-11
0.1     	0       	2.7149e-13
0.1     	0.05    	8.2021e-11
0.1     	0.1     	9.4192e-11
0.1     	0.15    	9.6088e-11
0.1     	0.2     	9.6472e-11
0.1     	0.25    	9.6628e-11
0.1     	0.3     	9.6742e-11
0.1     	0.35    	9.6843e-11
0.1     	0.4     	9.6936e-11
0.1     	0.45    	9.7023e-11
0.1     	0.5     	9.7104e-11
0.1     	0.55    	9.718e-11
0.1     	0.6     	9.7252e-11
0.1     	0.65    	9.7321e-11
0.1     	0.7     	9.7386e-11
0.15    	0       	1.2179e-12
0.15    	0.05    	5.5593e-10
0.15    	0.1     	6.3915e-10
0.15    	0.15    	6.5226e-10
0.15    	0.2     	6.55e-10
0.15    	0.25    	6.5613e-10
0.15    	0.3     	6.5695e-10
0.15    	0.35    	6.5768e-10
0.15    	0.4     	6.5834e-10
0.15    	0.45    	6.5895e-10
0.15    	0.5     	6.5952e-10
0.15    	0.55    	6.6005e-10
0.15    	0.6     	6.6055e-10
0.15    	0.65    	6.6103e-10
0.15    	0.7     	6.6148e-10
0.2     	0       	2.3414e-12
0.2     	0.05    	3.7544e-09
0.2     	0.1     	4.3199e-09
0.2     	0.15    	4.4103e-09
0.2     	0.2     	4.4297e-09
0.2     	0.25    	4.4379e-09
0.2     	0.3     	4.4438e-09
0.2     	0.35    	4.449e-09
0.2     	0.4     	4.4537e-09
0.2     	0.45    	4.4579e-09
0.2     	0.5     	4.4619e-09
0.2     	0.55    	4.4656e-09
0.2     	0.6     	4.469e-09
0.2     	0.65    	4.4723e-09
0.2     	0.7     	4.4753e-09
0.25    	0       	3.9373e-12
0.25    	0.05    	2.4003e-08
0.25    	0.1     	2.7847e-08
0.25    	0.15    	2.847e-08
0.25    	0.2     	2.8605e-08
0.25    	0.25    	2.8661e-08
0.25    	0.3     	2.8702e-08
0.25    	0.35    	2.8736e-08
0.25    	0.4     	2.8767e-08
0.25    	0.45    	2.8795e-08
0.25    	0.5     	2.882e-08
0.25    	0.55    	2.8844e-08
0.25    	0.6     	2.8865e-08
0.25    	0.65    	2.8886e-08
0.25    	0.7     	2.8905e-08
0.3     	0       	3.3769e-11
0.3     	0.05    	1.2744e-07
0.3     	0.1     	1.5226e-07
0.3     	0.15    	1.5653e-07
0.3     	0.2     	1.5742e-07
0.3     	0.25    	1.5775e-07
0.3     	0.3     	1.5797e-07
0.3     	0.35    	1.5815e-07
0.3     	0.4     	1.5831e-07
0.3     	0.45    	1.5845e-07
0.3     	0.5     	1.5858e-07
0.3     	0.55    	1.5869e-07
0.3     	0.6     	1.588e-07
0.3     	0.65    	1.589e-07
0.3     	0.7     	1.5899e-07
0.35    	0       	1.2015e-10
0.35    	0.05    	4.2293e-07
0.35    	0.1     	5.5511e-07
0.35    	0.15    	5.8261e-07
0.35    	0.2     	5.8813e-07
0.35    	0.25    	5.897e-07
0.35    	0.3     	5.9052e-07
0.35    	0.35    	5.9112e-07
0.35    	0.4     	5.9163e-07
0.35    	0.45    	5.9207e-07
0.35    	0.5     	5.9246e-07
0.35    	0.55    	5.9282e-07
0.35    	0.6     	5.9314e-07
0.35    	0.65    	5.9343e-07
0.35    	0.7     	5.9371e-07
0.4     	0       	2.1887e-10
0.4     	0.05    	8.0037e-07
0.4     	0.1     	1.225e-06
0.4     	0.15    	1.3629e-06
0.4     	0.2     	1.395e-06
0.4     	0.25    	1.4026e-06
0.4     	0.3     	1.4052e-06
0.4     	0.35    	1.4066e-06
0.4     	0.4     	1.4077e-06
0.4     	0.45    	1.4086e-06
0.4     	0.5     	1.4095e-06
0.4     	0.55    	1.4102e-06
0.4     	0.6     	1.4109e-06
0.4     	0.65    	1.4114e-06
0.4     	0.7     	1.4119e-06
0.45    	0       	3.4265e-10
0.45    	0.05    	1.0861e-06
0.45    	0.1     	1.8678e-06
0.45    	0.15    	2.2772e-06
0.45    	0.2     	2.4189e-06
0.45    	0.25    	2.4579e-06
0.45    	0.3     	2.468e-06
0.45    	0.35    	2.4716e-06
0.45    	0.4     	2.4739e-06
0.45    	0.45    	2.4754e-06
0.45    	0.5     	2.4767e-06
0.45    	0.55    	2.4777e-06
0.45    	0.6     	2.4787e-06
0.45    	0.65    	2.4796e-06
0.45    	0.7     	2.4803e-06
0.5     	0       	4.6764e-10
0.5     	0.05    	1.269e-06
0.5     	0.1     	2.3215e-06
0.5     	0.15    	3.0491e-06
0.5     	0.2     	3.4358e-06
0.5     	0.25    	3.5818e-06
0.5     	0.3     	3.6243e-06
0.5     	0.35    	3.6374e-06
0.5     	0.4     	3.6421e-06
0.5     	0.45    	3.6446e-06
0.5     	0.5     	3.6466e-06
0.5     	0.55    	3.648e-06
0.5     	0.6     	3.6492e-06
0.5     	0.65    	3.6504e-06
0.5     	0.7     	3.6513e-06
0.55    	0       	5.2954e-10
0.55    	0.05    	1.3909e-06
0.55    	0.1     	2.6171e-06
0.55    	0.15    	3.5746e-06
0.55    	0.2     	4.2302e-06
0.55    	0.25    	4.5868e-06
0.55    	0.3     	4.7346e-06
0.55    	0.35    	4.784e-06
0.55    	0.4     	4.7994e-06
0.55    	0.45    	4.8057e-06
0.55    	0.5     	4.8087e-06
0.55    	0.55    	4.8108e-06
0.55    	0.6     	4.8123e-06
0.55    	0.65    	4.8136e-06
0.55    	0.7     	4.8148e-06
0.6     	0       	5.1002e-10
0.6     	0.05    	1.4154e-06
0.6     	0.1     	2.7542e-06
0.6     	0.15    	3.8906e-06
0.6     	0.2     	4.7477e-06
0.6     	0.25    	5.317e-06
0.6     	0.3     	5.6495e-06
0.6     	0.35    	5.7963e-06
0.6     	0.4     	5.8517e-06
0.6     	0.45    	5.8714e-06
0.6     	0.5     	5.8788e-06
0.6     	0.55    	5.8826e-06
0.6     	0.6     	5.8848e-06
0.6     	0.65    	5.8865e-06
0.6     	0.7     	5.8877e-06
0.65    	0       	5.0417e-10
0.65    	0.05    	1.4125e-06
0.65    	0.1     	2.7505e-06
0.65    	0.15    	3.9826e-06
0.65    	0.2     	4.9549e-06
0.65    	0.25    	5.7161e-06
0.65    	0.3     	6.2208e-06
0.65    	0.35    	6.5395e-06
0.65    	0.4     	6.6977e-06
0.65    	0.45    	6.764e-06
0.65    	0.5     	6.7889e-06
0.65    	0.55    	6.7988e-06
0.65    	0.6     	6.8037e-06
0.65    	0.65    	6.8063e-06
0.65    	0.7     	6.8081e-06
0.7     	0       	3.8964e-10
0.7     	0.05    	1.4008e-06
0.7     	0.1     	2.7413e-06
0.7     	0.15    	3.9614e-06
0.7     	0.2     	5.025e-06
0.7     	0.25    	5.8852e-06
0.7     	0.3     	6.4847e-06
0.7     	0.35    	6.9224e-06
0.7     	0.4     	7.205e-06
0.7     	0.45    	7.3663e-06
0.7     	0.5     	7.4455e-06
0.7     	0.55    	7.4803e-06
0.7     	0.6     	7.4945e-06
0.7     	0.65    	7.5014e-06
0.7     	0.7     	7.5053e-06
