vg      	vd      	ids     
0       	0       	-2.3853e-13
0       	0.05    	9.5883e-11
0       	0.1     	1.1147e-10
0       	0.15    	1.149e-10
0       	0.2     	1.1646e-10
0       	0.25    	1.1766e-10
0       	0.3     	1.1874e-10
0       	0.35    	1.1975e-10
0       	0.4     	1.2069e-10
0       	0.45    	1.2159e-10
0       	0.5     	1.2244e-10
0       	0.55    	1.2325e-10
0       	0.6     	1.2402e-10
0       	0.65    	1.2477e-10
0       	0.7     	1.2549e-10
0.05    	0       	-1.2036e-12
0.05    	0.05    	6.2947e-10
0.05    	0.1     	7.3306e-10
0.05    	0.15    	7.5623e-10
0.05    	0.2     	7.6669e-10
0.05    	0.25    	7.7469e-10
0.05    	0.3     	7.8182e-10
0.05    	0.35    	7.8842e-10
0.05    	0.4     	7.9461e-10
0.05    	0.45    	8.0046e-10
0.05    	0.5     	8.06e-10
0.05    	0.55    	8.1127e-10
0.05    	0.6     	8.163e-10
0.05    	0.65    	8.2111e-10
0.05    	0.7     	8.2573e-10
0.1     	0       	-7.8348e-12
0.1     	0.05    	4.0966e-09
0.1     	0.1     	4.7769e-09
0.1     	0.15    	4.9306e-09
0.1     	0.2     	4.9996e-09
0.1     	0.25    	5.0516e-09
0.1     	0.3     	5.0976e-09
0.1     	0.35    	5.1397e-09
0.1     	0.4     	5.1789e-09
0.1     	0.45    	5.2157e-09
0.1     	0.5     	5.2505e-09
0.1     	0.55    	5.2834e-09
0.1     	0.6     	5.3145e-09
0.1     	0.65    	5.3441e-09
0.1     	0.7     	5.3723e-09
0.15    	0       	-7.2509e-11
0.15    	0.05    	2.5257e-08
0.15    	0.1     	2.9655e-08
0.15    	0.15    	3.0634e-08
0.15    	0.2     	3.1052e-08
0.15    	0.25    	3.1356e-08
0.15    	0.3     	3.1621e-08
0.15    	0.35    	3.1859e-08
0.15    	0.4     	3.2079e-08
0.15    	0.45    	3.2282e-08
0.15    	0.5     	3.2472e-08
0.15    	0.55    	3.265e-08
0.15    	0.6     	3.2818e-08
0.15    	0.65    	3.2977e-08
0.15    	0.7     	3.3127e-08
0.2     	0       	-2.2734e-10
0.2     	0.05    	1.2722e-07
0.2     	0.1     	1.5308e-07
0.2     	0.15    	1.5858e-07
0.2     	0.2     	1.6057e-07
0.2     	0.25    	1.6187e-07
0.2     	0.3     	1.6295e-07
0.2     	0.35    	1.639e-07
0.2     	0.4     	1.6476e-07
0.2     	0.45    	1.6554e-07
0.2     	0.5     	1.6627e-07
0.2     	0.55    	1.6695e-07
0.2     	0.6     	1.6758e-07
0.2     	0.65    	1.6818e-07
0.2     	0.7     	1.6874e-07
0.25    	0       	-5.9832e-10
0.25    	0.05    	4.0545e-07
0.25    	0.1     	5.1725e-07
0.25    	0.15    	5.4116e-07
0.25    	0.2     	5.4807e-07
0.25    	0.25    	5.5165e-07
0.25    	0.3     	5.5432e-07
0.25    	0.35    	5.566e-07
0.25    	0.4     	5.586e-07
0.25    	0.45    	5.6039e-07
0.25    	0.5     	5.6202e-07
0.25    	0.55    	5.6352e-07
0.25    	0.6     	5.6491e-07
0.25    	0.65    	5.6619e-07
0.25    	0.7     	5.674e-07
0.3     	0       	-1.0026e-09
0.3     	0.05    	8.1091e-07
0.3     	0.1     	1.1222e-06
0.3     	0.15    	1.1984e-06
0.3     	0.2     	1.2195e-06
0.3     	0.25    	1.2274e-06
0.3     	0.3     	1.2324e-06
0.3     	0.35    	1.2363e-06
0.3     	0.4     	1.2397e-06
0.3     	0.45    	1.2426e-06
0.3     	0.5     	1.2452e-06
0.3     	0.55    	1.2476e-06
0.3     	0.6     	1.2498e-06
0.3     	0.65    	1.2518e-06
0.3     	0.7     	1.2536e-06
0.35    	0       	-1.3297e-09
0.35    	0.05    	1.2242e-06
0.35    	0.1     	1.8386e-06
0.35    	0.15    	2.0271e-06
0.35    	0.2     	2.0771e-06
0.35    	0.25    	2.0928e-06
0.35    	0.3     	2.1011e-06
0.35    	0.35    	2.107e-06
0.35    	0.4     	2.1119e-06
0.35    	0.45    	2.1161e-06
0.35    	0.5     	2.1198e-06
0.35    	0.55    	2.123e-06
0.35    	0.6     	2.126e-06
0.35    	0.65    	2.1287e-06
0.35    	0.7     	2.1311e-06
0.4     	0       	-1.5763e-09
0.4     	0.05    	1.5898e-06
0.4     	0.1     	2.5587e-06
0.4     	0.15    	2.9301e-06
0.4     	0.2     	3.037e-06
0.4     	0.25    	3.0699e-06
0.4     	0.3     	3.0833e-06
0.4     	0.35    	3.0917e-06
0.4     	0.4     	3.0983e-06
0.4     	0.45    	3.1037e-06
0.4     	0.5     	3.1084e-06
0.4     	0.55    	3.1126e-06
0.4     	0.6     	3.1163e-06
0.4     	0.65    	3.1196e-06
0.4     	0.7     	3.1231e-06
0.45    	0       	-1.7619e-09
0.45    	0.05    	1.8978e-06
0.45    	0.1     	3.2234e-06
0.45    	0.15    	3.8445e-06
0.45    	0.2     	4.0533e-06
0.45    	0.25    	4.1108e-06
0.45    	0.3     	4.1339e-06
0.45    	0.35    	4.1459e-06
0.45    	0.4     	4.1543e-06
0.45    	0.45    	4.1611e-06
0.45    	0.5     	4.1669e-06
0.45    	0.55    	4.1719e-06
0.45    	0.6     	4.1763e-06
0.45    	0.65    	4.1803e-06
0.45    	0.7     	4.1839e-06
0.5     	0       	-1.9033e-09
0.5     	0.05    	2.1545e-06
0.5     	0.1     	3.8064e-06
0.5     	0.15    	4.7238e-06
0.5     	0.2     	5.0817e-06
0.5     	0.25    	5.1898e-06
0.5     	0.3     	5.225e-06
0.5     	0.35    	5.2417e-06
0.5     	0.4     	5.2537e-06
0.5     	0.45    	5.2622e-06
0.5     	0.5     	5.2691e-06
0.5     	0.55    	5.275e-06
0.5     	0.6     	5.2802e-06
0.5     	0.65    	5.2848e-06
0.5     	0.7     	5.2889e-06
0.55    	0       	-2.0124e-09
0.55    	0.05    	2.3691e-06
0.55    	0.1     	4.3034e-06
0.55    	0.15    	5.5343e-06
0.55    	0.2     	6.0919e-06
0.55    	0.25    	6.279e-06
0.55    	0.3     	6.3409e-06
0.55    	0.35    	6.3652e-06
0.55    	0.4     	6.3792e-06
0.55    	0.45    	6.3893e-06
0.55    	0.5     	6.3982e-06
0.55    	0.55    	6.4053e-06
0.55    	0.6     	6.4112e-06
0.55    	0.65    	6.4163e-06
0.55    	0.7     	6.4209e-06
0.6     	0       	-2.0975e-09
0.6     	0.05    	2.5499e-06
0.6     	0.1     	4.721e-06
0.6     	0.15    	6.2544e-06
0.6     	0.2     	7.0351e-06
0.6     	0.25    	7.3578e-06
0.6     	0.3     	7.4618e-06
0.6     	0.35    	7.5011e-06
0.6     	0.4     	7.5198e-06
0.6     	0.45    	7.532e-06
0.6     	0.5     	7.5414e-06
0.6     	0.55    	7.5492e-06
0.6     	0.6     	7.5558e-06
0.6     	0.65    	7.5621e-06
0.6     	0.7     	7.5674e-06
0.65    	0       	-2.164e-09
0.65    	0.05    	2.7033e-06
0.65    	0.1     	5.0704e-06
0.65    	0.15    	6.8654e-06
0.65    	0.2     	7.9132e-06
0.65    	0.25    	8.4027e-06
0.65    	0.3     	8.5791e-06
0.65    	0.35    	8.6369e-06
0.65    	0.4     	8.6625e-06
0.65    	0.45    	8.6789e-06
0.65    	0.5     	8.6902e-06
0.65    	0.55    	8.699e-06
0.65    	0.6     	8.7064e-06
0.65    	0.65    	8.7127e-06
0.65    	0.7     	8.7187e-06
0.7     	0       	-2.216e-09
0.7     	0.05    	2.8345e-06
0.7     	0.1     	5.3639e-06
0.7     	0.15    	7.3823e-06
0.7     	0.2     	8.6959e-06
0.7     	0.25    	9.3889e-06
0.7     	0.3     	9.6701e-06
0.7     	0.35    	9.7674e-06
0.7     	0.4     	9.8048e-06
0.7     	0.45    	9.8243e-06
0.7     	0.5     	9.8373e-06
0.7     	0.55    	9.8481e-06
0.7     	0.6     	9.8566e-06
0.7     	0.65    	9.8635e-06
0.7     	0.7     	9.8695e-06
