vg      	vd      	ids     
0       	0       	-1.0139e-20
0       	0.05    	2.5771e-17
0       	0.1     	2.9549e-17
0       	0.15    	3.0127e-17
0       	0.2     	3.0241e-17
0       	0.25    	3.0286e-17
0       	0.3     	3.0319e-17
0       	0.35    	3.0348e-17
0       	0.4     	3.0372e-17
0       	0.45    	3.0393e-17
0       	0.5     	3.0405e-17
0       	0.55    	3.0409e-17
0       	0.6     	3.041e-17
0       	0.65    	3.041e-17
0       	0.7     	3.0411e-17
0.05    	0       	-5.5673e-20
0.05    	0.05    	1.7681e-16
0.05    	0.1     	2.0282e-16
0.05    	0.15    	2.0683e-16
0.05    	0.2     	2.0763e-16
0.05    	0.25    	2.0796e-16
0.05    	0.3     	2.082e-16
0.05    	0.35    	2.0841e-16
0.05    	0.4     	2.086e-16
0.05    	0.45    	2.0877e-16
0.05    	0.5     	2.0891e-16
0.05    	0.55    	2.0899e-16
0.05    	0.6     	2.0902e-16
0.05    	0.65    	2.0902e-16
0.05    	0.7     	2.0903e-16
0.1     	0       	8.8818e-20
0.1     	0.05    	1.2252e-15
0.1     	0.1     	1.4037e-15
0.1     	0.15    	1.4315e-15
0.1     	0.2     	1.4371e-15
0.1     	0.25    	1.4395e-15
0.1     	0.3     	1.4412e-15
0.1     	0.35    	1.4428e-15
0.1     	0.4     	1.4442e-15
0.1     	0.45    	1.4455e-15
0.1     	0.5     	1.4467e-15
0.1     	0.55    	1.4476e-15
0.1     	0.6     	1.4482e-15
0.1     	0.65    	1.4484e-15
0.1     	0.7     	1.4484e-15
0.15    	0       	2.1732e-18
0.15    	0.05    	8.4094e-15
0.15    	0.1     	9.6465e-15
0.15    	0.15    	9.8376e-15
0.15    	0.2     	9.8773e-15
0.15    	0.25    	9.894e-15
0.15    	0.3     	9.9066e-15
0.15    	0.35    	9.918e-15
0.15    	0.4     	9.9285e-15
0.15    	0.45    	9.9382e-15
0.15    	0.5     	9.947e-15
0.15    	0.55    	9.9548e-15
0.15    	0.6     	9.9611e-15
0.15    	0.65    	9.9648e-15
0.15    	0.7     	9.9663e-15
0.2     	0       	3.0307e-17
0.2     	0.05    	5.8129e-14
0.2     	0.1     	6.6625e-14
0.2     	0.15    	6.7954e-14
0.2     	0.2     	6.8232e-14
0.2     	0.25    	6.8353e-14
0.2     	0.3     	6.8445e-14
0.2     	0.35    	6.8528e-14
0.2     	0.4     	6.8604e-14
0.2     	0.45    	6.8676e-14
0.2     	0.5     	6.8741e-14
0.2     	0.55    	6.8801e-14
0.2     	0.6     	6.8853e-14
0.2     	0.65    	6.8896e-14
0.2     	0.7     	6.8922e-14
0.25    	0       	3.0832e-16
0.25    	0.05    	3.9924e-13
0.25    	0.1     	4.5798e-13
0.25    	0.15    	4.6716e-13
0.25    	0.2     	4.6912e-13
0.25    	0.25    	4.6999e-13
0.25    	0.3     	4.7066e-13
0.25    	0.35    	4.7125e-13
0.25    	0.4     	4.7181e-13
0.25    	0.45    	4.7232e-13
0.25    	0.5     	4.728e-13
0.25    	0.55    	4.7324e-13
0.25    	0.6     	4.7365e-13
0.25    	0.65    	4.74e-13
0.25    	0.7     	4.7429e-13
0.3     	0       	2.7593e-15
0.3     	0.05    	2.7357e-12
0.3     	0.1     	3.1393e-12
0.3     	0.15    	3.2031e-12
0.3     	0.2     	3.2169e-12
0.3     	0.25    	3.2232e-12
0.3     	0.3     	3.228e-12
0.3     	0.35    	3.2323e-12
0.3     	0.4     	3.2363e-12
0.3     	0.45    	3.24e-12
0.3     	0.5     	3.2434e-12
0.3     	0.55    	3.2466e-12
0.3     	0.6     	3.2496e-12
0.3     	0.65    	3.2523e-12
0.3     	0.7     	3.2546e-12
0.35    	0       	2.3834e-14
0.35    	0.05    	1.8939e-11
0.35    	0.1     	2.1707e-11
0.35    	0.15    	2.2149e-11
0.35    	0.2     	2.2247e-11
0.35    	0.25    	2.2293e-11
0.35    	0.3     	2.2328e-11
0.35    	0.35    	2.2359e-11
0.35    	0.4     	2.2388e-11
0.35    	0.45    	2.2415e-11
0.35    	0.5     	2.244e-11
0.35    	0.55    	2.2463e-11
0.35    	0.6     	2.2484e-11
0.35    	0.65    	2.2504e-11
0.35    	0.7     	2.2522e-11
0.4     	0       	2.1947e-13
0.4     	0.05    	1.294e-10
0.4     	0.1     	1.4861e-10
0.4     	0.15    	1.5166e-10
0.4     	0.2     	1.5236e-10
0.4     	0.25    	1.5269e-10
0.4     	0.3     	1.5295e-10
0.4     	0.35    	1.5317e-10
0.4     	0.4     	1.5338e-10
0.4     	0.45    	1.5357e-10
0.4     	0.5     	1.5375e-10
0.4     	0.55    	1.5391e-10
0.4     	0.6     	1.5407e-10
0.4     	0.65    	1.5421e-10
0.4     	0.7     	1.5434e-10
0.45    	0       	1.3286e-12
0.45    	0.05    	8.9069e-10
0.45    	0.1     	1.0223e-09
0.45    	0.15    	1.0437e-09
0.45    	0.2     	1.0487e-09
0.45    	0.25    	1.0511e-09
0.45    	0.3     	1.053e-09
0.45    	0.35    	1.0546e-09
0.45    	0.4     	1.0561e-09
0.45    	0.45    	1.0574e-09
0.45    	0.5     	1.0587e-09
0.45    	0.55    	1.0599e-09
0.45    	0.6     	1.0609e-09
0.45    	0.65    	1.0619e-09
0.45    	0.7     	1.0629e-09
0.5     	0       	8.2726e-12
0.5     	0.05    	5.9649e-09
0.5     	0.1     	6.8738e-09
0.5     	0.15    	7.0226e-09
0.5     	0.2     	7.0585e-09
0.5     	0.25    	7.0758e-09
0.5     	0.3     	7.0889e-09
0.5     	0.35    	7.1002e-09
0.5     	0.4     	7.1104e-09
0.5     	0.45    	7.1197e-09
0.5     	0.5     	7.1281e-09
0.5     	0.55    	7.136e-09
0.5     	0.6     	7.1432e-09
0.5     	0.65    	7.15e-09
0.5     	0.7     	7.1562e-09
0.55    	0       	4.1696e-11
0.55    	0.05    	3.6355e-08
0.55    	0.1     	4.2479e-08
0.55    	0.15    	4.3508e-08
0.55    	0.2     	4.3753e-08
0.55    	0.25    	4.3865e-08
0.55    	0.3     	4.3946e-08
0.55    	0.35    	4.4015e-08
0.55    	0.4     	4.4075e-08
0.55    	0.45    	4.4129e-08
0.55    	0.5     	4.4178e-08
0.55    	0.55    	4.4223e-08
0.55    	0.6     	4.4264e-08
0.55    	0.65    	4.4303e-08
0.55    	0.7     	4.4338e-08
0.6     	0       	1.3631e-10
0.6     	0.05    	1.5304e-07
0.6     	0.1     	1.9055e-07
0.6     	0.15    	1.9736e-07
0.6     	0.2     	1.9885e-07
0.6     	0.25    	1.994e-07
0.6     	0.3     	1.9975e-07
0.6     	0.35    	2.0002e-07
0.6     	0.4     	2.0026e-07
0.6     	0.45    	2.0048e-07
0.6     	0.5     	2.0067e-07
0.6     	0.55    	2.0083e-07
0.6     	0.6     	2.0098e-07
0.6     	0.65    	2.0111e-07
0.6     	0.7     	2.0124e-07
0.65    	0       	2.4756e-10
0.65    	0.05    	3.4348e-07
0.65    	0.1     	4.9982e-07
0.65    	0.15    	5.4018e-07
0.65    	0.2     	5.4874e-07
0.65    	0.25    	5.5105e-07
0.65    	0.3     	5.5222e-07
0.65    	0.35    	5.5291e-07
0.65    	0.4     	5.5346e-07
0.65    	0.45    	5.5392e-07
0.65    	0.5     	5.5437e-07
0.65    	0.55    	5.5472e-07
0.65    	0.6     	5.5504e-07
0.65    	0.65    	5.5532e-07
0.65    	0.7     	5.5558e-07
0.7     	0       	3.3943e-10
0.7     	0.05    	4.9392e-07
0.7     	0.1     	8.3122e-07
0.7     	0.15    	9.847e-07
0.7     	0.2     	1.0315e-06
0.7     	0.25    	1.0428e-06
0.7     	0.3     	1.046e-06
0.7     	0.35    	1.0476e-06
0.7     	0.4     	1.0487e-06
0.7     	0.45    	1.0495e-06
0.7     	0.5     	1.0502e-06
0.7     	0.55    	1.0508e-06
0.7     	0.6     	1.0513e-06
0.7     	0.65    	1.0517e-06
0.7     	0.7     	1.0521e-06
