vg      	vd      	ids     
0       	0       	2.3845e-14
0       	0.05    	1.4158e-12
0       	0.1     	1.6539e-12
0       	0.15    	1.7206e-12
0       	0.2     	1.761e-12
0       	0.25    	1.7965e-12
0       	0.3     	1.8304e-12
0       	0.35    	1.8631e-12
0       	0.4     	1.8945e-12
0       	0.45    	1.9242e-12
0       	0.5     	1.9518e-12
0       	0.55    	1.9771e-12
0       	0.6     	2.0001e-12
0       	0.65    	2.0215e-12
0       	0.7     	2.0415e-12
0.05    	0       	1.5649e-13
0.05    	0.05    	9.2373e-12
0.05    	0.1     	1.0816e-11
0.05    	0.15    	1.1265e-11
0.05    	0.2     	1.1539e-11
0.05    	0.25    	1.1777e-11
0.05    	0.3     	1.2e-11 
0.05    	0.35    	1.221e-11
0.05    	0.4     	1.2405e-11
0.05    	0.45    	1.2583e-11
0.05    	0.5     	1.2746e-11
0.05    	0.55    	1.2896e-11
0.05    	0.6     	1.3036e-11
0.05    	0.65    	1.317e-11
0.05    	0.7     	1.3297e-11
0.1     	0       	1.06e-12
0.1     	0.05    	6.0169e-11
0.1     	0.1     	7.051e-11
0.1     	0.15    	7.3518e-11
0.1     	0.2     	7.5356e-11
0.1     	0.25    	7.6932e-11
0.1     	0.3     	7.8361e-11
0.1     	0.35    	7.9647e-11
0.1     	0.4     	8.0799e-11
0.1     	0.45    	8.1844e-11
0.1     	0.5     	8.2814e-11
0.1     	0.55    	8.3733e-11
0.1     	0.6     	8.4615e-11
0.1     	0.65    	8.5467e-11
0.1     	0.7     	8.6294e-11
0.15    	0       	7.6791e-12
0.15    	0.05    	3.7993e-10
0.15    	0.1     	4.4724e-10
0.15    	0.15    	4.6678e-10
0.15    	0.2     	4.7856e-10
0.15    	0.25    	4.8833e-10
0.15    	0.3     	4.9681e-10
0.15    	0.35    	5.0423e-10
0.15    	0.4     	5.1089e-10
0.15    	0.45    	5.1707e-10
0.15    	0.5     	5.2293e-10
0.15    	0.55    	5.2858e-10
0.15    	0.6     	5.3409e-10
0.15    	0.65    	5.3946e-10
0.15    	0.7     	5.4472e-10
0.2     	0       	5.2254e-11
0.2     	0.05    	2.3448e-09
0.2     	0.1     	2.7689e-09
0.2     	0.15    	2.8921e-09
0.2     	0.2     	2.9622e-09
0.2     	0.25    	3.0175e-09
0.2     	0.3     	3.065e-09
0.2     	0.35    	3.1076e-09
0.2     	0.4     	3.147e-09
0.2     	0.45    	3.1841e-09
0.2     	0.5     	3.2197e-09
0.2     	0.55    	3.2542e-09
0.2     	0.6     	3.288e-09
0.2     	0.65    	3.3212e-09
0.2     	0.7     	3.3537e-09
0.25    	0       	3.1249e-10
0.25    	0.05    	1.405e-08
0.25    	0.1     	1.6643e-08
0.25    	0.15    	1.7363e-08
0.25    	0.2     	1.7739e-08
0.25    	0.25    	1.8033e-08
0.25    	0.3     	1.8295e-08
0.25    	0.35    	1.854e-08
0.25    	0.4     	1.877e-08
0.25    	0.45    	1.8989e-08
0.25    	0.5     	1.9199e-08
0.25    	0.55    	1.9401e-08
0.25    	0.6     	1.9599e-08
0.25    	0.65    	1.9793e-08
0.25    	0.7     	1.9983e-08
0.3     	0       	1.5247e-09
0.3     	0.05    	7.4388e-08
0.3     	0.1     	8.9305e-08
0.3     	0.15    	9.3089e-08
0.3     	0.2     	9.4884e-08
0.3     	0.25    	9.627e-08
0.3     	0.3     	9.7522e-08
0.3     	0.35    	9.8695e-08
0.3     	0.4     	9.9796e-08
0.3     	0.45    	1.0083e-07
0.3     	0.5     	1.0179e-07
0.3     	0.55    	1.027e-07
0.3     	0.6     	1.0355e-07
0.3     	0.65    	1.0435e-07
0.3     	0.7     	1.051e-07
0.35    	0       	4.8328e-09
0.35    	0.05    	2.7976e-07
0.35    	0.1     	3.5061e-07
0.35    	0.15    	3.6725e-07
0.35    	0.2     	3.7336e-07
0.35    	0.25    	3.7726e-07
0.35    	0.3     	3.8047e-07
0.35    	0.35    	3.833e-07
0.35    	0.4     	3.8585e-07
0.35    	0.45    	3.8818e-07
0.35    	0.5     	3.9031e-07
0.35    	0.55    	3.9229e-07
0.35    	0.6     	3.9415e-07
0.35    	0.65    	3.9592e-07
0.35    	0.7     	3.9761e-07
0.4     	0       	9.3641e-09
0.4     	0.05    	6.5165e-07
0.4     	0.1     	8.8282e-07
0.4     	0.15    	9.3875e-07
0.4     	0.2     	9.5428e-07
0.4     	0.25    	9.616e-07
0.4     	0.3     	9.6688e-07
0.4     	0.35    	9.714e-07
0.4     	0.4     	9.7545e-07
0.4     	0.45    	9.7914e-07
0.4     	0.5     	9.8253e-07
0.4     	0.55    	9.8566e-07
0.4     	0.6     	9.8856e-07
0.4     	0.65    	9.9127e-07
0.4     	0.7     	9.9384e-07
0.45    	0       	1.3484e-08
0.45    	0.05    	1.0653e-06
0.45    	0.1     	1.5817e-06
0.45    	0.15    	1.7313e-06
0.45    	0.2     	1.7692e-06
0.45    	0.25    	1.7826e-06
0.45    	0.3     	1.7903e-06
0.45    	0.35    	1.7963e-06
0.45    	0.4     	1.8015e-06
0.45    	0.45    	1.8061e-06
0.45    	0.5     	1.8102e-06
0.45    	0.55    	1.814e-06
0.45    	0.6     	1.8175e-06
0.45    	0.65    	1.8207e-06
0.45    	0.7     	1.8237e-06
0.5     	0       	1.6767e-08
0.5     	0.05    	1.4471e-06
0.5     	0.1     	2.3097e-06
0.5     	0.15    	2.6329e-06
0.5     	0.2     	2.7187e-06
0.5     	0.25    	2.7466e-06
0.5     	0.3     	2.757e-06
0.5     	0.35    	2.7654e-06
0.5     	0.4     	2.7721e-06
0.5     	0.45    	2.7773e-06
0.5     	0.5     	2.7823e-06
0.5     	0.55    	2.7865e-06
0.5     	0.6     	2.7905e-06
0.5     	0.65    	2.7941e-06
0.5     	0.7     	2.7975e-06
0.55    	0       	1.9376e-08
0.55    	0.05    	1.7677e-06
0.55    	0.1     	2.9834e-06
0.55    	0.15    	3.5642e-06
0.55    	0.2     	3.747e-06
0.55    	0.25    	3.7928e-06
0.55    	0.3     	3.8125e-06
0.55    	0.35    	3.8241e-06
0.55    	0.4     	3.8293e-06
0.55    	0.45    	3.8389e-06
0.55    	0.5     	3.8423e-06
0.55    	0.55    	3.8453e-06
0.55    	0.6     	3.853e-06
0.55    	0.65    	3.8549e-06
0.55    	0.7     	3.8604e-06
0.6     	0       	2.1473e-08
0.6     	0.05    	2.0353e-06
0.6     	0.1     	3.5747e-06
0.6     	0.15    	4.4573e-06
0.6     	0.2     	4.7915e-06
0.6     	0.25    	4.8865e-06
0.6     	0.3     	4.9189e-06
0.6     	0.35    	4.9343e-06
0.6     	0.4     	4.9452e-06
0.6     	0.45    	4.9523e-06
0.6     	0.5     	4.9582e-06
0.6     	0.55    	4.9634e-06
0.6     	0.6     	4.9674e-06
0.6     	0.65    	4.9716e-06
0.6     	0.7     	4.9755e-06
0.65    	0       	2.3198e-08
0.65    	0.05    	2.26e-06
0.65    	0.1     	4.0784e-06
0.65    	0.15    	5.2667e-06
0.65    	0.2     	5.8161e-06
0.65    	0.25    	5.9948e-06
0.65    	0.3     	6.0612e-06
0.65    	0.35    	6.0807e-06
0.65    	0.4     	6.093e-06
0.65    	0.45    	6.0996e-06
0.65    	0.5     	6.1075e-06
0.65    	0.55    	6.1118e-06
0.65    	0.6     	6.1181e-06
0.65    	0.65    	6.1204e-06
0.65    	0.7     	6.1216e-06
0.7     	0       	2.4647e-08
0.7     	0.05    	2.4486e-06
0.7     	0.1     	4.4954e-06
0.7     	0.15    	5.9716e-06
0.7     	0.2     	6.7911e-06
0.7     	0.25    	7.1057e-06
0.7     	0.3     	7.1976e-06
0.7     	0.35    	7.2284e-06
0.7     	0.4     	7.2583e-06
0.7     	0.45    	7.2684e-06
0.7     	0.5     	7.2755e-06
0.7     	0.55    	7.2761e-06
0.7     	0.6     	7.2778e-06
0.7     	0.65    	7.2917e-06
0.7     	0.7     	7.2955e-06
