vg      	vd      	ids     
0       	0       	-3.5762e-20
0       	0.05    	2.2903e-17
0       	0.1     	2.6251e-17
0       	0.15    	2.6738e-17
0       	0.2     	2.6809e-17
0       	0.25    	2.6819e-17
0       	0.3     	2.682e-17
0       	0.35    	2.6821e-17
0       	0.4     	2.6821e-17
0       	0.45    	2.6821e-17
0       	0.5     	2.6821e-17
0       	0.55    	2.6821e-17
0       	0.6     	2.6821e-17
0       	0.65    	2.6821e-17
0       	0.7     	2.6821e-17
0.05    	0       	-2.216e-19
0.05    	0.05    	1.5737e-16
0.05    	0.1     	1.8036e-16
0.05    	0.15    	1.8374e-16
0.05    	0.2     	1.8424e-16
0.05    	0.25    	1.8431e-16
0.05    	0.3     	1.8432e-16
0.05    	0.35    	1.8432e-16
0.05    	0.4     	1.8432e-16
0.05    	0.45    	1.8432e-16
0.05    	0.5     	1.8432e-16
0.05    	0.55    	1.8432e-16
0.05    	0.6     	1.8432e-16
0.05    	0.65    	1.8432e-16
0.05    	0.7     	1.8432e-16
0.1     	0       	-1.4006e-18
0.1     	0.05    	1.079e-15
0.1     	0.1     	1.2371e-15
0.1     	0.15    	1.2604e-15
0.1     	0.2     	1.264e-15
0.1     	0.25    	1.2645e-15
0.1     	0.3     	1.2646e-15
0.1     	0.35    	1.2646e-15
0.1     	0.4     	1.2646e-15
0.1     	0.45    	1.2646e-15
0.1     	0.5     	1.2646e-15
0.1     	0.55    	1.2646e-15
0.1     	0.6     	1.2646e-15
0.1     	0.65    	1.2646e-15
0.1     	0.7     	1.2646e-15
0.15    	0       	-7.9691e-18
0.15    	0.05    	7.4528e-15
0.15    	0.1     	8.5366e-15
0.15    	0.15    	8.6974e-15
0.15    	0.2     	8.7229e-15
0.15    	0.25    	8.7279e-15
0.15    	0.3     	8.729e-15
0.15    	0.35    	8.7292e-15
0.15    	0.4     	8.7292e-15
0.15    	0.45    	8.7293e-15
0.15    	0.5     	8.7293e-15
0.15    	0.55    	8.7293e-15
0.15    	0.6     	8.7293e-15
0.15    	0.65    	8.7293e-15
0.15    	0.7     	8.7293e-15
0.2     	0       	-4.9427e-17
0.2     	0.05    	5.1131e-14
0.2     	0.1     	5.8617e-14
0.2     	0.15    	5.9723e-14
0.2     	0.2     	5.9904e-14
0.2     	0.25    	5.9945e-14
0.2     	0.3     	5.996e-14
0.2     	0.35    	5.9965e-14
0.2     	0.4     	5.9965e-14
0.2     	0.45    	5.9966e-14
0.2     	0.5     	5.9966e-14
0.2     	0.55    	5.9966e-14
0.2     	0.6     	5.9966e-14
0.2     	0.65    	5.9966e-14
0.2     	0.7     	5.9966e-14
0.25    	0       	-2.1989e-16
0.25    	0.05    	3.5342e-13
0.25    	0.1     	4.0481e-13
0.25    	0.15    	4.1247e-13
0.25    	0.2     	4.1375e-13
0.25    	0.25    	4.1407e-13
0.25    	0.3     	4.1422e-13
0.25    	0.35    	4.143e-13
0.25    	0.4     	4.1433e-13
0.25    	0.45    	4.1433e-13
0.25    	0.5     	4.1433e-13
0.25    	0.55    	4.1433e-13
0.25    	0.6     	4.1433e-13
0.25    	0.65    	4.1433e-13
0.25    	0.7     	4.1433e-13
0.3     	0       	-1.0053e-15
0.3     	0.05    	2.4232e-12
0.3     	0.1     	2.7787e-12
0.3     	0.15    	2.8315e-12
0.3     	0.2     	2.8405e-12
0.3     	0.25    	2.8429e-12
0.3     	0.3     	2.8442e-12
0.3     	0.35    	2.845e-12
0.3     	0.4     	2.8456e-12
0.3     	0.45    	2.8458e-12
0.3     	0.5     	2.8458e-12
0.3     	0.55    	2.8458e-12
0.3     	0.6     	2.8458e-12
0.3     	0.65    	2.8458e-12
0.3     	0.7     	2.8458e-12
0.35    	0       	3.7423e-16
0.35    	0.05    	1.6757e-11
0.35    	0.1     	1.9198e-11
0.35    	0.15    	1.9565e-11
0.35    	0.2     	1.9628e-11
0.35    	0.25    	1.9646e-11
0.35    	0.3     	1.9657e-11
0.35    	0.35    	1.9664e-11
0.35    	0.4     	1.967e-11
0.35    	0.45    	1.9674e-11
0.35    	0.5     	1.9676e-11
0.35    	0.55    	1.9676e-11
0.35    	0.6     	1.9676e-11
0.35    	0.65    	1.9676e-11
0.35    	0.7     	1.9676e-11
0.4     	0       	4.5502e-14
0.4     	0.05    	1.1559e-10
0.4     	0.1     	1.3246e-10
0.4     	0.15    	1.35e-10
0.4     	0.2     	1.3545e-10
0.4     	0.25    	1.3558e-10
0.4     	0.3     	1.3566e-10
0.4     	0.35    	1.3573e-10
0.4     	0.4     	1.3578e-10
0.4     	0.45    	1.3582e-10
0.4     	0.5     	1.3585e-10
0.4     	0.55    	1.3586e-10
0.4     	0.6     	1.3586e-10
0.4     	0.65    	1.3586e-10
0.4     	0.7     	1.3586e-10
0.45    	0       	6.288e-13
0.45    	0.05    	7.906e-10
0.45    	0.1     	9.071e-10
0.45    	0.15    	9.2478e-10
0.45    	0.2     	9.2799e-10
0.45    	0.25    	9.2902e-10
0.45    	0.3     	9.2965e-10
0.45    	0.35    	9.3017e-10
0.45    	0.4     	9.306e-10
0.45    	0.45    	9.3097e-10
0.45    	0.5     	9.3125e-10
0.45    	0.55    	9.3143e-10
0.45    	0.6     	9.3149e-10
0.45    	0.65    	9.315e-10
0.45    	0.7     	9.3151e-10
0.5     	0       	5.459e-12
0.5     	0.05    	5.3832e-09
0.5     	0.1     	6.1819e-09
0.5     	0.15    	6.3055e-09
0.5     	0.2     	6.3289e-09
0.5     	0.25    	6.3367e-09
0.5     	0.3     	6.3416e-09
0.5     	0.35    	6.3456e-09
0.5     	0.4     	6.349e-09
0.5     	0.45    	6.352e-09
0.5     	0.5     	6.3544e-09
0.5     	0.55    	6.3564e-09
0.5     	0.6     	6.3575e-09
0.5     	0.65    	6.3579e-09
0.5     	0.7     	6.358e-09
0.55    	0       	3.6393e-11
0.55    	0.05    	3.3909e-08
0.55    	0.1     	3.938e-08
0.55    	0.15    	4.025e-08
0.55    	0.2     	4.0419e-08
0.55    	0.25    	4.0476e-08
0.55    	0.3     	4.0512e-08
0.55    	0.35    	4.054e-08
0.55    	0.4     	4.0563e-08
0.55    	0.45    	4.0585e-08
0.55    	0.5     	4.0603e-08
0.55    	0.55    	4.0618e-08
0.55    	0.6     	4.0629e-08
0.55    	0.65    	4.0636e-08
0.55    	0.7     	4.0638e-08
0.6     	0       	1.5872e-10
0.6     	0.05    	1.5681e-07
0.6     	0.1     	1.9247e-07
0.6     	0.15    	1.987e-07
0.6     	0.2     	1.9991e-07
0.6     	0.25    	2.0027e-07
0.6     	0.3     	2.0047e-07
0.6     	0.35    	2.0061e-07
0.6     	0.4     	2.0074e-07
0.6     	0.45    	2.0084e-07
0.6     	0.5     	2.0092e-07
0.6     	0.55    	2.0099e-07
0.6     	0.6     	2.0105e-07
0.6     	0.65    	2.0109e-07
0.6     	0.7     	2.0111e-07
0.65    	0       	3.4568e-10
0.65    	0.05    	3.856e-07
0.65    	0.1     	5.53e-07
0.65    	0.15    	5.9768e-07
0.65    	0.2     	6.0658e-07
0.65    	0.25    	6.0887e-07
0.65    	0.3     	6.0966e-07
0.65    	0.35    	6.1013e-07
0.65    	0.4     	6.1047e-07
0.65    	0.45    	6.1077e-07
0.65    	0.5     	6.1099e-07
0.65    	0.55    	6.1117e-07
0.65    	0.6     	6.1132e-07
0.65    	0.65    	6.114e-07
0.65    	0.7     	6.1144e-07
0.7     	0       	5.0612e-10
0.7     	0.05    	5.5787e-07
0.7     	0.1     	9.4735e-07
0.7     	0.15    	1.1387e-06
0.7     	0.2     	1.202e-06
0.7     	0.25    	1.2181e-06
0.7     	0.3     	1.2224e-06
0.7     	0.35    	1.224e-06
0.7     	0.4     	1.2248e-06
0.7     	0.45    	1.2254e-06
0.7     	0.5     	1.2258e-06
0.7     	0.55    	1.2262e-06
0.7     	0.6     	1.2263e-06
0.7     	0.65    	1.2264e-06
0.7     	0.7     	1.2264e-06
