vg      	vd      	ids     
0       	0       	2.2769e-15
0       	0.05    	2.4665e-12
0       	0.1     	2.8294e-12
0       	0.15    	2.886e-12
0       	0.2     	2.8977e-12
0       	0.25    	2.9027e-12
0       	0.3     	2.9064e-12
0       	0.35    	2.9098e-12
0       	0.4     	2.913e-12
0       	0.45    	2.9159e-12
0       	0.5     	2.9187e-12
0       	0.55    	2.9213e-12
0       	0.6     	2.9238e-12
0       	0.65    	2.9262e-12
0       	0.7     	2.9285e-12
0.05    	0       	8.651e-15
0.05    	0.05    	1.7064e-11
0.05    	0.1     	1.9561e-11
0.05    	0.15    	1.9953e-11
0.05    	0.2     	2.0037e-11
0.05    	0.25    	2.0073e-11
0.05    	0.3     	2.0101e-11
0.05    	0.35    	2.0125e-11
0.05    	0.4     	2.0148e-11
0.05    	0.45    	2.0169e-11
0.05    	0.5     	2.0189e-11
0.05    	0.55    	2.0208e-11
0.05    	0.6     	2.0225e-11
0.05    	0.65    	2.0242e-11
0.05    	0.7     	2.0258e-11
0.1     	0       	6.3251e-14
0.1     	0.05    	1.1708e-10
0.1     	0.1     	1.3438e-10
0.1     	0.15    	1.371e-10
0.1     	0.2     	1.3769e-10
0.1     	0.25    	1.3796e-10
0.1     	0.3     	1.3816e-10
0.1     	0.35    	1.3834e-10
0.1     	0.4     	1.385e-10
0.1     	0.45    	1.3865e-10
0.1     	0.5     	1.3879e-10
0.1     	0.55    	1.3892e-10
0.1     	0.6     	1.3905e-10
0.1     	0.65    	1.3917e-10
0.1     	0.7     	1.3928e-10
0.15    	0       	4.3266e-13
0.15    	0.05    	7.98e-10
0.15    	0.1     	9.1694e-10
0.15    	0.15    	9.3596e-10
0.15    	0.2     	9.4019e-10
0.15    	0.25    	9.4213e-10
0.15    	0.3     	9.4359e-10
0.15    	0.35    	9.4487e-10
0.15    	0.4     	9.4604e-10
0.15    	0.45    	9.4711e-10
0.15    	0.5     	9.4811e-10
0.15    	0.55    	9.4904e-10
0.15    	0.6     	9.4991e-10
0.15    	0.65    	9.5074e-10
0.15    	0.7     	9.5152e-10
0.2     	0       	5.7575e-13
0.2     	0.05    	5.3833e-09
0.2     	0.1     	6.1955e-09
0.2     	0.15    	6.3277e-09
0.2     	0.2     	6.3581e-09
0.2     	0.25    	6.3721e-09
0.2     	0.3     	6.3826e-09
0.2     	0.35    	6.3917e-09
0.2     	0.4     	6.4e-09 
0.2     	0.45    	6.4074e-09
0.2     	0.5     	6.4143e-09
0.2     	0.55    	6.4207e-09
0.2     	0.6     	6.4267e-09
0.2     	0.65    	6.4323e-09
0.2     	0.7     	6.4375e-09
0.25    	0       	-6.7155e-12
0.25    	0.05    	3.3652e-08
0.25    	0.1     	3.9167e-08
0.25    	0.15    	4.0079e-08
0.25    	0.2     	4.029e-08
0.25    	0.25    	4.0385e-08
0.25    	0.3     	4.0454e-08
0.25    	0.35    	4.0513e-08
0.25    	0.4     	4.0565e-08
0.25    	0.45    	4.0611e-08
0.25    	0.5     	4.0654e-08
0.25    	0.55    	4.0693e-08
0.25    	0.6     	4.0729e-08
0.25    	0.65    	4.0763e-08
0.25    	0.7     	4.0795e-08
0.3     	0       	-3.3949e-11
0.3     	0.05    	1.5689e-07
0.3     	0.1     	1.9152e-07
0.3     	0.15    	1.9771e-07
0.3     	0.2     	1.9904e-07
0.3     	0.25    	1.9955e-07
0.3     	0.3     	1.9988e-07
0.3     	0.35    	2.0015e-07
0.3     	0.4     	2.0038e-07
0.3     	0.45    	2.0059e-07
0.3     	0.5     	2.0079e-07
0.3     	0.55    	2.0096e-07
0.3     	0.6     	2.0111e-07
0.3     	0.65    	2.0125e-07
0.3     	0.7     	2.0138e-07
0.35    	0       	-6.8224e-11
0.35    	0.05    	4.046e-07
0.35    	0.1     	5.6532e-07
0.35    	0.15    	6.0328e-07
0.35    	0.2     	6.1117e-07
0.35    	0.25    	6.1352e-07
0.35    	0.3     	6.1457e-07
0.35    	0.35    	6.1531e-07
0.35    	0.4     	6.1592e-07
0.35    	0.45    	6.1644e-07
0.35    	0.5     	6.1695e-07
0.35    	0.55    	6.1736e-07
0.35    	0.6     	6.1772e-07
0.35    	0.65    	6.1806e-07
0.35    	0.7     	6.1837e-07
0.4     	0       	-7.9737e-11
0.4     	0.05    	6.2356e-07
0.4     	0.1     	1.0222e-06
0.4     	0.15    	1.1875e-06
0.4     	0.2     	1.2318e-06
0.4     	0.25    	1.2419e-06
0.4     	0.3     	1.2454e-06
0.4     	0.35    	1.247e-06
0.4     	0.4     	1.2481e-06
0.4     	0.45    	1.249e-06
0.4     	0.5     	1.2499e-06
0.4     	0.55    	1.2506e-06
0.4     	0.6     	1.2512e-06
0.4     	0.65    	1.2517e-06
0.4     	0.7     	1.2523e-06
0.45    	0       	-7.8398e-11
0.45    	0.05    	7.522e-07
0.45    	0.1     	1.3506e-06
0.45    	0.15    	1.7261e-06
0.45    	0.2     	1.898e-06
0.45    	0.25    	1.948e-06
0.45    	0.3     	1.9613e-06
0.45    	0.35    	1.9655e-06
0.45    	0.4     	1.9676e-06
0.45    	0.45    	1.9692e-06
0.45    	0.5     	1.9703e-06
0.45    	0.55    	1.9713e-06
0.45    	0.6     	1.9722e-06
0.45    	0.65    	1.9729e-06
0.45    	0.7     	1.9735e-06
0.5     	0       	-8.0117e-11
0.5     	0.05    	8.0309e-07
0.5     	0.1     	1.5238e-06
0.5     	0.15    	2.0666e-06
0.5     	0.2     	2.4172e-06
0.5     	0.25    	2.5858e-06
0.5     	0.3     	2.6448e-06
0.5     	0.35    	2.6613e-06
0.5     	0.4     	2.6673e-06
0.5     	0.45    	2.67e-06
0.5     	0.5     	2.6718e-06
0.5     	0.55    	2.673e-06
0.5     	0.6     	2.6741e-06
0.5     	0.65    	2.6749e-06
0.5     	0.7     	2.6756e-06
0.55    	0       	-9.6028e-11
0.55    	0.05    	8.0385e-07
0.55    	0.1     	1.5602e-06
0.55    	0.15    	2.2009e-06
0.55    	0.2     	2.6559e-06
0.55    	0.25    	2.9866e-06
0.55    	0.3     	3.1555e-06
0.55    	0.35    	3.228e-06
0.55    	0.4     	3.2534e-06
0.55    	0.45    	3.2618e-06
0.55    	0.5     	3.2657e-06
0.55    	0.55    	3.2678e-06
0.55    	0.6     	3.2692e-06
0.55    	0.65    	3.2704e-06
0.55    	0.7     	3.2713e-06
0.6     	0       	-1.2468e-10
0.6     	0.05    	8.0624e-07
0.6     	0.1     	1.558e-06
0.6     	0.15    	2.2144e-06
0.6     	0.2     	2.7613e-06
0.6     	0.25    	3.1374e-06
0.6     	0.3     	3.3966e-06
0.6     	0.35    	3.5636e-06
0.6     	0.4     	3.6465e-06
0.6     	0.45    	3.6796e-06
0.6     	0.5     	3.6919e-06
0.6     	0.55    	3.6976e-06
0.6     	0.6     	3.7003e-06
0.6     	0.65    	3.702e-06
0.6     	0.7     	3.7033e-06
0.65    	0       	-1.853e-10
0.65    	0.05    	8.0391e-07
0.65    	0.1     	1.5596e-06
0.65    	0.15    	2.2157e-06
0.65    	0.2     	2.748e-06
0.65    	0.25    	3.1838e-06
0.65    	0.3     	3.507e-06
0.65    	0.35    	3.7188e-06
0.65    	0.4     	3.8608e-06
0.65    	0.45    	3.9414e-06
0.65    	0.5     	3.9792e-06
0.65    	0.55    	3.9955e-06
0.65    	0.6     	4.0026e-06
0.65    	0.65    	4.0063e-06
0.65    	0.7     	4.0082e-06
0.7     	0       	-2.796e-10
0.7     	0.05    	8.0273e-07
0.7     	0.1     	1.5551e-06
0.7     	0.15    	2.2164e-06
0.7     	0.2     	2.7563e-06
0.7     	0.25    	3.2004e-06
0.7     	0.3     	3.5371e-06
0.7     	0.35    	3.7902e-06
0.7     	0.4     	3.975e-06
0.7     	0.45    	4.0965e-06
0.7     	0.5     	4.1711e-06
0.7     	0.55    	4.2114e-06
0.7     	0.6     	4.2311e-06
0.7     	0.65    	4.2406e-06
0.7     	0.7     	4.2451e-06
