vg      	vd      	ids     
0       	0       	-1.0372e-13
0       	0.05    	4.2357e-10
0       	0.1     	5.3137e-10
0       	0.15    	5.8796e-10
0       	0.2     	6.3396e-10
0       	0.25    	6.7213e-10
0       	0.3     	7.0618e-10
0       	0.35    	7.391e-10
0       	0.4     	7.7168e-10
0       	0.45    	8.0416e-10
0       	0.5     	8.3667e-10
0       	0.55    	8.6929e-10
0       	0.6     	9.0205e-10
0       	0.65    	9.3499e-10
0       	0.7     	9.6813e-10
0.05    	0       	-1.4746e-12
0.05    	0.05    	2.3731e-09
0.05    	0.1     	2.993e-09
0.05    	0.15    	3.3118e-09
0.05    	0.2     	3.5404e-09
0.05    	0.25    	3.7382e-09
0.05    	0.3     	3.9284e-09
0.05    	0.35    	4.1159e-09
0.05    	0.4     	4.3025e-09
0.05    	0.45    	4.4886e-09
0.05    	0.5     	4.6747e-09
0.05    	0.55    	4.8611e-09
0.05    	0.6     	5.0481e-09
0.05    	0.65    	5.2359e-09
0.05    	0.7     	5.4245e-09
0.1     	0       	-8.2057e-12
0.1     	0.05    	1.2613e-08
0.1     	0.1     	1.6002e-08
0.1     	0.15    	1.7535e-08
0.1     	0.2     	1.8664e-08
0.1     	0.25    	1.9711e-08
0.1     	0.3     	2.0731e-08
0.1     	0.35    	2.1737e-08
0.1     	0.4     	2.2734e-08
0.1     	0.45    	2.3724e-08
0.1     	0.5     	2.471e-08
0.1     	0.55    	2.569e-08
0.1     	0.6     	2.6665e-08
0.1     	0.65    	2.763e-08
0.1     	0.7     	2.8577e-08
0.15    	0       	-4.0192e-11
0.15    	0.05    	5.9593e-08
0.15    	0.1     	7.553e-08
0.15    	0.15    	8.2376e-08
0.15    	0.2     	8.7532e-08
0.15    	0.25    	9.2271e-08
0.15    	0.3     	9.6818e-08
0.15    	0.35    	1.0121e-07
0.15    	0.4     	1.0539e-07
0.15    	0.45    	1.0925e-07
0.15    	0.5     	1.1266e-07
0.15    	0.55    	1.157e-07
0.15    	0.6     	1.1852e-07
0.15    	0.65    	1.2122e-07
0.15    	0.7     	1.2384e-07
0.2     	0       	-1.2698e-10
0.2     	0.05    	2.1167e-07
0.2     	0.1     	2.7482e-07
0.2     	0.15    	2.9938e-07
0.2     	0.2     	3.154e-07
0.2     	0.25    	3.2813e-07
0.2     	0.3     	3.3852e-07
0.2     	0.35    	3.4758e-07
0.2     	0.4     	3.5593e-07
0.2     	0.45    	3.638e-07
0.2     	0.5     	3.7132e-07
0.2     	0.55    	3.7855e-07
0.2     	0.6     	3.8555e-07
0.2     	0.65    	3.9233e-07
0.2     	0.7     	3.9892e-07
0.25    	0       	-2.566e-10
0.25    	0.05    	5.0197e-07
0.25    	0.1     	6.9037e-07
0.25    	0.15    	7.5168e-07
0.25    	0.2     	7.8019e-07
0.25    	0.25    	8.0027e-07
0.25    	0.3     	8.1926e-07
0.25    	0.35    	8.3479e-07
0.25    	0.4     	8.4914e-07
0.25    	0.45    	8.6254e-07
0.25    	0.5     	8.751e-07
0.25    	0.55    	8.8687e-07
0.25    	0.6     	8.9786e-07
0.25    	0.65    	9.0808e-07
0.25    	0.7     	9.1849e-07
0.3     	0       	-3.7436e-10
0.3     	0.05    	8.4266e-07
0.3     	0.1     	1.2566e-06
0.3     	0.15    	1.3991e-06
0.3     	0.2     	1.45e-06
0.3     	0.25    	1.4827e-06
0.3     	0.3     	1.5055e-06
0.3     	0.35    	1.5248e-06
0.3     	0.4     	1.5416e-06
0.3     	0.45    	1.5565e-06
0.3     	0.5     	1.5698e-06
0.3     	0.55    	1.5832e-06
0.3     	0.6     	1.5944e-06
0.3     	0.65    	1.6049e-06
0.3     	0.7     	1.6148e-06
0.35    	0       	-4.6071e-10
0.35    	0.05    	1.1416e-06
0.35    	0.1     	1.8473e-06
0.35    	0.15    	2.1413e-06
0.35    	0.2     	2.2426e-06
0.35    	0.25    	2.2876e-06
0.35    	0.3     	2.3138e-06
0.35    	0.35    	2.3344e-06
0.35    	0.4     	2.352e-06
0.35    	0.45    	2.3694e-06
0.35    	0.5     	2.3837e-06
0.35    	0.55    	2.3968e-06
0.35    	0.6     	2.4091e-06
0.35    	0.65    	2.4206e-06
0.35    	0.7     	2.4326e-06
0.4     	0       	-5.1965e-10
0.4     	0.05    	1.3729e-06
0.4     	0.1     	2.3663e-06
0.4     	0.15    	2.8968e-06
0.4     	0.2     	3.0882e-06
0.4     	0.25    	3.1577e-06
0.4     	0.3     	3.1907e-06
0.4     	0.35    	3.2139e-06
0.4     	0.4     	3.2349e-06
0.4     	0.45    	3.2517e-06
0.4     	0.5     	3.2666e-06
0.4     	0.55    	3.2802e-06
0.4     	0.6     	3.2939e-06
0.4     	0.65    	3.3056e-06
0.4     	0.7     	3.3164e-06
0.45    	0       	-5.6008e-10
0.45    	0.05    	1.5457e-06
0.45    	0.1     	2.7777e-06
0.45    	0.15    	3.5515e-06
0.45    	0.2     	3.9204e-06
0.45    	0.25    	4.0506e-06
0.45    	0.3     	4.0978e-06
0.45    	0.35    	4.1271e-06
0.45    	0.4     	4.1472e-06
0.45    	0.45    	4.1637e-06
0.45    	0.5     	4.1781e-06
0.45    	0.55    	4.1921e-06
0.45    	0.6     	4.2037e-06
0.45    	0.65    	4.2142e-06
0.45    	0.7     	4.2247e-06
0.5     	0       	-5.8778e-10
0.5     	0.05    	1.6751e-06
0.5     	0.1     	3.0894e-06
0.5     	0.15    	4.0924e-06
0.5     	0.2     	4.677e-06
0.5     	0.25    	4.9183e-06
0.5     	0.3     	5.002e-06
0.5     	0.35    	5.0397e-06
0.5     	0.4     	5.0615e-06
0.5     	0.45    	5.0793e-06
0.5     	0.5     	5.0932e-06
0.5     	0.55    	5.1051e-06
0.5     	0.6     	5.1159e-06
0.5     	0.65    	5.1263e-06
0.5     	0.7     	5.1354e-06
0.55    	0       	-6.0659e-10
0.55    	0.05    	1.7738e-06
0.55    	0.1     	3.3238e-06
0.55    	0.15    	4.5068e-06
0.55    	0.2     	5.3039e-06
0.55    	0.25    	5.7121e-06
0.55    	0.3     	5.8748e-06
0.55    	0.35    	5.9341e-06
0.55    	0.4     	5.9618e-06
0.55    	0.45    	5.9812e-06
0.55    	0.5     	5.9954e-06
0.55    	0.55    	6.0082e-06
0.55    	0.6     	6.0187e-06
0.55    	0.65    	6.028e-06
0.55    	0.7     	6.0371e-06
0.6     	0       	-6.1905e-10
0.6     	0.05    	1.8512e-06
0.6     	0.1     	3.503e-06
0.6     	0.15    	4.8194e-06
0.6     	0.2     	5.7875e-06
0.6     	0.25    	6.3774e-06
0.6     	0.3     	6.6687e-06
0.6     	0.35    	6.7864e-06
0.6     	0.4     	6.8322e-06
0.6     	0.45    	6.8564e-06
0.6     	0.5     	6.8719e-06
0.6     	0.55    	6.8841e-06
0.6     	0.6     	6.895e-06
0.6     	0.65    	6.9041e-06
0.6     	0.7     	6.9122e-06
0.65    	0       	-6.2715e-10
0.65    	0.05    	1.9136e-06
0.65    	0.1     	3.6433e-06
0.65    	0.15    	5.0569e-06
0.65    	0.2     	6.0951e-06
0.65    	0.25    	6.854e-06
0.65    	0.3     	7.3301e-06
0.65    	0.35    	7.5569e-06
0.65    	0.4     	7.6434e-06
0.65    	0.45    	7.6818e-06
0.65    	0.5     	7.7026e-06
0.65    	0.55    	7.7162e-06
0.65    	0.6     	7.7272e-06
0.65    	0.65    	7.7361e-06
0.65    	0.7     	7.7437e-06
0.7     	0       	-6.3206e-10
0.7     	0.05    	1.9653e-06
0.7     	0.1     	3.7551e-06
0.7     	0.15    	5.2402e-06
0.7     	0.2     	6.4163e-06
0.7     	0.25    	7.2198e-06
0.7     	0.3     	7.8276e-06
0.7     	0.35    	8.1823e-06
0.7     	0.4     	8.3551e-06
0.7     	0.45    	8.4331e-06
0.7     	0.5     	8.467e-06
0.7     	0.55    	8.4854e-06
0.7     	0.6     	8.4971e-06
0.7     	0.65    	8.5059e-06
0.7     	0.7     	8.5135e-06
