vg      	vd      	ids     
0       	0       	2.6679e-13
0       	0.05    	1.5413e-11
0       	0.1     	1.7717e-11
0       	0.15    	1.8122e-11
0       	0.2     	1.8238e-11
0       	0.25    	1.8306e-11
0       	0.3     	1.8364e-11
0       	0.35    	1.8418e-11
0       	0.4     	1.8468e-11
0       	0.45    	1.8515e-11
0       	0.5     	1.8559e-11
0       	0.55    	1.8601e-11
0       	0.6     	1.8641e-11
0       	0.65    	1.8678e-11
0       	0.7     	1.8712e-11
0.05    	0       	1.9569e-12
0.05    	0.05    	1.0323e-10
0.05    	0.1     	1.1888e-10
0.05    	0.15    	1.2161e-10
0.05    	0.2     	1.2241e-10
0.05    	0.25    	1.2289e-10
0.05    	0.3     	1.233e-10
0.05    	0.35    	1.2367e-10
0.05    	0.4     	1.2401e-10
0.05    	0.45    	1.2433e-10
0.05    	0.5     	1.2463e-10
0.05    	0.55    	1.2491e-10
0.05    	0.6     	1.2518e-10
0.05    	0.65    	1.2543e-10
0.05    	0.7     	1.2567e-10
0.1     	0       	1.4017e-11
0.1     	0.05    	6.9405e-10
0.1     	0.1     	7.9894e-10
0.1     	0.15    	8.1769e-10
0.1     	0.2     	8.2325e-10
0.1     	0.25    	8.266e-10
0.1     	0.3     	8.294e-10
0.1     	0.35    	8.3193e-10
0.1     	0.4     	8.3426e-10
0.1     	0.45    	8.3643e-10
0.1     	0.5     	8.3845e-10
0.1     	0.55    	8.4034e-10
0.1     	0.6     	8.4211e-10
0.1     	0.65    	8.4377e-10
0.1     	0.7     	8.4533e-10
0.15    	0       	9.8185e-11
0.15    	0.05    	4.5821e-09
0.15    	0.1     	5.2882e-09
0.15    	0.15    	5.4151e-09
0.15    	0.2     	5.4534e-09
0.15    	0.25    	5.4763e-09
0.15    	0.3     	5.4951e-09
0.15    	0.35    	5.5119e-09
0.15    	0.4     	5.5272e-09
0.15    	0.45    	5.5413e-09
0.15    	0.5     	5.5543e-09
0.15    	0.55    	5.5664e-09
0.15    	0.6     	5.5777e-09
0.15    	0.65    	5.5883e-09
0.15    	0.7     	5.5982e-09
0.2     	0       	6.3655e-10
0.2     	0.05    	2.907e-08
0.2     	0.1     	3.3722e-08
0.2     	0.15    	3.4574e-08
0.2     	0.2     	3.4825e-08
0.2     	0.25    	3.497e-08
0.2     	0.3     	3.5086e-08
0.2     	0.35    	3.5188e-08
0.2     	0.4     	3.528e-08
0.2     	0.45    	3.5363e-08
0.2     	0.5     	3.544e-08
0.2     	0.55    	3.5511e-08
0.2     	0.6     	3.5577e-08
0.2     	0.65    	3.5639e-08
0.2     	0.7     	3.5697e-08
0.25    	0       	3.1292e-09
0.25    	0.05    	1.5393e-07
0.25    	0.1     	1.8334e-07
0.25    	0.15    	1.888e-07
0.25    	0.2     	1.9024e-07
0.25    	0.25    	1.9097e-07
0.25    	0.3     	1.9152e-07
0.25    	0.35    	1.9199e-07
0.25    	0.4     	1.924e-07
0.25    	0.45    	1.9277e-07
0.25    	0.5     	1.9311e-07
0.25    	0.55    	1.9342e-07
0.25    	0.6     	1.9371e-07
0.25    	0.65    	1.9397e-07
0.25    	0.7     	1.9422e-07
0.3     	0       	8.6246e-09
0.3     	0.05    	5.229e-07
0.3     	0.1     	6.7447e-07
0.3     	0.15    	7.0643e-07
0.3     	0.2     	7.1369e-07
0.3     	0.25    	7.1635e-07
0.3     	0.3     	7.1799e-07
0.3     	0.35    	7.1929e-07
0.3     	0.4     	7.204e-07
0.3     	0.45    	7.2138e-07
0.3     	0.5     	7.2226e-07
0.3     	0.55    	7.2305e-07
0.3     	0.6     	7.2378e-07
0.3     	0.65    	7.2445e-07
0.3     	0.7     	7.2507e-07
0.35    	0       	1.4304e-08
0.35    	0.05    	1.0498e-06
0.35    	0.1     	1.5407e-06
0.35    	0.15    	1.688e-06
0.35    	0.2     	1.7247e-06
0.35    	0.25    	1.7341e-06
0.35    	0.3     	1.7382e-06
0.35    	0.35    	1.7408e-06
0.35    	0.4     	1.7429e-06
0.35    	0.45    	1.7446e-06
0.35    	0.5     	1.7463e-06
0.35    	0.55    	1.7477e-06
0.35    	0.6     	1.7489e-06
0.35    	0.65    	1.75e-06
0.35    	0.7     	1.751e-06
0.4     	0       	1.9009e-08
0.4     	0.05    	1.5217e-06
0.4     	0.1     	2.4966e-06
0.4     	0.15    	2.9416e-06
0.4     	0.2     	3.0787e-06
0.4     	0.25    	3.1171e-06
0.4     	0.3     	3.1286e-06
0.4     	0.35    	3.1339e-06
0.4     	0.4     	3.1373e-06
0.4     	0.45    	3.1403e-06
0.4     	0.5     	3.1426e-06
0.4     	0.55    	3.1445e-06
0.4     	0.6     	3.1462e-06
0.4     	0.65    	3.1479e-06
0.4     	0.7     	3.1493e-06
0.45    	0       	2.2866e-08
0.45    	0.05    	1.888e-06
0.45    	0.1     	3.3132e-06
0.45    	0.15    	4.1626e-06
0.45    	0.2     	4.5693e-06
0.45    	0.25    	4.6937e-06
0.45    	0.3     	4.7327e-06
0.45    	0.35    	4.7457e-06
0.45    	0.4     	4.7525e-06
0.45    	0.45    	4.7565e-06
0.45    	0.5     	4.7596e-06
0.45    	0.55    	4.7622e-06
0.45    	0.6     	4.7646e-06
0.45    	0.65    	4.7665e-06
0.45    	0.7     	4.7682e-06
0.5     	0       	2.6043e-08
0.5     	0.05    	2.1686e-06
0.5     	0.1     	3.9448e-06
0.5     	0.15    	5.1984e-06
0.5     	0.2     	5.9752e-06
0.5     	0.25    	6.3057e-06
0.5     	0.3     	6.4216e-06
0.5     	0.35    	6.4586e-06
0.5     	0.4     	6.4735e-06
0.5     	0.45    	6.4805e-06
0.5     	0.5     	6.485e-06
0.5     	0.55    	6.4887e-06
0.5     	0.6     	6.4914e-06
0.5     	0.65    	6.4937e-06
0.5     	0.7     	6.4959e-06
0.55    	0       	2.8807e-08
0.55    	0.05    	2.3868e-06
0.55    	0.1     	4.4266e-06
0.55    	0.15    	6.005e-06
0.55    	0.2     	7.1163e-06
0.55    	0.25    	7.7776e-06
0.55    	0.3     	8.066e-06
0.55    	0.35    	8.1761e-06
0.55    	0.4     	8.216e-06
0.55    	0.45    	8.2315e-06
0.55    	0.5     	8.2398e-06
0.55    	0.55    	8.2447e-06
0.55    	0.6     	8.2485e-06
0.55    	0.65    	8.2513e-06
0.55    	0.7     	8.2536e-06
0.6     	0       	3.129e-08
0.6     	0.05    	2.561e-06
0.6     	0.1     	4.8011e-06
0.6     	0.15    	6.6233e-06
0.6     	0.2     	8.0173e-06
0.6     	0.25    	8.9863e-06
0.6     	0.3     	9.5228e-06
0.6     	0.35    	9.793e-06
0.6     	0.4     	9.9003e-06
0.6     	0.45    	9.9432e-06
0.6     	0.5     	9.9617e-06
0.6     	0.55    	9.9707e-06
0.6     	0.6     	9.9764e-06
0.6     	0.65    	9.9802e-06
0.6     	0.7     	9.9829e-06
0.65    	0       	3.357e-08
0.65    	0.05    	2.7041e-06
0.65    	0.1     	5.1016e-06
0.65    	0.15    	7.1033e-06
0.65    	0.2     	8.7055e-06
0.65    	0.25    	9.8689e-06
0.65    	0.3     	1.0687e-05
0.65    	0.35    	1.117e-05
0.65    	0.4     	1.142e-05
0.65    	0.45    	1.1532e-05
0.65    	0.5     	1.1584e-05
0.65    	0.55    	1.1607e-05
0.65    	0.6     	1.1619e-05
0.65    	0.65    	1.1625e-05
0.65    	0.7     	1.1629e-05
0.7     	0       	3.567e-08
0.7     	0.05    	2.8336e-06
0.7     	0.1     	5.3515e-06
0.7     	0.15    	7.4883e-06
0.7     	0.2     	9.2394e-06
0.7     	0.25    	1.0565e-05
0.7     	0.3     	1.1563e-05
0.7     	0.35    	1.2205e-05
0.7     	0.4     	1.265e-05
0.7     	0.45    	1.289e-05
0.7     	0.5     	1.3014e-05
0.7     	0.55    	1.3081e-05
0.7     	0.6     	1.3113e-05
0.7     	0.65    	1.3129e-05
0.7     	0.7     	1.3137e-05
