vg      	vd      	ids     
0       	0       	2.1042e-15
0       	0.05    	1.2593e-12
0       	0.1     	1.4435e-12
0       	0.15    	1.4714e-12
0       	0.2     	1.4767e-12
0       	0.25    	1.4786e-12
0       	0.3     	1.4799e-12
0       	0.35    	1.4811e-12
0       	0.4     	1.4822e-12
0       	0.45    	1.4831e-12
0       	0.5     	1.4841e-12
0       	0.55    	1.485e-12
0       	0.6     	1.4858e-12
0       	0.65    	1.4866e-12
0       	0.7     	1.4873e-12
0.05    	0       	1.6238e-14
0.05    	0.05    	8.6528e-12
0.05    	0.1     	9.9222e-12
0.05    	0.15    	1.0117e-11
0.05    	0.2     	1.0155e-11
0.05    	0.25    	1.0169e-11
0.05    	0.3     	1.0179e-11
0.05    	0.35    	1.0187e-11
0.05    	0.4     	1.0195e-11
0.05    	0.45    	1.0203e-11
0.05    	0.5     	1.021e-11
0.05    	0.55    	1.0216e-11
0.05    	0.6     	1.0222e-11
0.05    	0.65    	1.0228e-11
0.05    	0.7     	1.0233e-11
0.1     	0       	8.4666e-14
0.1     	0.05    	6.0019e-11
0.1     	0.1     	6.8751e-11
0.1     	0.15    	7.0105e-11
0.1     	0.2     	7.0376e-11
0.1     	0.25    	7.0482e-11
0.1     	0.3     	7.0557e-11
0.1     	0.35    	7.0622e-11
0.1     	0.4     	7.0682e-11
0.1     	0.45    	7.0736e-11
0.1     	0.5     	7.0787e-11
0.1     	0.55    	7.0834e-11
0.1     	0.6     	7.0879e-11
0.1     	0.65    	7.092e-11
0.1     	0.7     	7.096e-11
0.15    	0       	5.8845e-13
0.15    	0.05    	4.1137e-10
0.15    	0.1     	4.7208e-10
0.15    	0.15    	4.8149e-10
0.15    	0.2     	4.8344e-10
0.15    	0.25    	4.8423e-10
0.15    	0.3     	4.848e-10
0.15    	0.35    	4.8529e-10
0.15    	0.4     	4.8574e-10
0.15    	0.45    	4.8614e-10
0.15    	0.5     	4.8651e-10
0.15    	0.55    	4.8686e-10
0.15    	0.6     	4.8719e-10
0.15    	0.65    	4.8749e-10
0.15    	0.7     	4.8777e-10
0.2     	0       	4.3476e-12
0.2     	0.05    	2.7908e-09
0.2     	0.1     	3.2079e-09
0.2     	0.15    	3.2741e-09
0.2     	0.2     	3.2882e-09
0.2     	0.25    	3.2942e-09
0.2     	0.3     	3.2985e-09
0.2     	0.35    	3.3022e-09
0.2     	0.4     	3.3055e-09
0.2     	0.45    	3.3085e-09
0.2     	0.5     	3.3112e-09
0.2     	0.55    	3.3137e-09
0.2     	0.6     	3.3161e-09
0.2     	0.65    	3.3182e-09
0.2     	0.7     	3.3203e-09
0.25    	0       	2.0463e-11
0.25    	0.05    	1.8352e-08
0.25    	0.1     	2.121e-08
0.25    	0.15    	2.1671e-08
0.25    	0.2     	2.1774e-08
0.25    	0.25    	2.1818e-08
0.25    	0.3     	2.185e-08
0.25    	0.35    	2.1877e-08
0.25    	0.4     	2.1901e-08
0.25    	0.45    	2.1922e-08
0.25    	0.5     	2.1942e-08
0.25    	0.55    	2.1959e-08
0.25    	0.6     	2.1976e-08
0.25    	0.65    	2.1991e-08
0.25    	0.7     	2.2005e-08
0.3     	0       	9.3874e-11
0.3     	0.05    	1.0073e-07
0.3     	0.1     	1.1951e-07
0.3     	0.15    	1.2269e-07
0.3     	0.2     	1.2339e-07
0.3     	0.25    	1.2368e-07
0.3     	0.3     	1.2387e-07
0.3     	0.35    	1.2403e-07
0.3     	0.4     	1.2417e-07
0.3     	0.45    	1.2429e-07
0.3     	0.5     	1.244e-07
0.3     	0.55    	1.245e-07
0.3     	0.6     	1.2459e-07
0.3     	0.65    	1.2468e-07
0.3     	0.7     	1.2476e-07
0.35    	0       	2.4526e-10
0.35    	0.05    	3.3413e-07
0.35    	0.1     	4.3535e-07
0.35    	0.15    	4.5533e-07
0.35    	0.2     	4.594e-07
0.35    	0.25    	4.6072e-07
0.35    	0.3     	4.6148e-07
0.35    	0.35    	4.6205e-07
0.35    	0.4     	4.6254e-07
0.35    	0.45    	4.6296e-07
0.35    	0.5     	4.6338e-07
0.35    	0.55    	4.6371e-07
0.35    	0.6     	4.6401e-07
0.35    	0.65    	4.6428e-07
0.35    	0.7     	4.6453e-07
0.4     	0       	3.7668e-10
0.4     	0.05    	6.1638e-07
0.4     	0.1     	9.3971e-07
0.4     	0.15    	1.0407e-06
0.4     	0.2     	1.0623e-06
0.4     	0.25    	1.0677e-06
0.4     	0.3     	1.07e-06
0.4     	0.35    	1.0713e-06
0.4     	0.4     	1.0724e-06
0.4     	0.45    	1.0732e-06
0.4     	0.5     	1.0741e-06
0.4     	0.55    	1.0747e-06
0.4     	0.6     	1.0753e-06
0.4     	0.65    	1.0758e-06
0.4     	0.7     	1.0763e-06
0.45    	0       	4.6023e-10
0.45    	0.05    	8.0801e-07
0.45    	0.1     	1.3938e-06
0.45    	0.15    	1.6957e-06
0.45    	0.2     	1.7965e-06
0.45    	0.25    	1.8213e-06
0.45    	0.3     	1.8277e-06
0.45    	0.35    	1.8307e-06
0.45    	0.4     	1.8325e-06
0.45    	0.45    	1.8338e-06
0.45    	0.5     	1.8351e-06
0.45    	0.55    	1.836e-06
0.45    	0.6     	1.8369e-06
0.45    	0.65    	1.8377e-06
0.45    	0.7     	1.8384e-06
0.5     	0       	5.0797e-10
0.5     	0.05    	9.1501e-07
0.5     	0.1     	1.6783e-06
0.5     	0.15    	2.2021e-06
0.5     	0.2     	2.4869e-06
0.5     	0.25    	2.5856e-06
0.5     	0.3     	2.613e-06
0.5     	0.35    	2.6211e-06
0.5     	0.4     	2.6244e-06
0.5     	0.45    	2.6266e-06
0.5     	0.5     	2.6281e-06
0.5     	0.55    	2.6293e-06
0.5     	0.6     	2.6305e-06
0.5     	0.65    	2.6314e-06
0.5     	0.7     	2.6323e-06
0.55    	0       	5.1569e-10
0.55    	0.05    	9.5279e-07
0.55    	0.1     	1.8179e-06
0.55    	0.15    	2.4907e-06
0.55    	0.2     	2.9358e-06
0.55    	0.25    	3.2141e-06
0.55    	0.3     	3.319e-06
0.55    	0.35    	3.3505e-06
0.55    	0.4     	3.3604e-06
0.55    	0.45    	3.3644e-06
0.55    	0.5     	3.3667e-06
0.55    	0.55    	3.3682e-06
0.55    	0.6     	3.3696e-06
0.55    	0.65    	3.3706e-06
0.55    	0.7     	3.3715e-06
0.6     	0       	5.1008e-10
0.6     	0.05    	9.5424e-07
0.6     	0.1     	1.8508e-06
0.6     	0.15    	2.6097e-06
0.6     	0.2     	3.1435e-06
0.6     	0.25    	3.5385e-06
0.6     	0.3     	3.7913e-06
0.6     	0.35    	3.9092e-06
0.6     	0.4     	3.9504e-06
0.6     	0.45    	3.9637e-06
0.6     	0.5     	3.9688e-06
0.6     	0.55    	3.9715e-06
0.6     	0.6     	3.9733e-06
0.6     	0.65    	3.9746e-06
0.6     	0.7     	3.9756e-06
0.65    	0       	4.9737e-10
0.65    	0.05    	9.5733e-07
0.65    	0.1     	1.8572e-06
0.65    	0.15    	2.6297e-06
0.65    	0.2     	3.2504e-06
0.65    	0.25    	3.6821e-06
0.65    	0.3     	3.9944e-06
0.65    	0.35    	4.2122e-06
0.65    	0.4     	4.3319e-06
0.65    	0.45    	4.3853e-06
0.65    	0.5     	4.404e-06
0.65    	0.55    	4.4112e-06
0.65    	0.6     	4.4147e-06
0.65    	0.65    	4.4166e-06
0.65    	0.7     	4.4179e-06
0.7     	0       	4.699e-10
0.7     	0.05    	9.5897e-07
0.7     	0.1     	1.8624e-06
0.7     	0.15    	2.6401e-06
0.7     	0.2     	3.2433e-06
0.7     	0.25    	3.7328e-06
0.7     	0.3     	4.0965e-06
0.7     	0.35    	4.3645e-06
0.7     	0.4     	4.5386e-06
0.7     	0.45    	4.6425e-06
0.7     	0.5     	4.7012e-06
0.7     	0.55    	4.7264e-06
0.7     	0.6     	4.7362e-06
0.7     	0.65    	4.7407e-06
0.7     	0.7     	4.7429e-06
