vg      	vd      	ids     
0       	0       	1.8804e-20
0       	0.05    	1.1255e-17
0       	0.1     	1.2883e-17
0       	0.15    	1.3124e-17
0       	0.2     	1.3163e-17
0       	0.25    	1.3173e-17
0       	0.3     	1.3179e-17
0       	0.35    	1.3184e-17
0       	0.4     	1.3188e-17
0       	0.45    	1.3192e-17
0       	0.5     	1.3196e-17
0       	0.55    	1.32e-17
0       	0.6     	1.3204e-17
0       	0.65    	1.3207e-17
0       	0.7     	1.321e-17
0.05    	0       	1.4154e-19
0.05    	0.05    	7.8282e-17
0.05    	0.1     	8.9558e-17
0.05    	0.15    	9.1222e-17
0.05    	0.2     	9.1497e-17
0.05    	0.25    	9.1569e-17
0.05    	0.3     	9.1609e-17
0.05    	0.35    	9.1644e-17
0.05    	0.4     	9.1676e-17
0.05    	0.45    	9.1706e-17
0.05    	0.5     	9.1735e-17
0.05    	0.55    	9.1762e-17
0.05    	0.6     	9.1789e-17
0.05    	0.65    	9.1814e-17
0.05    	0.7     	9.1838e-17
0.1     	0       	1.0296e-18
0.1     	0.05    	5.4031e-16
0.1     	0.1     	6.1877e-16
0.1     	0.15    	6.3032e-16
0.1     	0.2     	6.3224e-16
0.1     	0.25    	6.3275e-16
0.1     	0.3     	6.3304e-16
0.1     	0.35    	6.333e-16
0.1     	0.4     	6.3353e-16
0.1     	0.45    	6.3375e-16
0.1     	0.5     	6.3396e-16
0.1     	0.55    	6.3416e-16
0.1     	0.6     	6.3435e-16
0.1     	0.65    	6.3453e-16
0.1     	0.7     	6.347e-16
0.15    	0       	7.5763e-18
0.15    	0.05    	3.7285e-15
0.15    	0.1     	4.2702e-15
0.15    	0.15    	4.3507e-15
0.15    	0.2     	4.3641e-15
0.15    	0.25    	4.3678e-15
0.15    	0.3     	4.37e-15
0.15    	0.35    	4.3718e-15
0.15    	0.4     	4.3735e-15
0.15    	0.45    	4.3751e-15
0.15    	0.5     	4.3766e-15
0.15    	0.55    	4.3781e-15
0.15    	0.6     	4.3794e-15
0.15    	0.65    	4.3807e-15
0.15    	0.7     	4.382e-15
0.2     	0       	5.8068e-17
0.2     	0.05    	2.5669e-14
0.2     	0.1     	2.9409e-14
0.2     	0.15    	2.9965e-14
0.2     	0.2     	3.006e-14
0.2     	0.25    	3.0086e-14
0.2     	0.3     	3.0102e-14
0.2     	0.35    	3.0116e-14
0.2     	0.4     	3.0128e-14
0.2     	0.45    	3.014e-14
0.2     	0.5     	3.0151e-14
0.2     	0.55    	3.0161e-14
0.2     	0.6     	3.0171e-14
0.2     	0.65    	3.018e-14
0.2     	0.7     	3.0189e-14
0.25    	0       	3.4337e-16
0.25    	0.05    	1.79e-13
0.25    	0.1     	2.0475e-13
0.25    	0.15    	2.0861e-13
0.25    	0.2     	2.0927e-13
0.25    	0.25    	2.0947e-13
0.25    	0.3     	2.0958e-13
0.25    	0.35    	2.0968e-13
0.25    	0.4     	2.0977e-13
0.25    	0.45    	2.0986e-13
0.25    	0.5     	2.0994e-13
0.25    	0.55    	2.1002e-13
0.25    	0.6     	2.1009e-13
0.25    	0.65    	2.1016e-13
0.25    	0.7     	2.1023e-13
0.3     	0       	2.4874e-15
0.3     	0.05    	1.2344e-12
0.3     	0.1     	1.4141e-12
0.3     	0.15    	1.4408e-12
0.3     	0.2     	1.4454e-12
0.3     	0.25    	1.4468e-12
0.3     	0.3     	1.4477e-12
0.3     	0.35    	1.4485e-12
0.3     	0.4     	1.4491e-12
0.3     	0.45    	1.4498e-12
0.3     	0.5     	1.4504e-12
0.3     	0.55    	1.4509e-12
0.3     	0.6     	1.4515e-12
0.3     	0.65    	1.452e-12
0.3     	0.7     	1.4524e-12
0.35    	0       	1.917e-14
0.35    	0.05    	8.5091e-12
0.35    	0.1     	9.7492e-12
0.35    	0.15    	9.9358e-12
0.35    	0.2     	9.9687e-12
0.35    	0.25    	9.9789e-12
0.35    	0.3     	9.9854e-12
0.35    	0.35    	9.991e-12
0.35    	0.4     	9.996e-12
0.35    	0.45    	1.0001e-11
0.35    	0.5     	1.0005e-11
0.35    	0.55    	1.0009e-11
0.35    	0.6     	1.0013e-11
0.35    	0.65    	1.0017e-11
0.35    	0.7     	1.002e-11
0.4     	0       	1.6291e-13
0.4     	0.05    	5.8407e-11
0.4     	0.1     	6.6961e-11
0.4     	0.15    	6.8255e-11
0.4     	0.2     	6.8489e-11
0.4     	0.25    	6.8565e-11
0.4     	0.3     	6.8614e-11
0.4     	0.35    	6.8655e-11
0.4     	0.4     	6.8693e-11
0.4     	0.45    	6.8727e-11
0.4     	0.5     	6.876e-11
0.4     	0.55    	6.8789e-11
0.4     	0.6     	6.8817e-11
0.4     	0.65    	6.8844e-11
0.4     	0.7     	6.8869e-11
0.45    	0       	7.4257e-13
0.45    	0.05    	4.0615e-10
0.45    	0.1     	4.6491e-10
0.45    	0.15    	4.7391e-10
0.45    	0.2     	4.7558e-10
0.45    	0.25    	4.7615e-10
0.45    	0.3     	4.7653e-10
0.45    	0.35    	4.7684e-10
0.45    	0.4     	4.7713e-10
0.45    	0.45    	4.7739e-10
0.45    	0.5     	4.7763e-10
0.45    	0.55    	4.7785e-10
0.45    	0.6     	4.7805e-10
0.45    	0.65    	4.7825e-10
0.45    	0.7     	4.7843e-10
0.5     	0       	4.6894e-12
0.5     	0.05    	2.7641e-09
0.5     	0.1     	3.1739e-09
0.5     	0.15    	3.2362e-09
0.5     	0.2     	3.2483e-09
0.5     	0.25    	3.2526e-09
0.5     	0.3     	3.2554e-09
0.5     	0.35    	3.2578e-09
0.5     	0.4     	3.2599e-09
0.5     	0.45    	3.2618e-09
0.5     	0.5     	3.2636e-09
0.5     	0.55    	3.2652e-09
0.5     	0.6     	3.2667e-09
0.5     	0.65    	3.2681e-09
0.5     	0.7     	3.2694e-09
0.55    	0       	2.3599e-11
0.55    	0.05    	1.8143e-08
0.55    	0.1     	2.0937e-08
0.55    	0.15    	2.1375e-08
0.55    	0.2     	2.1462e-08
0.55    	0.25    	2.1494e-08
0.55    	0.3     	2.1515e-08
0.55    	0.35    	2.1532e-08
0.55    	0.4     	2.1547e-08
0.55    	0.45    	2.1561e-08
0.55    	0.5     	2.1573e-08
0.55    	0.55    	2.1584e-08
0.55    	0.6     	2.1595e-08
0.55    	0.65    	2.1605e-08
0.55    	0.7     	2.1614e-08
0.6     	0       	1.0177e-10
0.6     	0.05    	9.754e-08
0.6     	0.1     	1.1606e-07
0.6     	0.15    	1.191e-07
0.6     	0.2     	1.1969e-07
0.6     	0.25    	1.1989e-07
0.6     	0.3     	1.2001e-07
0.6     	0.35    	1.2011e-07
0.6     	0.4     	1.202e-07
0.6     	0.45    	1.2027e-07
0.6     	0.5     	1.2034e-07
0.6     	0.55    	1.204e-07
0.6     	0.6     	1.2046e-07
0.6     	0.65    	1.2051e-07
0.6     	0.7     	1.2056e-07
0.65    	0       	2.5741e-10
0.65    	0.05    	3.036e-07
0.65    	0.1     	4.0648e-07
0.65    	0.15    	4.2658e-07
0.65    	0.2     	4.3062e-07
0.65    	0.25    	4.3155e-07
0.65    	0.3     	4.3205e-07
0.65    	0.35    	4.3239e-07
0.65    	0.4     	4.3267e-07
0.65    	0.45    	4.3291e-07
0.65    	0.5     	4.3315e-07
0.65    	0.55    	4.3334e-07
0.65    	0.6     	4.3351e-07
0.65    	0.65    	4.3367e-07
0.65    	0.7     	4.3381e-07
0.7     	0       	3.7668e-10
0.7     	0.05    	5.1206e-07
0.7     	0.1     	8.2346e-07
0.7     	0.15    	9.3331e-07
0.7     	0.2     	9.597e-07
0.7     	0.25    	9.6497e-07
0.7     	0.3     	9.6654e-07
0.7     	0.35    	9.6745e-07
0.7     	0.4     	9.6803e-07
0.7     	0.45    	9.685e-07
0.7     	0.5     	9.689e-07
0.7     	0.55    	9.6929e-07
0.7     	0.6     	9.6961e-07
0.7     	0.65    	9.6989e-07
0.7     	0.7     	9.7015e-07
