vg      	vd      	ids     
0       	0       	-6.6858e-14
0       	0.05    	5.6938e-11
0       	0.1     	6.5991e-11
0       	0.15    	6.775e-11
0       	0.2     	6.841e-11
0       	0.25    	6.8879e-11
0       	0.3     	6.9291e-11
0       	0.35    	6.9671e-11
0       	0.4     	7.0026e-11
0       	0.45    	7.0359e-11
0       	0.5     	7.0675e-11
0       	0.55    	7.0975e-11
0       	0.6     	7.1263e-11
0       	0.65    	7.1538e-11
0       	0.7     	7.1802e-11
0.05    	0       	7.5995e-15
0.05    	0.05    	3.6878e-10
0.05    	0.1     	4.2831e-10
0.05    	0.15    	4.4018e-10
0.05    	0.2     	4.4459e-10
0.05    	0.25    	4.477e-10
0.05    	0.3     	4.5042e-10
0.05    	0.35    	4.5291e-10
0.05    	0.4     	4.5522e-10
0.05    	0.45    	4.5738e-10
0.05    	0.5     	4.5941e-10
0.05    	0.55    	4.6134e-10
0.05    	0.6     	4.6318e-10
0.05    	0.65    	4.6495e-10
0.05    	0.7     	4.6664e-10
0.1     	0       	2.6502e-12
0.1     	0.05    	2.3771e-09
0.1     	0.1     	2.7632e-09
0.1     	0.15    	2.8414e-09
0.1     	0.2     	2.8705e-09
0.1     	0.25    	2.8908e-09
0.1     	0.3     	2.9084e-09
0.1     	0.35    	2.9245e-09
0.1     	0.4     	2.9393e-09
0.1     	0.45    	2.9531e-09
0.1     	0.5     	2.966e-09
0.1     	0.55    	2.9782e-09
0.1     	0.6     	2.9898e-09
0.1     	0.65    	3.0009e-09
0.1     	0.7     	3.0115e-09
0.15    	0       	1.813e-11
0.15    	0.05    	1.4907e-08
0.15    	0.1     	1.7396e-08
0.15    	0.15    	1.79e-08
0.15    	0.2     	1.8084e-08
0.15    	0.25    	1.821e-08
0.15    	0.3     	1.8317e-08
0.15    	0.35    	1.8415e-08
0.15    	0.4     	1.8505e-08
0.15    	0.45    	1.8588e-08
0.15    	0.5     	1.8666e-08
0.15    	0.55    	1.8738e-08
0.15    	0.6     	1.8806e-08
0.15    	0.65    	1.8871e-08
0.15    	0.7     	1.8933e-08
0.2     	0       	7.7031e-11
0.2     	0.05    	8.5044e-08
0.2     	0.1     	1.0056e-07
0.2     	0.15    	1.0367e-07
0.2     	0.2     	1.0472e-07
0.2     	0.25    	1.0538e-07
0.2     	0.3     	1.0593e-07
0.2     	0.35    	1.0642e-07
0.2     	0.4     	1.0686e-07
0.2     	0.45    	1.0727e-07
0.2     	0.5     	1.0765e-07
0.2     	0.55    	1.08e-07
0.2     	0.6     	1.0833e-07
0.2     	0.65    	1.0863e-07
0.2     	0.7     	1.0892e-07
0.25    	0       	2.468e-10
0.25    	0.05    	3.5066e-07
0.25    	0.1     	4.3316e-07
0.25    	0.15    	4.4978e-07
0.25    	0.2     	4.5441e-07
0.25    	0.25    	4.568e-07
0.25    	0.3     	4.5861e-07
0.25    	0.35    	4.6018e-07
0.25    	0.4     	4.6158e-07
0.25    	0.45    	4.6285e-07
0.25    	0.5     	4.6401e-07
0.25    	0.55    	4.6507e-07
0.25    	0.6     	4.6605e-07
0.25    	0.65    	4.6697e-07
0.25    	0.7     	4.6782e-07
0.3     	0       	6.1165e-10
0.3     	0.05    	8.771e-07
0.3     	0.1     	1.1708e-06
0.3     	0.15    	1.2366e-06
0.3     	0.2     	1.2527e-06
0.3     	0.25    	1.259e-06
0.3     	0.3     	1.2631e-06
0.3     	0.35    	1.2664e-06
0.3     	0.4     	1.2693e-06
0.3     	0.45    	1.2718e-06
0.3     	0.5     	1.2741e-06
0.3     	0.55    	1.2762e-06
0.3     	0.6     	1.2781e-06
0.3     	0.65    	1.2798e-06
0.3     	0.7     	1.2814e-06
0.35    	0       	1.2243e-09
0.35    	0.05    	1.5131e-06
0.35    	0.1     	2.1994e-06
0.35    	0.15    	2.3854e-06
0.35    	0.2     	2.4305e-06
0.35    	0.25    	2.4452e-06
0.35    	0.3     	2.453e-06
0.35    	0.35    	2.4588e-06
0.35    	0.4     	2.4635e-06
0.35    	0.45    	2.4676e-06
0.35    	0.5     	2.4712e-06
0.35    	0.55    	2.4745e-06
0.35    	0.6     	2.4774e-06
0.35    	0.65    	2.4801e-06
0.35    	0.7     	2.4825e-06
0.4     	0       	2.0119e-09
0.4     	0.05    	2.1313e-06
0.4     	0.1     	3.3373e-06
0.4     	0.15    	3.7418e-06
0.4     	0.2     	3.8499e-06
0.4     	0.25    	3.8806e-06
0.4     	0.3     	3.894e-06
0.4     	0.35    	3.9026e-06
0.4     	0.4     	3.9094e-06
0.4     	0.45    	3.9151e-06
0.4     	0.5     	3.9201e-06
0.4     	0.55    	3.9245e-06
0.4     	0.6     	3.9285e-06
0.4     	0.65    	3.9321e-06
0.4     	0.7     	3.9354e-06
0.45    	0       	2.8837e-09
0.45    	0.05    	2.6909e-06
0.45    	0.1     	4.4643e-06
0.45    	0.15    	5.1932e-06
0.45    	0.2     	5.4097e-06
0.45    	0.25    	5.4729e-06
0.45    	0.3     	5.4953e-06
0.45    	0.35    	5.5077e-06
0.45    	0.4     	5.5167e-06
0.45    	0.45    	5.5241e-06
0.45    	0.5     	5.5304e-06
0.45    	0.55    	5.536e-06
0.45    	0.6     	5.541e-06
0.45    	0.65    	5.5454e-06
0.45    	0.7     	5.5495e-06
0.5     	0       	3.7647e-09
0.5     	0.05    	3.2111e-06
0.5     	0.1     	5.5006e-06
0.5     	0.15    	6.6538e-06
0.5     	0.2     	7.0499e-06
0.5     	0.25    	7.1724e-06
0.5     	0.3     	7.2009e-06
0.5     	0.35    	7.2166e-06
0.5     	0.4     	7.235e-06
0.5     	0.45    	7.2401e-06
0.5     	0.5     	7.2526e-06
0.5     	0.55    	7.2555e-06
0.5     	0.6     	7.2594e-06
0.5     	0.65    	7.2697e-06
0.5     	0.7     	7.2711e-06
0.55    	0       	4.5833e-09
0.55    	0.05    	3.6524e-06
0.55    	0.1     	6.4483e-06
0.55    	0.15    	8.083e-06
0.55    	0.2     	8.708e-06
0.55    	0.25    	8.9237e-06
0.55    	0.3     	8.9873e-06
0.55    	0.35    	9.0119e-06
0.55    	0.4     	9.0264e-06
0.55    	0.45    	9.0286e-06
0.55    	0.5     	9.0378e-06
0.55    	0.55    	9.0491e-06
0.55    	0.6     	9.0579e-06
0.55    	0.65    	9.0648e-06
0.55    	0.7     	9.0705e-06
0.6     	0       	5.3696e-09
0.6     	0.05    	4.0354e-06
0.6     	0.1     	7.2887e-06
0.6     	0.15    	9.4019e-06
0.6     	0.2     	1.039e-05
0.6     	0.25    	1.0713e-05
0.6     	0.3     	1.0814e-05
0.6     	0.35    	1.0846e-05
0.6     	0.4     	1.0866e-05
0.6     	0.45    	1.0872e-05
0.6     	0.5     	1.0879e-05
0.6     	0.55    	1.0893e-05
0.6     	0.6     	1.0896e-05
0.6     	0.65    	1.0908e-05
0.6     	0.7     	1.0909e-05
0.65    	0       	6.06e-09
0.65    	0.05    	4.3658e-06
0.65    	0.1     	8.0216e-06
0.65    	0.15    	1.0575e-05
0.65    	0.2     	1.1971e-05
0.65    	0.25    	1.2499e-05
0.65    	0.3     	1.2656e-05
0.65    	0.35    	1.2718e-05
0.65    	0.4     	1.2748e-05
0.65    	0.45    	1.2764e-05
0.65    	0.5     	1.2776e-05
0.65    	0.55    	1.2777e-05
0.65    	0.6     	1.2781e-05
0.65    	0.65    	1.2793e-05
0.65    	0.7     	1.2794e-05
0.7     	0       	6.681e-09
0.7     	0.05    	4.6502e-06
0.7     	0.1     	8.6559e-06
0.7     	0.15    	1.164e-05
0.7     	0.2     	1.3449e-05
0.7     	0.25    	1.4209e-05
0.7     	0.3     	1.4492e-05
0.7     	0.35    	1.4597e-05
0.7     	0.4     	1.4639e-05
0.7     	0.45    	1.4671e-05
0.7     	0.5     	1.4671e-05
0.7     	0.55    	1.4697e-05
0.7     	0.6     	1.4705e-05
0.7     	0.65    	1.4714e-05
0.7     	0.7     	1.4708e-05
