vg      	vd      	ids     
0       	0       	1.4463e-14
0       	0.05    	9.2291e-13
0       	0.1     	1.0555e-12
0       	0.15    	1.0761e-12
0       	0.2     	1.0803e-12
0       	0.25    	1.082e-12
0       	0.3     	1.0832e-12
0       	0.35    	1.0843e-12
0       	0.4     	1.0854e-12
0       	0.45    	1.0864e-12
0       	0.5     	1.0873e-12
0       	0.55    	1.0882e-12
0       	0.6     	1.089e-12
0       	0.65    	1.0898e-12
0       	0.7     	1.0905e-12
0.05    	0       	7.4922e-14
0.05    	0.05    	6.3553e-12
0.05    	0.1     	7.2714e-12
0.05    	0.15    	7.4136e-12
0.05    	0.2     	7.443e-12
0.05    	0.25    	7.4552e-12
0.05    	0.3     	7.4642e-12
0.05    	0.35    	7.4723e-12
0.05    	0.4     	7.4798e-12
0.05    	0.45    	7.4869e-12
0.05    	0.5     	7.4936e-12
0.05    	0.55    	7.4999e-12
0.05    	0.6     	7.5059e-12
0.05    	0.65    	7.5115e-12
0.05    	0.7     	7.5168e-12
0.1     	0       	5.1563e-13
0.1     	0.05    	4.3332e-11
0.1     	0.1     	4.9668e-11
0.1     	0.15    	5.0658e-11
0.1     	0.2     	5.0867e-11
0.1     	0.25    	5.0955e-11
0.1     	0.3     	5.1021e-11
0.1     	0.35    	5.108e-11
0.1     	0.4     	5.1134e-11
0.1     	0.45    	5.1184e-11
0.1     	0.5     	5.1232e-11
0.1     	0.55    	5.1277e-11
0.1     	0.6     	5.1319e-11
0.1     	0.65    	5.1359e-11
0.1     	0.7     	5.1397e-11
0.15    	0       	3.8189e-12
0.15    	0.05    	2.9302e-10
0.15    	0.1     	3.363e-10
0.15    	0.15    	3.432e-10
0.15    	0.2     	3.447e-10
0.15    	0.25    	3.4535e-10
0.15    	0.3     	3.4584e-10
0.15    	0.35    	3.4626e-10
0.15    	0.4     	3.4665e-10
0.15    	0.45    	3.4701e-10
0.15    	0.5     	3.4734e-10
0.15    	0.55    	3.4766e-10
0.15    	0.6     	3.4796e-10
0.15    	0.65    	3.4824e-10
0.15    	0.7     	3.4851e-10
0.2     	0       	3.1017e-11
0.2     	0.05    	1.912e-09
0.2     	0.1     	2.205e-09
0.2     	0.15    	2.2525e-09
0.2     	0.2     	2.2631e-09
0.2     	0.25    	2.2678e-09
0.2     	0.3     	2.2713e-09
0.2     	0.35    	2.2744e-09
0.2     	0.4     	2.2771e-09
0.2     	0.45    	2.2795e-09
0.2     	0.5     	2.2819e-09
0.2     	0.55    	2.284e-09
0.2     	0.6     	2.2861e-09
0.2     	0.65    	2.288e-09
0.2     	0.7     	2.2898e-09
0.25    	0       	2.2081e-10
0.25    	0.05    	1.2102e-08
0.25    	0.1     	1.4013e-08
0.25    	0.15    	1.4337e-08
0.25    	0.2     	1.4411e-08
0.25    	0.25    	1.4445e-08
0.25    	0.3     	1.4469e-08
0.25    	0.35    	1.449e-08
0.25    	0.4     	1.4509e-08
0.25    	0.45    	1.4525e-08
0.25    	0.5     	1.4541e-08
0.25    	0.55    	1.4555e-08
0.25    	0.6     	1.4568e-08
0.25    	0.65    	1.4581e-08
0.25    	0.7     	1.4592e-08
0.3     	0       	1.2508e-09
0.3     	0.05    	6.9592e-08
0.3     	0.1     	8.1735e-08
0.3     	0.15    	8.3865e-08
0.3     	0.2     	8.4361e-08
0.3     	0.25    	8.4578e-08
0.3     	0.3     	8.4734e-08
0.3     	0.35    	8.4865e-08
0.3     	0.4     	8.4978e-08
0.3     	0.45    	8.5079e-08
0.3     	0.5     	8.5169e-08
0.3     	0.55    	8.5252e-08
0.3     	0.6     	8.5329e-08
0.3     	0.65    	8.54e-08
0.3     	0.7     	8.5468e-08
0.35    	0       	4.4468e-09
0.35    	0.05    	2.9162e-07
0.35    	0.1     	3.5935e-07
0.35    	0.15    	3.7219e-07
0.35    	0.2     	3.7505e-07
0.35    	0.25    	3.7614e-07
0.35    	0.3     	3.7685e-07
0.35    	0.35    	3.7742e-07
0.35    	0.4     	3.7791e-07
0.35    	0.45    	3.7834e-07
0.35    	0.5     	3.7872e-07
0.35    	0.55    	3.7906e-07
0.35    	0.6     	3.7937e-07
0.35    	0.65    	3.7966e-07
0.35    	0.7     	3.7993e-07
0.4     	0       	9.0274e-09
0.4     	0.05    	7.2742e-07
0.4     	0.1     	9.8611e-07
0.4     	0.15    	1.0452e-06
0.4     	0.2     	1.058e-06
0.4     	0.25    	1.0619e-06
0.4     	0.3     	1.0639e-06
0.4     	0.35    	1.0655e-06
0.4     	0.4     	1.0667e-06
0.4     	0.45    	1.0678e-06
0.4     	0.5     	1.0688e-06
0.4     	0.55    	1.0697e-06
0.4     	0.6     	1.0704e-06
0.4     	0.65    	1.0712e-06
0.4     	0.7     	1.0718e-06
0.45    	0       	1.3088e-08
0.45    	0.05    	1.2145e-06
0.45    	0.1     	1.8387e-06
0.45    	0.15    	2.0306e-06
0.45    	0.2     	2.0754e-06
0.45    	0.25    	2.0872e-06
0.45    	0.3     	2.092e-06
0.45    	0.35    	2.095e-06
0.45    	0.4     	2.0974e-06
0.45    	0.45    	2.0994e-06
0.45    	0.5     	2.1012e-06
0.45    	0.55    	2.1027e-06
0.45    	0.6     	2.104e-06
0.45    	0.65    	2.1053e-06
0.45    	0.7     	2.1064e-06
0.5     	0       	1.6216e-08
0.5     	0.05    	1.6537e-06
0.5     	0.1     	2.7108e-06
0.5     	0.15    	3.1654e-06
0.5     	0.2     	3.292e-06
0.5     	0.25    	3.327e-06
0.5     	0.3     	3.3354e-06
0.5     	0.35    	3.3405e-06
0.5     	0.4     	3.3443e-06
0.5     	0.45    	3.3474e-06
0.5     	0.5     	3.3499e-06
0.5     	0.55    	3.3529e-06
0.5     	0.6     	3.3537e-06
0.5     	0.65    	3.3573e-06
0.5     	0.7     	3.3579e-06
0.55    	0       	1.8655e-08
0.55    	0.05    	2.0073e-06
0.55    	0.1     	3.4842e-06
0.55    	0.15    	4.3042e-06
0.55    	0.2     	4.6063e-06
0.55    	0.25    	4.6845e-06
0.55    	0.3     	4.7098e-06
0.55    	0.35    	4.72e-06
0.55    	0.4     	4.7244e-06
0.55    	0.45    	4.7298e-06
0.55    	0.5     	4.7321e-06
0.55    	0.55    	4.7353e-06
0.55    	0.6     	4.7354e-06
0.55    	0.65    	4.7387e-06
0.55    	0.7     	4.7415e-06
0.6     	0       	2.0644e-08
0.6     	0.05    	2.292e-06
0.6     	0.1     	4.1246e-06
0.6     	0.15    	5.3324e-06
0.6     	0.2     	5.9077e-06
0.6     	0.25    	6.1014e-06
0.6     	0.3     	6.1543e-06
0.6     	0.35    	6.1745e-06
0.6     	0.4     	6.1775e-06
0.6     	0.45    	6.1872e-06
0.6     	0.5     	6.1942e-06
0.6     	0.55    	6.1895e-06
0.6     	0.6     	6.1948e-06
0.6     	0.65    	6.2001e-06
0.6     	0.7     	6.2055e-06
0.65    	0       	2.236e-08
0.65    	0.05    	2.5205e-06
0.65    	0.1     	4.6389e-06
0.65    	0.15    	6.1978e-06
0.65    	0.2     	7.1266e-06
0.65    	0.25    	7.5012e-06
0.65    	0.3     	7.6238e-06
0.65    	0.35    	7.6638e-06
0.65    	0.4     	7.6737e-06
0.65    	0.45    	7.6792e-06
0.65    	0.5     	7.6899e-06
0.65    	0.55    	7.6892e-06
0.65    	0.6     	7.6972e-06
0.65    	0.65    	7.7007e-06
0.65    	0.7     	7.698e-06
0.7     	0       	2.3866e-08
0.7     	0.05    	2.7047e-06
0.7     	0.1     	5.0499e-06
0.7     	0.15    	6.9051e-06
0.7     	0.2     	8.1531e-06
0.7     	0.25    	8.7938e-06
0.7     	0.3     	9.0582e-06
0.7     	0.35    	9.1399e-06
0.7     	0.4     	9.1795e-06
0.7     	0.45    	9.1837e-06
0.7     	0.5     	9.1961e-06
0.7     	0.55    	9.202e-06
0.7     	0.6     	9.2058e-06
0.7     	0.65    	9.2091e-06
0.7     	0.7     	9.2119e-06
