vg      	vd      	ids     
0       	0       	5.6368e-15
0       	0.05    	1.1461e-12
0       	0.1     	1.3136e-12
0       	0.15    	1.3393e-12
0       	0.2     	1.3443e-12
0       	0.25    	1.3462e-12
0       	0.3     	1.3476e-12
0       	0.35    	1.3488e-12
0       	0.4     	1.3499e-12
0       	0.45    	1.351e-12
0       	0.5     	1.352e-12
0       	0.55    	1.353e-12
0       	0.6     	1.3539e-12
0       	0.65    	1.3548e-12
0       	0.7     	1.3556e-12
0.05    	0       	4.166e-14
0.05    	0.05    	7.855e-12
0.05    	0.1     	9.0055e-12
0.05    	0.15    	9.1833e-12
0.05    	0.2     	9.2184e-12
0.05    	0.25    	9.2321e-12
0.05    	0.3     	9.2421e-12
0.05    	0.35    	9.2509e-12
0.05    	0.4     	9.2591e-12
0.05    	0.45    	9.2668e-12
0.05    	0.5     	9.274e-12
0.05    	0.55    	9.2809e-12
0.05    	0.6     	9.2873e-12
0.05    	0.65    	9.2935e-12
0.05    	0.7     	9.2993e-12
0.1     	0       	2.9123e-13
0.1     	0.05    	5.4299e-11
0.1     	0.1     	6.2188e-11
0.1     	0.15    	6.3416e-11
0.1     	0.2     	6.3665e-11
0.1     	0.25    	6.3765e-11
0.1     	0.3     	6.3837e-11
0.1     	0.35    	6.3901e-11
0.1     	0.4     	6.396e-11
0.1     	0.45    	6.4015e-11
0.1     	0.5     	6.4067e-11
0.1     	0.55    	6.4116e-11
0.1     	0.6     	6.4162e-11
0.1     	0.65    	6.4206e-11
0.1     	0.7     	6.4247e-11
0.15    	0       	2.1042e-12
0.15    	0.05    	3.7211e-10
0.15    	0.1     	4.267e-10
0.15    	0.15    	4.3519e-10
0.15    	0.2     	4.3695e-10
0.15    	0.25    	4.3767e-10
0.15    	0.3     	4.382e-10
0.15    	0.35    	4.3866e-10
0.15    	0.4     	4.3909e-10
0.15    	0.45    	4.3948e-10
0.15    	0.5     	4.3985e-10
0.15    	0.55    	4.4019e-10
0.15    	0.6     	4.4051e-10
0.15    	0.65    	4.4082e-10
0.15    	0.7     	4.4111e-10
0.2     	0       	1.4977e-11
0.2     	0.05    	2.5286e-09
0.2     	0.1     	2.9033e-09
0.2     	0.15    	2.9625e-09
0.2     	0.2     	2.975e-09
0.2     	0.25    	2.9803e-09
0.2     	0.3     	2.9841e-09
0.2     	0.35    	2.9874e-09
0.2     	0.4     	2.9904e-09
0.2     	0.45    	2.9932e-09
0.2     	0.5     	2.9958e-09
0.2     	0.55    	2.9982e-09
0.2     	0.6     	3.0004e-09
0.2     	0.65    	3.0025e-09
0.2     	0.7     	3.0046e-09
0.25    	0       	9.7324e-11
0.25    	0.05    	1.6907e-08
0.25    	0.1     	1.9456e-08
0.25    	0.15    	1.9867e-08
0.25    	0.2     	1.9956e-08
0.25    	0.25    	1.9993e-08
0.25    	0.3     	2.002e-08
0.25    	0.35    	2.0043e-08
0.25    	0.4     	2.0064e-08
0.25    	0.45    	2.0083e-08
0.25    	0.5     	2.01e-08
0.25    	0.55    	2.0116e-08
0.25    	0.6     	2.0131e-08
0.25    	0.65    	2.0145e-08
0.25    	0.7     	2.0159e-08
0.3     	0       	5.4168e-10
0.3     	0.05    	9.9976e-08
0.3     	0.1     	1.1716e-07
0.3     	0.15    	1.1999e-07
0.3     	0.2     	1.206e-07
0.3     	0.25    	1.2084e-07
0.3     	0.3     	1.21e-07
0.3     	0.35    	1.2114e-07
0.3     	0.4     	1.2126e-07
0.3     	0.45    	1.2136e-07
0.3     	0.5     	1.2146e-07
0.3     	0.55    	1.2155e-07
0.3     	0.6     	1.2163e-07
0.3     	0.65    	1.2171e-07
0.3     	0.7     	1.2178e-07
0.35    	0       	1.8118e-09
0.35    	0.05    	3.99e-07
0.35    	0.1     	4.9987e-07
0.35    	0.15    	5.1846e-07
0.35    	0.2     	5.2216e-07
0.35    	0.25    	5.2335e-07
0.35    	0.3     	5.2403e-07
0.35    	0.35    	5.2456e-07
0.35    	0.4     	5.2501e-07
0.35    	0.45    	5.254e-07
0.35    	0.5     	5.2575e-07
0.35    	0.55    	5.2606e-07
0.35    	0.6     	5.2635e-07
0.35    	0.65    	5.2662e-07
0.35    	0.7     	5.2686e-07
0.4     	0       	3.3002e-09
0.4     	0.05    	8.7982e-07
0.4     	0.1     	1.2702e-06
0.4     	0.15    	1.3715e-06
0.4     	0.2     	1.3926e-06
0.4     	0.25    	1.3979e-06
0.4     	0.3     	1.4e-06 
0.4     	0.35    	1.4016e-06
0.4     	0.4     	1.4027e-06
0.4     	0.45    	1.4036e-06
0.4     	0.5     	1.4043e-06
0.4     	0.55    	1.405e-06
0.4     	0.6     	1.4056e-06
0.4     	0.65    	1.4063e-06
0.4     	0.7     	1.4068e-06
0.45    	0       	4.4384e-09
0.45    	0.05    	1.281e-06
0.45    	0.1     	2.1315e-06
0.45    	0.15    	2.4921e-06
0.45    	0.2     	2.5967e-06
0.45    	0.25    	2.6206e-06
0.45    	0.3     	2.628e-06
0.45    	0.35    	2.631e-06
0.45    	0.4     	2.633e-06
0.45    	0.45    	2.6346e-06
0.45    	0.5     	2.636e-06
0.45    	0.55    	2.6371e-06
0.45    	0.6     	2.6381e-06
0.45    	0.65    	2.639e-06
0.45    	0.7     	2.6398e-06
0.5     	0       	5.3139e-09
0.5     	0.05    	1.5591e-06
0.5     	0.1     	2.7883e-06
0.5     	0.15    	3.5611e-06
0.5     	0.2     	3.891e-06
0.5     	0.25    	3.9963e-06
0.5     	0.3     	4.0244e-06
0.5     	0.35    	4.0328e-06
0.5     	0.4     	4.0367e-06
0.5     	0.45    	4.0394e-06
0.5     	0.5     	4.0413e-06
0.5     	0.55    	4.0429e-06
0.5     	0.6     	4.0443e-06
0.5     	0.65    	4.0455e-06
0.5     	0.7     	4.0465e-06
0.55    	0       	6.0322e-09
0.55    	0.05    	1.7404e-06
0.55    	0.1     	3.2243e-06
0.55    	0.15    	4.3463e-06
0.55    	0.2     	5.0166e-06
0.55    	0.25    	5.3288e-06
0.55    	0.3     	5.4424e-06
0.55    	0.35    	5.4727e-06
0.55    	0.4     	5.4837e-06
0.55    	0.45    	5.4884e-06
0.55    	0.5     	5.4916e-06
0.55    	0.55    	5.4937e-06
0.55    	0.6     	5.4955e-06
0.55    	0.65    	5.4969e-06
0.55    	0.7     	5.4981e-06
0.6     	0       	6.5973e-09
0.6     	0.05    	1.8782e-06
0.6     	0.1     	3.5226e-06
0.6     	0.15    	4.8682e-06
0.6     	0.2     	5.8289e-06
0.6     	0.25    	6.4093e-06
0.6     	0.3     	6.7188e-06
0.6     	0.35    	6.8365e-06
0.6     	0.4     	6.8741e-06
0.6     	0.45    	6.8871e-06
0.6     	0.5     	6.8933e-06
0.6     	0.55    	6.8967e-06
0.6     	0.6     	6.8992e-06
0.6     	0.65    	6.9009e-06
0.6     	0.7     	6.9024e-06
0.65    	0       	7.1319e-09
0.65    	0.05    	1.9814e-06
0.65    	0.1     	3.7432e-06
0.65    	0.15    	5.228e-06
0.65    	0.2     	6.3732e-06
0.65    	0.25    	7.1592e-06
0.65    	0.3     	7.6867e-06
0.65    	0.35    	7.9734e-06
0.65    	0.4     	8.1033e-06
0.65    	0.45    	8.1539e-06
0.65    	0.5     	8.1722e-06
0.65    	0.55    	8.1809e-06
0.65    	0.6     	8.1853e-06
0.65    	0.65    	8.1882e-06
0.65    	0.7     	8.19e-06
0.7     	0       	7.5557e-09
0.7     	0.05    	2.0551e-06
0.7     	0.1     	3.9087e-06
0.7     	0.15    	5.508e-06
0.7     	0.2     	6.7498e-06
0.7     	0.25    	7.6617e-06
0.7     	0.3     	8.3338e-06
0.7     	0.35    	8.7748e-06
0.7     	0.4     	9.0414e-06
0.7     	0.45    	9.1903e-06
0.7     	0.5     	9.2563e-06
0.7     	0.55    	9.2882e-06
0.7     	0.6     	9.3022e-06
0.7     	0.65    	9.3094e-06
0.7     	0.7     	9.3126e-06
