vg      	vd      	ids     
0       	0       	4.9434e-21
0       	0.05    	1.222e-17
0       	0.1     	1.3986e-17
0       	0.15    	1.4252e-17
0       	0.2     	1.43e-17
0       	0.25    	1.4316e-17
0       	0.3     	1.4328e-17
0       	0.35    	1.4338e-17
0       	0.4     	1.4347e-17
0       	0.45    	1.4356e-17
0       	0.5     	1.4365e-17
0       	0.55    	1.4373e-17
0       	0.6     	1.4381e-17
0       	0.65    	1.4389e-17
0       	0.7     	1.4396e-17
0.05    	0       	3.7343e-20
0.05    	0.05    	8.4267e-17
0.05    	0.1     	9.6553e-17
0.05    	0.15    	9.8394e-17
0.05    	0.2     	9.8731e-17
0.05    	0.25    	9.8847e-17
0.05    	0.3     	9.8927e-17
0.05    	0.35    	9.8998e-17
0.05    	0.4     	9.9066e-17
0.05    	0.45    	9.9131e-17
0.05    	0.5     	9.9192e-17
0.05    	0.55    	9.9251e-17
0.05    	0.6     	9.9308e-17
0.05    	0.65    	9.9363e-17
0.05    	0.7     	9.9415e-17
0.1     	0       	2.9131e-19
0.1     	0.05    	5.8111e-16
0.1     	0.1     	6.6588e-16
0.1     	0.15    	6.787e-16
0.1     	0.2     	6.8106e-16
0.1     	0.25    	6.8189e-16
0.1     	0.3     	6.8246e-16
0.1     	0.35    	6.8297e-16
0.1     	0.4     	6.8346e-16
0.1     	0.45    	6.8392e-16
0.1     	0.5     	6.8436e-16
0.1     	0.55    	6.8477e-16
0.1     	0.6     	6.8518e-16
0.1     	0.65    	6.8556e-16
0.1     	0.7     	6.8594e-16
0.15    	0       	2.2937e-18
0.15    	0.05    	4.0016e-15
0.15    	0.1     	4.5864e-15
0.15    	0.15    	4.675e-15
0.15    	0.2     	4.6916e-15
0.15    	0.25    	4.6975e-15
0.15    	0.3     	4.7016e-15
0.15    	0.35    	4.7053e-15
0.15    	0.4     	4.7088e-15
0.15    	0.45    	4.712e-15
0.15    	0.5     	4.7152e-15
0.15    	0.55    	4.7182e-15
0.15    	0.6     	4.721e-15
0.15    	0.65    	4.7237e-15
0.15    	0.7     	4.7264e-15
0.2     	0       	1.3059e-17
0.2     	0.05    	2.7811e-14
0.2     	0.1     	3.184e-14
0.2     	0.15    	3.2454e-14
0.2     	0.2     	3.257e-14
0.2     	0.25    	3.2613e-14
0.2     	0.3     	3.2643e-14
0.2     	0.35    	3.2669e-14
0.2     	0.4     	3.2694e-14
0.2     	0.45    	3.2718e-14
0.2     	0.5     	3.274e-14
0.2     	0.55    	3.2762e-14
0.2     	0.6     	3.2782e-14
0.2     	0.65    	3.2802e-14
0.2     	0.7     	3.282e-14
0.25    	0       	1.0389e-16
0.25    	0.05    	1.9154e-13
0.25    	0.1     	2.1955e-13
0.25    	0.15    	2.238e-13
0.25    	0.2     	2.2462e-13
0.25    	0.25    	2.2492e-13
0.25    	0.3     	2.2514e-13
0.25    	0.35    	2.2533e-13
0.25    	0.4     	2.2552e-13
0.25    	0.45    	2.2568e-13
0.25    	0.5     	2.2584e-13
0.25    	0.55    	2.26e-13
0.25    	0.6     	2.2614e-13
0.25    	0.65    	2.2628e-13
0.25    	0.7     	2.2641e-13
0.3     	0       	8.681e-16
0.3     	0.05    	1.3176e-12
0.3     	0.1     	1.5109e-12
0.3     	0.15    	1.5406e-12
0.3     	0.2     	1.5463e-12
0.3     	0.25    	1.5485e-12
0.3     	0.3     	1.5501e-12
0.3     	0.35    	1.5515e-12
0.3     	0.4     	1.5528e-12
0.3     	0.45    	1.554e-12
0.3     	0.5     	1.5552e-12
0.3     	0.55    	1.5563e-12
0.3     	0.6     	1.5573e-12
0.3     	0.65    	1.5583e-12
0.3     	0.7     	1.5592e-12
0.35    	0       	4.7421e-15
0.35    	0.05    	9.1404e-12
0.35    	0.1     	1.047e-11
0.35    	0.15    	1.0676e-11
0.35    	0.2     	1.0717e-11
0.35    	0.25    	1.0733e-11
0.35    	0.3     	1.0744e-11
0.35    	0.35    	1.0755e-11
0.35    	0.4     	1.0764e-11
0.35    	0.45    	1.0773e-11
0.35    	0.5     	1.0781e-11
0.35    	0.55    	1.0789e-11
0.35    	0.6     	1.0796e-11
0.35    	0.65    	1.0803e-11
0.35    	0.7     	1.081e-11
0.4     	0       	4.1484e-14
0.4     	0.05    	6.2818e-11
0.4     	0.1     	7.2054e-11
0.4     	0.15    	7.3479e-11
0.4     	0.2     	7.3771e-11
0.4     	0.25    	7.3888e-11
0.4     	0.3     	7.3974e-11
0.4     	0.35    	7.4049e-11
0.4     	0.4     	7.4118e-11
0.4     	0.45    	7.4181e-11
0.4     	0.5     	7.424e-11
0.4     	0.55    	7.4296e-11
0.4     	0.6     	7.4348e-11
0.4     	0.65    	7.4397e-11
0.4     	0.7     	7.4444e-11
0.45    	0       	4.0183e-13
0.45    	0.05    	4.2978e-10
0.45    	0.1     	4.9336e-10
0.45    	0.15    	5.0334e-10
0.45    	0.2     	5.0542e-10
0.45    	0.25    	5.0629e-10
0.45    	0.3     	5.0692e-10
0.45    	0.35    	5.0747e-10
0.45    	0.4     	5.0796e-10
0.45    	0.45    	5.0842e-10
0.45    	0.5     	5.0884e-10
0.45    	0.55    	5.0924e-10
0.45    	0.6     	5.096e-10
0.45    	0.65    	5.0995e-10
0.45    	0.7     	5.1028e-10
0.5     	0       	1.4872e-12
0.5     	0.05    	2.9379e-09
0.5     	0.1     	3.3758e-09
0.5     	0.15    	3.4453e-09
0.5     	0.2     	3.4604e-09
0.5     	0.25    	3.4668e-09
0.5     	0.3     	3.4714e-09
0.5     	0.35    	3.4754e-09
0.5     	0.4     	3.479e-09
0.5     	0.45    	3.4822e-09
0.5     	0.5     	3.4852e-09
0.5     	0.55    	3.488e-09
0.5     	0.6     	3.4905e-09
0.5     	0.65    	3.4929e-09
0.5     	0.7     	3.4952e-09
0.55    	0       	7.3999e-12
0.55    	0.05    	1.8747e-08
0.55    	0.1     	2.1737e-08
0.55    	0.15    	2.2222e-08
0.55    	0.2     	2.2328e-08
0.55    	0.25    	2.2373e-08
0.55    	0.3     	2.2404e-08
0.55    	0.35    	2.2431e-08
0.55    	0.4     	2.2454e-08
0.55    	0.45    	2.2475e-08
0.55    	0.5     	2.2494e-08
0.55    	0.55    	2.2512e-08
0.55    	0.6     	2.2528e-08
0.55    	0.65    	2.2543e-08
0.55    	0.7     	2.2557e-08
0.6     	0       	2.0828e-11
0.6     	0.05    	9.0133e-08
0.6     	0.1     	1.0955e-07
0.6     	0.15    	1.1288e-07
0.6     	0.2     	1.1357e-07
0.6     	0.25    	1.1382e-07
0.6     	0.3     	1.1398e-07
0.6     	0.35    	1.1411e-07
0.6     	0.4     	1.1422e-07
0.6     	0.45    	1.1432e-07
0.6     	0.5     	1.144e-07
0.6     	0.55    	1.1448e-07
0.6     	0.6     	1.1455e-07
0.6     	0.65    	1.1461e-07
0.6     	0.7     	1.1467e-07
0.65    	0       	4.0833e-11
0.65    	0.05    	2.2945e-07
0.65    	0.1     	3.2509e-07
0.65    	0.15    	3.4754e-07
0.65    	0.2     	3.5208e-07
0.65    	0.25    	3.5318e-07
0.65    	0.3     	3.5369e-07
0.65    	0.35    	3.5408e-07
0.65    	0.4     	3.5435e-07
0.65    	0.45    	3.5459e-07
0.65    	0.5     	3.548e-07
0.65    	0.55    	3.5499e-07
0.65    	0.6     	3.5517e-07
0.65    	0.65    	3.5532e-07
0.65    	0.7     	3.5546e-07
0.7     	0       	5.1709e-11
0.7     	0.05    	3.2918e-07
0.7     	0.1     	5.5947e-07
0.7     	0.15    	6.6528e-07
0.7     	0.2     	6.9587e-07
0.7     	0.25    	7.0204e-07
0.7     	0.3     	7.0387e-07
0.7     	0.35    	7.0465e-07
0.7     	0.4     	7.0518e-07
0.7     	0.45    	7.0559e-07
0.7     	0.5     	7.0597e-07
0.7     	0.55    	7.0627e-07
0.7     	0.6     	7.0653e-07
0.7     	0.65    	7.0678e-07
0.7     	0.7     	7.0699e-07
