vg      	vd      	ids     
0       	0       	3.1224e-13
0       	0.05    	1.128e-11
0       	0.1     	1.2869e-11
0       	0.15    	1.3109e-11
0       	0.2     	1.3151e-11
0       	0.25    	1.3164e-11
0       	0.3     	1.3173e-11
0       	0.35    	1.318e-11
0       	0.4     	1.3186e-11
0       	0.45    	1.3192e-11
0       	0.5     	1.3197e-11
0       	0.55    	1.3202e-11
0       	0.6     	1.3207e-11
0       	0.65    	1.3212e-11
0       	0.7     	1.3216e-11
0.05    	0       	2.141e-12
0.05    	0.05    	7.7207e-11
0.05    	0.1     	8.8321e-11
0.05    	0.15    	8.9976e-11
0.05    	0.2     	9.0276e-11
0.05    	0.25    	9.0372e-11
0.05    	0.3     	9.0433e-11
0.05    	0.35    	9.0485e-11
0.05    	0.4     	9.0532e-11
0.05    	0.45    	9.0575e-11
0.05    	0.5     	9.0615e-11
0.05    	0.55    	9.0653e-11
0.05    	0.6     	9.0689e-11
0.05    	0.65    	9.0722e-11
0.05    	0.7     	9.0754e-11
0.1     	0       	1.4412e-11
0.1     	0.05    	5.2655e-10
0.1     	0.1     	6.0269e-10
0.1     	0.15    	6.1433e-10
0.1     	0.2     	6.1645e-10
0.1     	0.25    	6.1716e-10
0.1     	0.3     	6.1762e-10
0.1     	0.35    	6.1801e-10
0.1     	0.4     	6.1835e-10
0.1     	0.45    	6.1867e-10
0.1     	0.5     	6.1897e-10
0.1     	0.55    	6.1925e-10
0.1     	0.6     	6.195e-10
0.1     	0.65    	6.1974e-10
0.1     	0.7     	6.1997e-10
0.15    	0       	9.5979e-11
0.15    	0.05    	3.5799e-09
0.15    	0.1     	4.0997e-09
0.15    	0.15    	4.1802e-09
0.15    	0.2     	4.1955e-09
0.15    	0.25    	4.2008e-09
0.15    	0.3     	4.2042e-09
0.15    	0.35    	4.2072e-09
0.15    	0.4     	4.2098e-09
0.15    	0.45    	4.2121e-09
0.15    	0.5     	4.2143e-09
0.15    	0.55    	4.2163e-09
0.15    	0.6     	4.2182e-09
0.15    	0.65    	4.2199e-09
0.15    	0.7     	4.2215e-09
0.2     	0       	6.0377e-10
0.2     	0.05    	2.3337e-08
0.2     	0.1     	2.6857e-08
0.2     	0.15    	2.741e-08
0.2     	0.2     	2.7519e-08
0.2     	0.25    	2.7558e-08
0.2     	0.3     	2.7584e-08
0.2     	0.35    	2.7605e-08
0.2     	0.4     	2.7624e-08
0.2     	0.45    	2.764e-08
0.2     	0.5     	2.7656e-08
0.2     	0.55    	2.767e-08
0.2     	0.6     	2.7683e-08
0.2     	0.65    	2.7695e-08
0.2     	0.7     	2.7706e-08
0.25    	0       	3.0391e-09
0.25    	0.05    	1.3119e-07
0.25    	0.1     	1.5448e-07
0.25    	0.15    	1.5834e-07
0.25    	0.2     	1.591e-07
0.25    	0.25    	1.5936e-07
0.25    	0.3     	1.5953e-07
0.25    	0.35    	1.5966e-07
0.25    	0.4     	1.5977e-07
0.25    	0.45    	1.5987e-07
0.25    	0.5     	1.5996e-07
0.25    	0.55    	1.6004e-07
0.25    	0.6     	1.6012e-07
0.25    	0.65    	1.6019e-07
0.25    	0.7     	1.6025e-07
0.3     	0       	8.9117e-09
0.3     	0.05    	4.9119e-07
0.3     	0.1     	6.2221e-07
0.3     	0.15    	6.4771e-07
0.3     	0.2     	6.527e-07
0.3     	0.25    	6.5413e-07
0.3     	0.3     	6.5487e-07
0.3     	0.35    	6.5541e-07
0.3     	0.4     	6.5587e-07
0.3     	0.45    	6.5626e-07
0.3     	0.5     	6.5661e-07
0.3     	0.55    	6.5692e-07
0.3     	0.6     	6.5721e-07
0.3     	0.65    	6.5747e-07
0.3     	0.7     	6.5771e-07
0.35    	0       	1.4923e-08
0.35    	0.05    	1.0607e-06
0.35    	0.1     	1.5358e-06
0.35    	0.15    	1.6709e-06
0.35    	0.2     	1.7011e-06
0.35    	0.25    	1.7084e-06
0.35    	0.3     	1.7113e-06
0.35    	0.35    	1.7128e-06
0.35    	0.4     	1.7139e-06
0.35    	0.45    	1.7149e-06
0.35    	0.5     	1.7157e-06
0.35    	0.55    	1.7164e-06
0.35    	0.6     	1.7172e-06
0.35    	0.65    	1.7177e-06
0.35    	0.7     	1.7183e-06
0.4     	0       	1.9403e-08
0.4     	0.05    	1.5772e-06
0.4     	0.1     	2.5851e-06
0.4     	0.15    	3.0316e-06
0.4     	0.2     	3.1763e-06
0.4     	0.25    	3.2107e-06
0.4     	0.3     	3.2209e-06
0.4     	0.35    	3.2246e-06
0.4     	0.4     	3.2269e-06
0.4     	0.45    	3.2286e-06
0.4     	0.5     	3.2301e-06
0.4     	0.55    	3.2314e-06
0.4     	0.6     	3.2324e-06
0.4     	0.65    	3.2334e-06
0.4     	0.7     	3.2343e-06
0.45    	0       	2.2557e-08
0.45    	0.05    	1.9524e-06
0.45    	0.1     	3.4492e-06
0.45    	0.15    	4.3857e-06
0.45    	0.2     	4.7974e-06
0.45    	0.25    	4.9398e-06
0.45    	0.3     	4.9791e-06
0.45    	0.35    	4.9905e-06
0.45    	0.4     	4.9953e-06
0.45    	0.45    	4.9984e-06
0.45    	0.5     	5.0005e-06
0.45    	0.55    	5.0022e-06
0.45    	0.6     	5.0038e-06
0.45    	0.65    	5.0051e-06
0.45    	0.7     	5.0063e-06
0.5     	0       	2.4722e-08
0.5     	0.05    	2.2087e-06
0.5     	0.1     	4.0543e-06
0.5     	0.15    	5.4347e-06
0.5     	0.2     	6.2719e-06
0.5     	0.25    	6.6588e-06
0.5     	0.3     	6.7947e-06
0.5     	0.35    	6.8352e-06
0.5     	0.4     	6.8494e-06
0.5     	0.45    	6.8552e-06
0.5     	0.5     	6.8587e-06
0.5     	0.55    	6.8611e-06
0.5     	0.6     	6.8629e-06
0.5     	0.65    	6.8647e-06
0.5     	0.7     	6.8661e-06
0.55    	0       	2.6246e-08
0.55    	0.05    	2.377e-06
0.55    	0.1     	4.4532e-06
0.55    	0.15    	6.1445e-06
0.55    	0.2     	7.3573e-06
0.55    	0.25    	8.0945e-06
0.55    	0.3     	8.4636e-06
0.55    	0.35    	8.5994e-06
0.55    	0.4     	8.6441e-06
0.55    	0.45    	8.6608e-06
0.55    	0.5     	8.6677e-06
0.55    	0.55    	8.6717e-06
0.55    	0.6     	8.6742e-06
0.55    	0.65    	8.6764e-06
0.55    	0.7     	8.678e-06
0.6     	0       	2.6785e-08
0.6     	0.05    	2.465e-06
0.6     	0.1     	4.6951e-06
0.6     	0.15    	6.5475e-06
0.6     	0.2     	8.0091e-06
0.6     	0.25    	9.0889e-06
0.6     	0.3     	9.7545e-06
0.6     	0.35    	1.0091e-05
0.6     	0.4     	1.0241e-05
0.6     	0.45    	1.0294e-05
0.6     	0.5     	1.0314e-05
0.6     	0.55    	1.0323e-05
0.6     	0.6     	1.0327e-05
0.6     	0.65    	1.033e-05
0.6     	0.7     	1.0332e-05
0.65    	0       	2.6844e-08
0.65    	0.05    	2.4898e-06
0.65    	0.1     	4.7832e-06
0.65    	0.15    	6.761e-06
0.65    	0.2     	8.3912e-06
0.65    	0.25    	9.6822e-06
0.65    	0.3     	1.0549e-05
0.65    	0.35    	1.114e-05
0.65    	0.4     	1.1486e-05
0.65    	0.45    	1.1643e-05
0.65    	0.5     	1.1707e-05
0.65    	0.55    	1.1733e-05
0.65    	0.6     	1.1745e-05
0.65    	0.65    	1.175e-05
0.65    	0.7     	1.1754e-05
0.7     	0       	2.682e-08
0.7     	0.05    	2.4982e-06
0.7     	0.1     	4.8153e-06
0.7     	0.15    	6.8376e-06
0.7     	0.2     	8.5669e-06
0.7     	0.25    	9.9623e-06
0.7     	0.3     	1.0962e-05
0.7     	0.35    	1.1717e-05
0.7     	0.4     	1.2231e-05
0.7     	0.45    	1.2555e-05
0.7     	0.5     	1.2741e-05
0.7     	0.55    	1.2827e-05
0.7     	0.6     	1.2865e-05
0.7     	0.65    	1.2882e-05
0.7     	0.7     	1.2891e-05
