vg      	vd      	ids     
0       	0       	2.1349e-15
0       	0.05    	1.5706e-12
0       	0.1     	1.8145e-12
0       	0.15    	1.8631e-12
0       	0.2     	1.8822e-12
0       	0.25    	1.8962e-12
0       	0.3     	1.9088e-12
0       	0.35    	1.9206e-12
0       	0.4     	1.9316e-12
0       	0.45    	1.9421e-12
0       	0.5     	1.9521e-12
0       	0.55    	1.9615e-12
0       	0.6     	1.9705e-12
0       	0.65    	1.9791e-12
0       	0.7     	1.9873e-12
0.05    	0       	-8.8877e-14
0.05    	0.05    	1.0626e-11
0.05    	0.1     	1.2281e-11
0.05    	0.15    	1.2615e-11
0.05    	0.2     	1.2748e-11
0.05    	0.25    	1.2846e-11
0.05    	0.3     	1.2932e-11
0.05    	0.35    	1.3013e-11
0.05    	0.4     	1.3088e-11
0.05    	0.45    	1.3159e-11
0.05    	0.5     	1.3226e-11
0.05    	0.55    	1.3289e-11
0.05    	0.6     	1.335e-11
0.05    	0.65    	1.3408e-11
0.05    	0.7     	1.3463e-11
0.1     	0       	8.3331e-14
0.1     	0.05    	7.196e-11
0.1     	0.1     	8.3251e-11
0.1     	0.15    	8.5547e-11
0.1     	0.2     	8.6474e-11
0.1     	0.25    	8.715e-11
0.1     	0.3     	8.7747e-11
0.1     	0.35    	8.8295e-11
0.1     	0.4     	8.8806e-11
0.1     	0.45    	8.9284e-11
0.1     	0.5     	8.9735e-11
0.1     	0.55    	9.0161e-11
0.1     	0.6     	9.0567e-11
0.1     	0.65    	9.0954e-11
0.1     	0.7     	9.1325e-11
0.15    	0       	6.5958e-13
0.15    	0.05    	4.8179e-10
0.15    	0.1     	5.5813e-10
0.15    	0.15    	5.7393e-10
0.15    	0.2     	5.8032e-10
0.15    	0.25    	5.8494e-10
0.15    	0.3     	5.8897e-10
0.15    	0.35    	5.9264e-10
0.15    	0.4     	5.9605e-10
0.15    	0.45    	5.9922e-10
0.15    	0.5     	6.022e-10
0.15    	0.55    	6.0502e-10
0.15    	0.6     	6.0771e-10
0.15    	0.65    	6.1026e-10
0.15    	0.7     	6.1271e-10
0.2     	0       	3.4813e-12
0.2     	0.05    	3.2026e-09
0.2     	0.1     	3.7152e-09
0.2     	0.15    	3.8227e-09
0.2     	0.2     	3.8661e-09
0.2     	0.25    	3.897e-09
0.2     	0.3     	3.9236e-09
0.2     	0.35    	3.9476e-09
0.2     	0.4     	3.9697e-09
0.2     	0.45    	3.9903e-09
0.2     	0.5     	4.0095e-09
0.2     	0.55    	4.0277e-09
0.2     	0.6     	4.0449e-09
0.2     	0.65    	4.0612e-09
0.2     	0.7     	4.0769e-09
0.25    	0       	1.838e-11
0.25    	0.05    	2.002e-08
0.25    	0.1     	2.3413e-08
0.25    	0.15    	2.4115e-08
0.25    	0.2     	2.4387e-08
0.25    	0.25    	2.4573e-08
0.25    	0.3     	2.473e-08
0.25    	0.35    	2.4869e-08
0.25    	0.4     	2.4996e-08
0.25    	0.45    	2.5113e-08
0.25    	0.5     	2.5221e-08
0.25    	0.55    	2.5322e-08
0.25    	0.6     	2.5417e-08
0.25    	0.65    	2.5506e-08
0.25    	0.7     	2.5591e-08
0.3     	0       	7.4205e-11
0.3     	0.05    	9.9365e-08
0.3     	0.1     	1.1987e-07
0.3     	0.15    	1.2401e-07
0.3     	0.2     	1.2535e-07
0.3     	0.25    	1.2615e-07
0.3     	0.3     	1.2679e-07
0.3     	0.35    	1.2734e-07
0.3     	0.4     	1.2782e-07
0.3     	0.45    	1.2827e-07
0.3     	0.5     	1.2867e-07
0.3     	0.55    	1.2904e-07
0.3     	0.6     	1.2939e-07
0.3     	0.65    	1.2971e-07
0.3     	0.7     	1.3002e-07
0.35    	0       	1.7489e-10
0.35    	0.05    	2.9432e-07
0.35    	0.1     	3.8749e-07
0.35    	0.15    	4.0757e-07
0.35    	0.2     	4.1267e-07
0.35    	0.25    	4.1493e-07
0.35    	0.3     	4.1647e-07
0.35    	0.35    	4.1773e-07
0.35    	0.4     	4.1881e-07
0.35    	0.45    	4.1976e-07
0.35    	0.5     	4.2073e-07
0.35    	0.55    	4.2151e-07
0.35    	0.6     	4.2221e-07
0.35    	0.65    	4.2287e-07
0.35    	0.7     	4.2348e-07
0.4     	0       	2.6656e-10
0.4     	0.05    	5.2619e-07
0.4     	0.1     	7.8641e-07
0.4     	0.15    	8.6455e-07
0.4     	0.2     	8.8263e-07
0.4     	0.25    	8.8838e-07
0.4     	0.3     	8.9177e-07
0.4     	0.35    	8.9392e-07
0.4     	0.4     	8.9566e-07
0.4     	0.45    	8.9714e-07
0.4     	0.5     	8.9845e-07
0.4     	0.55    	8.9961e-07
0.4     	0.6     	9.0079e-07
0.4     	0.65    	9.0175e-07
0.4     	0.7     	9.0262e-07
0.45    	0       	3.3477e-10
0.45    	0.05    	7.0389e-07
0.45    	0.1     	1.1778e-06
0.45    	0.15    	1.3872e-06
0.45    	0.2     	1.4494e-06
0.45    	0.25    	1.4662e-06
0.45    	0.3     	1.4721e-06
0.45    	0.35    	1.4755e-06
0.45    	0.4     	1.4781e-06
0.45    	0.45    	1.4804e-06
0.45    	0.5     	1.4822e-06
0.45    	0.55    	1.4837e-06
0.45    	0.6     	1.4851e-06
0.45    	0.65    	1.4864e-06
0.45    	0.7     	1.4875e-06
0.5     	0       	3.8666e-10
0.5     	0.05    	8.3161e-07
0.5     	0.1     	1.4793e-06
0.5     	0.15    	1.8667e-06
0.5     	0.2     	2.034e-06
0.5     	0.25    	2.0816e-06
0.5     	0.3     	2.0953e-06
0.5     	0.35    	2.1018e-06
0.5     	0.4     	2.1054e-06
0.5     	0.45    	2.1082e-06
0.5     	0.5     	2.1106e-06
0.5     	0.55    	2.1125e-06
0.5     	0.6     	2.1141e-06
0.5     	0.65    	2.1156e-06
0.5     	0.7     	2.117e-06
0.55    	0       	4.2853e-10
0.55    	0.05    	9.1612e-07
0.55    	0.1     	1.6888e-06
0.55    	0.15    	2.2368e-06
0.55    	0.2     	2.5541e-06
0.55    	0.25    	2.6816e-06
0.55    	0.3     	2.7197e-06
0.55    	0.35    	2.732e-06
0.55    	0.4     	2.7383e-06
0.55    	0.45    	2.742e-06
0.55    	0.5     	2.7447e-06
0.55    	0.55    	2.7471e-06
0.55    	0.6     	2.749e-06
0.55    	0.65    	2.7507e-06
0.55    	0.7     	2.7522e-06
0.6     	0       	4.6263e-10
0.6     	0.05    	9.763e-07
0.6     	0.1     	1.8335e-06
0.6     	0.15    	2.4968e-06
0.6     	0.2     	2.9325e-06
0.6     	0.25    	3.2013e-06
0.6     	0.3     	3.3038e-06
0.6     	0.35    	3.337e-06
0.6     	0.4     	3.3487e-06
0.6     	0.45    	3.3548e-06
0.6     	0.5     	3.3585e-06
0.6     	0.55    	3.3613e-06
0.6     	0.6     	3.3635e-06
0.6     	0.65    	3.3653e-06
0.6     	0.7     	3.3669e-06
0.65    	0       	4.9427e-10
0.65    	0.05    	1.0217e-06
0.65    	0.1     	1.9371e-06
0.65    	0.15    	2.6771e-06
0.65    	0.2     	3.2054e-06
0.65    	0.25    	3.5745e-06
0.65    	0.3     	3.7909e-06
0.65    	0.35    	3.8806e-06
0.65    	0.4     	3.914e-06
0.65    	0.45    	3.9257e-06
0.65    	0.5     	3.9318e-06
0.65    	0.55    	3.9353e-06
0.65    	0.6     	3.938e-06
0.65    	0.65    	3.94e-06
0.65    	0.7     	3.9416e-06
0.7     	0       	5.2166e-10
0.7     	0.05    	1.0572e-06
0.7     	0.1     	2.0142e-06
0.7     	0.15    	2.805e-06
0.7     	0.2     	3.3931e-06
0.7     	0.25    	3.834e-06
0.7     	0.3     	4.1253e-06
0.7     	0.35    	4.3078e-06
0.7     	0.4     	4.3959e-06
0.7     	0.45    	4.4307e-06
0.7     	0.5     	4.4445e-06
0.7     	0.55    	4.4507e-06
0.7     	0.6     	4.4545e-06
0.7     	0.65    	4.457e-06
0.7     	0.7     	4.4588e-06
