vg      	vd      	ids     
0       	0       	-4.1682e-13
0       	0.05    	1.7402e-10
0       	0.1     	2.0956e-10
0       	0.15    	2.2309e-10
0       	0.2     	2.3257e-10
0       	0.25    	2.4055e-10
0       	0.3     	2.4773e-10
0       	0.35    	2.5453e-10
0       	0.4     	2.6111e-10
0       	0.45    	2.6755e-10
0       	0.5     	2.7388e-10
0       	0.55    	2.8011e-10
0       	0.6     	2.8627e-10
0       	0.65    	2.9236e-10
0       	0.7     	2.9841e-10
0.05    	0       	-1.9406e-12
0.05    	0.05    	1.0559e-09
0.05    	0.1     	1.2753e-09
0.05    	0.15    	1.3577e-09
0.05    	0.2     	1.4126e-09
0.05    	0.25    	1.459e-09
0.05    	0.3     	1.5022e-09
0.05    	0.35    	1.5437e-09
0.05    	0.4     	1.5843e-09
0.05    	0.45    	1.6241e-09
0.05    	0.5     	1.6634e-09
0.05    	0.55    	1.702e-09
0.05    	0.6     	1.7401e-09
0.05    	0.65    	1.7777e-09
0.05    	0.7     	1.8148e-09
0.1     	0       	-1.1521e-11
0.1     	0.05    	6.2886e-09
0.1     	0.1     	7.6064e-09
0.1     	0.15    	8.0806e-09
0.1     	0.2     	8.3921e-09
0.1     	0.25    	8.6646e-09
0.1     	0.3     	8.9226e-09
0.1     	0.35    	9.172e-09
0.1     	0.4     	9.4152e-09
0.1     	0.45    	9.6533e-09
0.1     	0.5     	9.8866e-09
0.1     	0.55    	1.0114e-08
0.1     	0.6     	1.0336e-08
0.1     	0.65    	1.0549e-08
0.1     	0.7     	1.0754e-08
0.15    	0       	-6.3862e-11
0.15    	0.05    	3.4741e-08
0.15    	0.1     	4.2241e-08
0.15    	0.15    	4.4787e-08
0.15    	0.2     	4.6448e-08
0.15    	0.25    	4.7906e-08
0.15    	0.3     	4.9275e-08
0.15    	0.35    	5.0568e-08
0.15    	0.4     	5.1779e-08
0.15    	0.45    	5.2898e-08
0.15    	0.5     	5.3925e-08
0.15    	0.55    	5.4872e-08
0.15    	0.6     	5.576e-08
0.15    	0.65    	5.6603e-08
0.15    	0.7     	5.7412e-08
0.2     	0       	-2.6226e-10
0.2     	0.05    	1.5386e-07
0.2     	0.1     	1.9099e-07
0.2     	0.15    	2.0237e-07
0.2     	0.2     	2.0869e-07
0.2     	0.25    	2.1359e-07
0.2     	0.3     	2.1783e-07
0.2     	0.35    	2.2166e-07
0.2     	0.4     	2.2521e-07
0.2     	0.45    	2.2855e-07
0.2     	0.5     	2.3174e-07
0.2     	0.55    	2.348e-07
0.2     	0.6     	2.3774e-07
0.2     	0.65    	2.4057e-07
0.2     	0.7     	2.4329e-07
0.25    	0       	-6.4477e-10
0.25    	0.05    	4.4783e-07
0.25    	0.1     	5.8292e-07
0.25    	0.15    	6.1859e-07
0.25    	0.2     	6.3336e-07
0.25    	0.25    	6.4341e-07
0.25    	0.3     	6.5187e-07
0.25    	0.35    	6.5943e-07
0.25    	0.4     	6.6628e-07
0.25    	0.45    	6.7253e-07
0.25    	0.5     	6.7828e-07
0.25    	0.55    	6.836e-07
0.25    	0.6     	6.8857e-07
0.25    	0.65    	6.9324e-07
0.25    	0.7     	6.9767e-07
0.3     	0       	-1.0556e-09
0.3     	0.05    	8.6371e-07
0.3     	0.1     	1.2061e-06
0.3     	0.15    	1.2976e-06
0.3     	0.2     	1.3298e-06
0.3     	0.25    	1.3455e-06
0.3     	0.3     	1.3572e-06
0.3     	0.35    	1.3672e-06
0.3     	0.4     	1.3761e-06
0.3     	0.45    	1.3842e-06
0.3     	0.5     	1.3917e-06
0.3     	0.55    	1.3987e-06
0.3     	0.6     	1.4052e-06
0.3     	0.65    	1.4113e-06
0.3     	0.7     	1.4171e-06
0.35    	0       	-1.3857e-09
0.35    	0.05    	1.2855e-06
0.35    	0.1     	1.9385e-06
0.35    	0.15    	2.1441e-06
0.35    	0.2     	2.2055e-06
0.35    	0.25    	2.2293e-06
0.35    	0.3     	2.2444e-06
0.35    	0.35    	2.2565e-06
0.35    	0.4     	2.267e-06
0.35    	0.45    	2.2764e-06
0.35    	0.5     	2.2849e-06
0.35    	0.55    	2.2927e-06
0.35    	0.6     	2.2999e-06
0.35    	0.65    	2.3075e-06
0.35    	0.7     	2.3139e-06
0.4     	0       	-1.6324e-09
0.4     	0.05    	1.6565e-06
0.4     	0.1     	2.6708e-06
0.4     	0.15    	3.0631e-06
0.4     	0.2     	3.1798e-06
0.4     	0.25    	3.2212e-06
0.4     	0.3     	3.2411e-06
0.4     	0.35    	3.2554e-06
0.4     	0.4     	3.2672e-06
0.4     	0.45    	3.2775e-06
0.4     	0.5     	3.2868e-06
0.4     	0.55    	3.2952e-06
0.4     	0.6     	3.3029e-06
0.4     	0.65    	3.311e-06
0.4     	0.7     	3.3178e-06
0.45    	0       	-1.8169e-09
0.45    	0.05    	1.9668e-06
0.45    	0.1     	3.345e-06
0.45    	0.15    	3.9933e-06
0.45    	0.2     	4.2099e-06
0.45    	0.25    	4.2769e-06
0.45    	0.3     	4.3041e-06
0.45    	0.35    	4.3211e-06
0.45    	0.4     	4.3343e-06
0.45    	0.45    	4.3456e-06
0.45    	0.5     	4.3555e-06
0.45    	0.55    	4.3644e-06
0.45    	0.6     	4.3725e-06
0.45    	0.65    	4.38e-06
0.45    	0.7     	4.3876e-06
0.5     	0       	-1.9567e-09
0.5     	0.05    	2.2236e-06
0.5     	0.1     	3.933e-06
0.5     	0.15    	4.8856e-06
0.5     	0.2     	5.2509e-06
0.5     	0.25    	5.364e-06
0.5     	0.3     	5.4043e-06
0.5     	0.35    	5.4275e-06
0.5     	0.4     	5.4429e-06
0.5     	0.45    	5.4551e-06
0.5     	0.5     	5.4657e-06
0.5     	0.55    	5.475e-06
0.5     	0.6     	5.4834e-06
0.5     	0.65    	5.4911e-06
0.5     	0.7     	5.4981e-06
0.55    	0       	-2.0641e-09
0.55    	0.05    	2.4371e-06
0.55    	0.1     	4.431e-06
0.55    	0.15    	5.704e-06
0.55    	0.2     	6.2727e-06
0.55    	0.25    	6.4628e-06
0.55    	0.3     	6.5283e-06
0.55    	0.35    	6.5567e-06
0.55    	0.4     	6.5744e-06
0.55    	0.45    	6.588e-06
0.55    	0.5     	6.6005e-06
0.55    	0.55    	6.6106e-06
0.55    	0.6     	6.6193e-06
0.55    	0.65    	6.6272e-06
0.55    	0.7     	6.6343e-06
0.6     	0       	-2.1475e-09
0.6     	0.05    	2.6159e-06
0.6     	0.1     	4.8467e-06
0.6     	0.15    	6.4263e-06
0.6     	0.2     	7.227e-06
0.6     	0.25    	7.5503e-06
0.6     	0.3     	7.6555e-06
0.6     	0.35    	7.6976e-06
0.6     	0.4     	7.7194e-06
0.6     	0.45    	7.7345e-06
0.6     	0.5     	7.7466e-06
0.6     	0.55    	7.7568e-06
0.6     	0.6     	7.7666e-06
0.6     	0.65    	7.7748e-06
0.6     	0.7     	7.782e-06
0.65    	0       	-2.2123e-09
0.65    	0.05    	2.767e-06
0.65    	0.1     	5.1925e-06
0.65    	0.15    	7.0322e-06
0.65    	0.2     	8.1098e-06
0.65    	0.25    	8.6026e-06
0.65    	0.3     	8.7776e-06
0.65    	0.35    	8.8366e-06
0.65    	0.4     	8.8659e-06
0.65    	0.45    	8.8835e-06
0.65    	0.5     	8.8965e-06
0.65    	0.55    	8.9072e-06
0.65    	0.6     	8.9164e-06
0.65    	0.65    	8.9251e-06
0.65    	0.7     	8.9325e-06
0.7     	0       	-2.2627e-09
0.7     	0.05    	2.8957e-06
0.7     	0.1     	5.4814e-06
0.7     	0.15    	7.5443e-06
0.7     	0.2     	8.8916e-06
0.7     	0.25    	9.5937e-06
0.7     	0.3     	9.873e-06
0.7     	0.35    	9.9694e-06
0.7     	0.4     	1.0008e-05
0.7     	0.45    	1.0029e-05
0.7     	0.5     	1.0044e-05
0.7     	0.55    	1.0056e-05
0.7     	0.6     	1.0066e-05
0.7     	0.65    	1.0074e-05
0.7     	0.7     	1.0081e-05
