vg      	vd      	ids     
0       	0       	8.7968e-17
0       	0.05    	6.6572e-14
0       	0.1     	7.6328e-14
0       	0.15    	7.7813e-14
0       	0.2     	7.8106e-14
0       	0.25    	7.8222e-14
0       	0.3     	7.8308e-14
0       	0.35    	7.8386e-14
0       	0.4     	7.8459e-14
0       	0.45    	7.8528e-14
0       	0.5     	7.8594e-14
0       	0.55    	7.8657e-14
0       	0.6     	7.8717e-14
0       	0.65    	7.8775e-14
0       	0.7     	7.883e-14
0.05    	0       	7.1615e-16
0.05    	0.05    	4.5701e-13
0.05    	0.1     	5.2412e-13
0.05    	0.15    	5.3449e-13
0.05    	0.2     	5.3654e-13
0.05    	0.25    	5.3737e-13
0.05    	0.3     	5.3799e-13
0.05    	0.35    	5.3854e-13
0.05    	0.4     	5.3906e-13
0.05    	0.45    	5.3955e-13
0.05    	0.5     	5.4001e-13
0.05    	0.55    	5.4045e-13
0.05    	0.6     	5.4088e-13
0.05    	0.65    	5.4128e-13
0.05    	0.7     	5.4167e-13
0.1     	0       	3.8157e-15
0.1     	0.05    	3.1748e-12
0.1     	0.1     	3.6358e-12
0.1     	0.15    	3.7075e-12
0.1     	0.2     	3.7221e-12
0.1     	0.25    	3.728e-12
0.1     	0.3     	3.7325e-12
0.1     	0.35    	3.7365e-12
0.1     	0.4     	3.7402e-12
0.1     	0.45    	3.7437e-12
0.1     	0.5     	3.747e-12
0.1     	0.55    	3.7501e-12
0.1     	0.6     	3.7531e-12
0.1     	0.65    	3.756e-12
0.1     	0.7     	3.7587e-12
0.15    	0       	3.1537e-14
0.15    	0.05    	2.1799e-11
0.15    	0.1     	2.5006e-11
0.15    	0.15    	2.5501e-11
0.15    	0.2     	2.5604e-11
0.15    	0.25    	2.5647e-11
0.15    	0.3     	2.5679e-11
0.15    	0.35    	2.5707e-11
0.15    	0.4     	2.5734e-11
0.15    	0.45    	2.5759e-11
0.15    	0.5     	2.5782e-11
0.15    	0.55    	2.5804e-11
0.15    	0.6     	2.5825e-11
0.15    	0.65    	2.5845e-11
0.15    	0.7     	2.5864e-11
0.2     	0       	-1.2754e-12
0.2     	0.05    	1.4902e-10
0.2     	0.1     	1.7106e-10
0.2     	0.15    	1.7452e-10
0.2     	0.2     	1.7525e-10
0.2     	0.25    	1.7556e-10
0.2     	0.3     	1.7579e-10
0.2     	0.35    	1.76e-10
0.2     	0.4     	1.7618e-10
0.2     	0.45    	1.7636e-10
0.2     	0.5     	1.7652e-10
0.2     	0.55    	1.7668e-10
0.2     	0.6     	1.7682e-10
0.2     	0.65    	1.7696e-10
0.2     	0.7     	1.7709e-10
0.25    	0       	1.3207e-12
0.25    	0.05    	1.0291e-09
0.25    	0.1     	1.1816e-09
0.25    	0.15    	1.2056e-09
0.25    	0.2     	1.2108e-09
0.25    	0.25    	1.2131e-09
0.25    	0.3     	1.2148e-09
0.25    	0.35    	1.2163e-09
0.25    	0.4     	1.2176e-09
0.25    	0.45    	1.2188e-09
0.25    	0.5     	1.22e-09
0.25    	0.55    	1.2211e-09
0.25    	0.6     	1.2221e-09
0.25    	0.65    	1.223e-09
0.25    	0.7     	1.2239e-09
0.3     	0       	7.7794e-12
0.3     	0.05    	6.9226e-09
0.3     	0.1     	7.9668e-09
0.3     	0.15    	8.1344e-09
0.3     	0.2     	8.1711e-09
0.3     	0.25    	8.1873e-09
0.3     	0.3     	8.1991e-09
0.3     	0.35    	8.2092e-09
0.3     	0.4     	8.2184e-09
0.3     	0.45    	8.2269e-09
0.3     	0.5     	8.2346e-09
0.3     	0.55    	8.2418e-09
0.3     	0.6     	8.2486e-09
0.3     	0.65    	8.2549e-09
0.3     	0.7     	8.2609e-09
0.35    	0       	3.8947e-11
0.35    	0.05    	4.2216e-08
0.35    	0.1     	4.9309e-08
0.35    	0.15    	5.0483e-08
0.35    	0.2     	5.0735e-08
0.35    	0.25    	5.0839e-08
0.35    	0.3     	5.0912e-08
0.35    	0.35    	5.0974e-08
0.35    	0.4     	5.1028e-08
0.35    	0.45    	5.1077e-08
0.35    	0.5     	5.1121e-08
0.35    	0.55    	5.1162e-08
0.35    	0.6     	5.12e-08
0.35    	0.65    	5.1235e-08
0.35    	0.7     	5.1268e-08
0.4     	0       	1.4779e-10
0.4     	0.05    	1.7918e-07
0.4     	0.1     	2.2337e-07
0.4     	0.15    	2.3141e-07
0.4     	0.2     	2.3303e-07
0.4     	0.25    	2.3359e-07
0.4     	0.3     	2.339e-07
0.4     	0.35    	2.3414e-07
0.4     	0.4     	2.3435e-07
0.4     	0.45    	2.3453e-07
0.4     	0.5     	2.3469e-07
0.4     	0.55    	2.3483e-07
0.4     	0.6     	2.3497e-07
0.4     	0.65    	2.351e-07
0.4     	0.7     	2.3522e-07
0.45    	0       	2.7079e-10
0.45    	0.05    	3.9489e-07
0.45    	0.1     	5.8492e-07
0.45    	0.15    	6.3784e-07
0.45    	0.2     	6.4855e-07
0.45    	0.25    	6.5109e-07
0.45    	0.3     	6.5215e-07
0.45    	0.35    	6.5276e-07
0.45    	0.4     	6.5322e-07
0.45    	0.45    	6.5361e-07
0.45    	0.5     	6.5399e-07
0.45    	0.55    	6.5429e-07
0.45    	0.6     	6.5456e-07
0.45    	0.65    	6.5481e-07
0.45    	0.7     	6.5503e-07
0.5     	0       	3.3184e-10
0.5     	0.05    	5.3412e-07
0.5     	0.1     	9.2598e-07
0.5     	0.15    	1.1306e-06
0.5     	0.2     	1.2008e-06
0.5     	0.25    	1.2166e-06
0.5     	0.3     	1.221e-06
0.5     	0.35    	1.2225e-06
0.5     	0.4     	1.2235e-06
0.5     	0.45    	1.2242e-06
0.5     	0.5     	1.2247e-06
0.5     	0.55    	1.2252e-06
0.5     	0.6     	1.2256e-06
0.5     	0.65    	1.2259e-06
0.5     	0.7     	1.2263e-06
0.55    	0       	3.3122e-10
0.55    	0.05    	5.7306e-07
0.55    	0.1     	1.09e-06
0.55    	0.15    	1.4634e-06
0.55    	0.2     	1.6803e-06
0.55    	0.25    	1.7681e-06
0.55    	0.3     	1.7934e-06
0.55    	0.35    	1.8007e-06
0.55    	0.4     	1.8032e-06
0.55    	0.45    	1.8046e-06
0.55    	0.5     	1.8054e-06
0.55    	0.55    	1.8061e-06
0.55    	0.6     	1.8066e-06
0.55    	0.65    	1.807e-06
0.55    	0.7     	1.8074e-06
0.6     	0       	3.2916e-10
0.6     	0.05    	5.7531e-07
0.6     	0.1     	1.111e-06
0.6     	0.15    	1.5666e-06
0.6     	0.2     	1.8882e-06
0.6     	0.25    	2.1107e-06
0.6     	0.3     	2.217e-06
0.6     	0.35    	2.2591e-06
0.6     	0.4     	2.2728e-06
0.6     	0.45    	2.2779e-06
0.6     	0.5     	2.2801e-06
0.6     	0.55    	2.2814e-06
0.6     	0.6     	2.2823e-06
0.6     	0.65    	2.2829e-06
0.6     	0.7     	2.2834e-06
0.65    	0       	3.0458e-10
0.65    	0.05    	5.7729e-07
0.65    	0.1     	1.1161e-06
0.65    	0.15    	1.5794e-06
0.65    	0.2     	1.9431e-06
0.65    	0.25    	2.2316e-06
0.65    	0.3     	2.4097e-06
0.65    	0.35    	2.5208e-06
0.65    	0.4     	2.5743e-06
0.65    	0.45    	2.5952e-06
0.65    	0.5     	2.603e-06
0.65    	0.55    	2.6066e-06
0.65    	0.6     	2.6084e-06
0.65    	0.65    	2.6094e-06
0.65    	0.7     	2.61e-06
0.7     	0       	2.7846e-10
0.7     	0.05    	5.7992e-07
0.7     	0.1     	1.1179e-06
0.7     	0.15    	1.5905e-06
0.7     	0.2     	1.9633e-06
0.7     	0.25    	2.2652e-06
0.7     	0.3     	2.4892e-06
0.7     	0.35    	2.648e-06
0.7     	0.4     	2.7451e-06
0.7     	0.45    	2.8e-06 
0.7     	0.5     	2.8263e-06
0.7     	0.55    	2.838e-06
0.7     	0.6     	2.8432e-06
0.7     	0.65    	2.8453e-06
0.7     	0.7     	2.8461e-06
