vg      	vd      	ids     
0       	0       	6.5846e-15
0       	0.05    	1.6164e-12
0       	0.1     	1.8555e-12
0       	0.15    	1.8913e-12
0       	0.2     	1.8974e-12
0       	0.25    	1.8992e-12
0       	0.3     	1.9002e-12
0       	0.35    	1.901e-12
0       	0.4     	1.9018e-12
0       	0.45    	1.9026e-12
0       	0.5     	1.9033e-12
0       	0.55    	1.904e-12
0       	0.6     	1.9046e-12
0       	0.65    	1.9052e-12
0       	0.7     	1.9057e-12
0.05    	0       	5.4627e-14
0.05    	0.05    	1.1047e-11
0.05    	0.1     	1.269e-11
0.05    	0.15    	1.2937e-11
0.05    	0.2     	1.298e-11
0.05    	0.25    	1.2992e-11
0.05    	0.3     	1.2999e-11
0.05    	0.35    	1.3006e-11
0.05    	0.4     	1.3012e-11
0.05    	0.45    	1.3017e-11
0.05    	0.5     	1.3022e-11
0.05    	0.55    	1.3027e-11
0.05    	0.6     	1.3031e-11
0.05    	0.65    	1.3036e-11
0.05    	0.7     	1.304e-11
0.1     	0       	3.6062e-13
0.1     	0.05    	7.6823e-11
0.1     	0.1     	8.8057e-11
0.1     	0.15    	8.976e-11
0.1     	0.2     	9.0061e-11
0.1     	0.25    	9.0153e-11
0.1     	0.3     	9.0209e-11
0.1     	0.35    	9.0257e-11
0.1     	0.4     	9.03e-11
0.1     	0.45    	9.0341e-11
0.1     	0.5     	9.0378e-11
0.1     	0.55    	9.0413e-11
0.1     	0.6     	9.0446e-11
0.1     	0.65    	9.0477e-11
0.1     	0.7     	9.0507e-11
0.15    	0       	2.5007e-12
0.15    	0.05    	5.2476e-10
0.15    	0.1     	6.0301e-10
0.15    	0.15    	6.1473e-10
0.15    	0.2     	6.1685e-10
0.15    	0.25    	6.1752e-10
0.15    	0.3     	6.1795e-10
0.15    	0.35    	6.183e-10
0.15    	0.4     	6.1862e-10
0.15    	0.45    	6.1892e-10
0.15    	0.5     	6.1919e-10
0.15    	0.55    	6.1945e-10
0.15    	0.6     	6.1968e-10
0.15    	0.65    	6.1991e-10
0.15    	0.7     	6.2012e-10
0.2     	0       	1.5212e-11
0.2     	0.05    	3.5381e-09
0.2     	0.1     	4.0735e-09
0.2     	0.15    	4.1556e-09
0.2     	0.2     	4.1706e-09
0.2     	0.25    	4.1755e-09
0.2     	0.3     	4.1787e-09
0.2     	0.35    	4.1813e-09
0.2     	0.4     	4.1837e-09
0.2     	0.45    	4.1858e-09
0.2     	0.5     	4.1878e-09
0.2     	0.55    	4.1896e-09
0.2     	0.6     	4.1913e-09
0.2     	0.65    	4.1929e-09
0.2     	0.7     	4.1944e-09
0.25    	0       	8.582e-11
0.25    	0.05    	2.3238e-08
0.25    	0.1     	2.6887e-08
0.25    	0.15    	2.7452e-08
0.25    	0.2     	2.7559e-08
0.25    	0.25    	2.7596e-08
0.25    	0.3     	2.7619e-08
0.25    	0.35    	2.7638e-08
0.25    	0.4     	2.7654e-08
0.25    	0.45    	2.7669e-08
0.25    	0.5     	2.7683e-08
0.25    	0.55    	2.7696e-08
0.25    	0.6     	2.7708e-08
0.25    	0.65    	2.7719e-08
0.25    	0.7     	2.7729e-08
0.3     	0       	4.2779e-10
0.3     	0.05    	1.2819e-07
0.3     	0.1     	1.5231e-07
0.3     	0.15    	1.5626e-07
0.3     	0.2     	1.5702e-07
0.3     	0.25    	1.5726e-07
0.3     	0.3     	1.574e-07
0.3     	0.35    	1.5751e-07
0.3     	0.4     	1.5761e-07
0.3     	0.45    	1.5769e-07
0.3     	0.5     	1.5777e-07
0.3     	0.55    	1.5784e-07
0.3     	0.6     	1.5791e-07
0.3     	0.65    	1.5797e-07
0.3     	0.7     	1.5802e-07
0.35    	0       	1.2637e-09
0.35    	0.05    	4.4738e-07
0.35    	0.1     	5.8348e-07
0.35    	0.15    	6.1103e-07
0.35    	0.2     	6.1627e-07
0.35    	0.25    	6.1756e-07
0.35    	0.3     	6.1817e-07
0.35    	0.35    	6.186e-07
0.35    	0.4     	6.1896e-07
0.35    	0.45    	6.1926e-07
0.35    	0.5     	6.1954e-07
0.35    	0.55    	6.1978e-07
0.35    	0.6     	6.2e-07 
0.35    	0.65    	6.2021e-07
0.35    	0.7     	6.2042e-07
0.4     	0       	2.116e-09
0.4     	0.05    	8.6407e-07
0.4     	0.1     	1.3292e-06
0.4     	0.15    	1.4834e-06
0.4     	0.2     	1.5193e-06
0.4     	0.25    	1.5274e-06
0.4     	0.3     	1.5298e-06
0.4     	0.35    	1.531e-06
0.4     	0.4     	1.5318e-06
0.4     	0.45    	1.5326e-06
0.4     	0.5     	1.5332e-06
0.4     	0.55    	1.5337e-06
0.4     	0.6     	1.5341e-06
0.4     	0.65    	1.5345e-06
0.4     	0.7     	1.535e-06
0.45    	0       	2.8104e-09
0.45    	0.05    	1.1641e-06
0.45    	0.1     	2.0218e-06
0.45    	0.15    	2.5007e-06
0.45    	0.2     	2.6775e-06
0.45    	0.25    	2.7278e-06
0.45    	0.3     	2.7404e-06
0.45    	0.35    	2.7446e-06
0.45    	0.4     	2.7464e-06
0.45    	0.45    	2.7476e-06
0.45    	0.5     	2.7486e-06
0.45    	0.55    	2.7495e-06
0.45    	0.6     	2.7502e-06
0.45    	0.65    	2.7508e-06
0.45    	0.7     	2.7513e-06
0.5     	0       	3.3117e-09
0.5     	0.05    	1.3503e-06
0.5     	0.1     	2.4781e-06
0.5     	0.15    	3.304e-06
0.5     	0.2     	3.7784e-06
0.5     	0.25    	3.9785e-06
0.5     	0.3     	4.0417e-06
0.5     	0.35    	4.0612e-06
0.5     	0.4     	4.0674e-06
0.5     	0.45    	4.0704e-06
0.5     	0.5     	4.072e-06
0.5     	0.55    	4.0732e-06
0.5     	0.6     	4.0742e-06
0.5     	0.65    	4.075e-06
0.5     	0.7     	4.0757e-06
0.55    	0       	3.51e-09
0.55    	0.05    	1.4412e-06
0.55    	0.1     	2.7493e-06
0.55    	0.15    	3.809e-06
0.55    	0.2     	4.5622e-06
0.55    	0.25    	5.0141e-06
0.55    	0.3     	5.2293e-06
0.55    	0.35    	5.3112e-06
0.55    	0.4     	5.339e-06
0.55    	0.45    	5.3486e-06
0.55    	0.5     	5.353e-06
0.55    	0.55    	5.3552e-06
0.55    	0.6     	5.3568e-06
0.55    	0.65    	5.3579e-06
0.55    	0.7     	5.3588e-06
0.6     	0       	3.6572e-09
0.6     	0.05    	1.4504e-06
0.6     	0.1     	2.8145e-06
0.6     	0.15    	4.0431e-06
0.6     	0.2     	4.973e-06
0.6     	0.25    	5.6822e-06
0.6     	0.3     	6.1027e-06
0.6     	0.35    	6.3318e-06
0.6     	0.4     	6.4315e-06
0.6     	0.45    	6.4691e-06
0.6     	0.5     	6.4836e-06
0.6     	0.55    	6.4904e-06
0.6     	0.6     	6.4937e-06
0.6     	0.65    	6.4957e-06
0.6     	0.7     	6.4972e-06
0.65    	0       	3.6942e-09
0.65    	0.05    	1.4465e-06
0.65    	0.1     	2.8246e-06
0.65    	0.15    	4.0743e-06
0.65    	0.2     	5.1314e-06
0.65    	0.25    	5.9552e-06
0.65    	0.3     	6.5578e-06
0.65    	0.35    	6.9562e-06
0.65    	0.4     	7.1911e-06
0.65    	0.45    	7.3115e-06
0.65    	0.5     	7.3653e-06
0.65    	0.55    	7.3896e-06
0.65    	0.6     	7.4006e-06
0.65    	0.65    	7.4067e-06
0.65    	0.7     	7.4101e-06
0.7     	0       	3.6598e-09
0.7     	0.05    	1.4352e-06
0.7     	0.1     	2.817e-06
0.7     	0.15    	4.0699e-06
0.7     	0.2     	5.1473e-06
0.7     	0.25    	6.055e-06
0.7     	0.3     	6.7608e-06
0.7     	0.35    	7.2658e-06
0.7     	0.4     	7.6064e-06
0.7     	0.45    	7.8243e-06
0.7     	0.5     	7.9512e-06
0.7     	0.55    	8.0186e-06
0.7     	0.6     	8.0516e-06
0.7     	0.65    	8.068e-06
0.7     	0.7     	8.0773e-06
