vg      	vd      	ids     
0       	0       	1.9738e-20
0       	0.05    	1.1591e-17
0       	0.1     	1.3269e-17
0       	0.15    	1.3518e-17
0       	0.2     	1.3559e-17
0       	0.25    	1.357e-17
0       	0.3     	1.3577e-17
0       	0.35    	1.3583e-17
0       	0.4     	1.3588e-17
0       	0.45    	1.3593e-17
0       	0.5     	1.3598e-17
0       	0.55    	1.3602e-17
0       	0.6     	1.3607e-17
0       	0.65    	1.3611e-17
0       	0.7     	1.3615e-17
0.05    	0       	1.4587e-19
0.05    	0.05    	8.0607e-17
0.05    	0.1     	9.2226e-17
0.05    	0.15    	9.3945e-17
0.05    	0.2     	9.4235e-17
0.05    	0.25    	9.4315e-17
0.05    	0.3     	9.4363e-17
0.05    	0.35    	9.4403e-17
0.05    	0.4     	9.4441e-17
0.05    	0.45    	9.4477e-17
0.05    	0.5     	9.4512e-17
0.05    	0.55    	9.4545e-17
0.05    	0.6     	9.4577e-17
0.05    	0.65    	9.4607e-17
0.05    	0.7     	9.4636e-17
0.1     	0       	1.0604e-18
0.1     	0.05    	5.5628e-16
0.1     	0.1     	6.3711e-16
0.1     	0.15    	6.4904e-16
0.1     	0.2     	6.5106e-16
0.1     	0.25    	6.5162e-16
0.1     	0.3     	6.5197e-16
0.1     	0.35    	6.5226e-16
0.1     	0.4     	6.5254e-16
0.1     	0.45    	6.528e-16
0.1     	0.5     	6.5305e-16
0.1     	0.55    	6.5329e-16
0.1     	0.6     	6.5351e-16
0.1     	0.65    	6.5373e-16
0.1     	0.7     	6.5394e-16
0.15    	0       	7.7989e-18
0.15    	0.05    	3.8381e-15
0.15    	0.1     	4.396e-15
0.15    	0.15    	4.4792e-15
0.15    	0.2     	4.4933e-15
0.15    	0.25    	4.4974e-15
0.15    	0.3     	4.4999e-15
0.15    	0.35    	4.502e-15
0.15    	0.4     	4.504e-15
0.15    	0.45    	4.5059e-15
0.15    	0.5     	4.5077e-15
0.15    	0.55    	4.5094e-15
0.15    	0.6     	4.511e-15
0.15    	0.65    	4.5126e-15
0.15    	0.7     	4.5141e-15
0.2     	0       	5.9759e-17
0.2     	0.05    	2.6419e-14
0.2     	0.1     	3.027e-14
0.2     	0.15    	3.0845e-14
0.2     	0.2     	3.0945e-14
0.2     	0.25    	3.0974e-14
0.2     	0.3     	3.0992e-14
0.2     	0.35    	3.1008e-14
0.2     	0.4     	3.1022e-14
0.2     	0.45    	3.1036e-14
0.2     	0.5     	3.1049e-14
0.2     	0.55    	3.1061e-14
0.2     	0.6     	3.1073e-14
0.2     	0.65    	3.1084e-14
0.2     	0.7     	3.1094e-14
0.25    	0       	3.5331e-16
0.25    	0.05    	1.842e-13
0.25    	0.1     	2.1071e-13
0.25    	0.15    	2.147e-13
0.25    	0.2     	2.154e-13
0.25    	0.25    	2.1561e-13
0.25    	0.3     	2.1574e-13
0.25    	0.35    	2.1586e-13
0.25    	0.4     	2.1596e-13
0.25    	0.45    	2.1606e-13
0.25    	0.5     	2.1616e-13
0.25    	0.55    	2.1625e-13
0.25    	0.6     	2.1633e-13
0.25    	0.65    	2.1641e-13
0.25    	0.7     	2.1649e-13
0.3     	0       	2.5589e-15
0.3     	0.05    	1.27e-12
0.3     	0.1     	1.455e-12
0.3     	0.15    	1.4826e-12
0.3     	0.2     	1.4875e-12
0.3     	0.25    	1.489e-12
0.3     	0.3     	1.49e-12
0.3     	0.35    	1.4909e-12
0.3     	0.4     	1.4916e-12
0.3     	0.45    	1.4924e-12
0.3     	0.5     	1.4931e-12
0.3     	0.55    	1.4937e-12
0.3     	0.6     	1.4943e-12
0.3     	0.65    	1.4949e-12
0.3     	0.7     	1.4954e-12
0.35    	0       	1.9717e-14
0.35    	0.05    	8.7527e-12
0.35    	0.1     	1.0029e-11
0.35    	0.15    	1.0222e-11
0.35    	0.2     	1.0257e-11
0.35    	0.25    	1.0268e-11
0.35    	0.3     	1.0275e-11
0.35    	0.35    	1.0281e-11
0.35    	0.4     	1.0287e-11
0.35    	0.45    	1.0293e-11
0.35    	0.5     	1.0298e-11
0.35    	0.55    	1.0302e-11
0.35    	0.6     	1.0307e-11
0.35    	0.65    	1.0311e-11
0.35    	0.7     	1.0315e-11
0.4     	0       	1.6752e-13
0.4     	0.05    	6.0066e-11
0.4     	0.1     	6.887e-11
0.4     	0.15    	7.0206e-11
0.4     	0.2     	7.0453e-11
0.4     	0.25    	7.0535e-11
0.4     	0.3     	7.059e-11
0.4     	0.35    	7.0637e-11
0.4     	0.4     	7.0679e-11
0.4     	0.45    	7.0719e-11
0.4     	0.5     	7.0755e-11
0.4     	0.55    	7.0789e-11
0.4     	0.6     	7.0821e-11
0.4     	0.65    	7.0851e-11
0.4     	0.7     	7.088e-11
0.45    	0       	7.6337e-13
0.45    	0.05    	4.1758e-10
0.45    	0.1     	4.7805e-10
0.45    	0.15    	4.8734e-10
0.45    	0.2     	4.891e-10
0.45    	0.25    	4.8972e-10
0.45    	0.3     	4.9013e-10
0.45    	0.35    	4.9049e-10
0.45    	0.4     	4.908e-10
0.45    	0.45    	4.911e-10
0.45    	0.5     	4.9137e-10
0.45    	0.55    	4.9162e-10
0.45    	0.6     	4.9185e-10
0.45    	0.65    	4.9207e-10
0.45    	0.7     	4.9228e-10
0.5     	0       	4.8185e-12
0.5     	0.05    	2.8408e-09
0.5     	0.1     	3.2624e-09
0.5     	0.15    	3.3268e-09
0.5     	0.2     	3.3394e-09
0.5     	0.25    	3.344e-09
0.5     	0.3     	3.3471e-09
0.5     	0.35    	3.3498e-09
0.5     	0.4     	3.3521e-09
0.5     	0.45    	3.3543e-09
0.5     	0.5     	3.3562e-09
0.5     	0.55    	3.358e-09
0.5     	0.6     	3.3597e-09
0.5     	0.65    	3.3613e-09
0.5     	0.7     	3.3628e-09
0.55    	0       	2.4213e-11
0.55    	0.05    	1.8627e-08
0.55    	0.1     	2.1501e-08
0.55    	0.15    	2.1953e-08
0.55    	0.2     	2.2044e-08
0.55    	0.25    	2.2078e-08
0.55    	0.3     	2.21e-08
0.55    	0.35    	2.2119e-08
0.55    	0.4     	2.2136e-08
0.55    	0.45    	2.2151e-08
0.55    	0.5     	2.2164e-08
0.55    	0.55    	2.2176e-08
0.55    	0.6     	2.2188e-08
0.55    	0.65    	2.2199e-08
0.55    	0.7     	2.2208e-08
0.6     	0       	1.0386e-10
0.6     	0.05    	9.9784e-08
0.6     	0.1     	1.1881e-07
0.6     	0.15    	1.2194e-07
0.6     	0.2     	1.2255e-07
0.6     	0.25    	1.2276e-07
0.6     	0.3     	1.2289e-07
0.6     	0.35    	1.23e-07
0.6     	0.4     	1.2309e-07
0.6     	0.45    	1.2317e-07
0.6     	0.5     	1.2324e-07
0.6     	0.55    	1.2331e-07
0.6     	0.6     	1.2337e-07
0.6     	0.65    	1.2342e-07
0.6     	0.7     	1.2347e-07
0.65    	0       	2.6058e-10
0.65    	0.05    	3.0836e-07
0.65    	0.1     	4.137e-07
0.65    	0.15    	4.3437e-07
0.65    	0.2     	4.3854e-07
0.65    	0.25    	4.3951e-07
0.65    	0.3     	4.4003e-07
0.65    	0.35    	4.4038e-07
0.65    	0.4     	4.4068e-07
0.65    	0.45    	4.4093e-07
0.65    	0.5     	4.4118e-07
0.65    	0.55    	4.4138e-07
0.65    	0.6     	4.4156e-07
0.65    	0.65    	4.4172e-07
0.65    	0.7     	4.4187e-07
0.7     	0       	3.7947e-10
0.7     	0.05    	5.1674e-07
0.7     	0.1     	8.3288e-07
0.7     	0.15    	9.4548e-07
0.7     	0.2     	9.7261e-07
0.7     	0.25    	9.7805e-07
0.7     	0.3     	9.7968e-07
0.7     	0.35    	9.8063e-07
0.7     	0.4     	9.8122e-07
0.7     	0.45    	9.8171e-07
0.7     	0.5     	9.8217e-07
0.7     	0.55    	9.8254e-07
0.7     	0.6     	9.8286e-07
0.7     	0.65    	9.8315e-07
0.7     	0.7     	9.8342e-07
