vg      	vd      	ids     
0       	0       	2.3894e-15
0       	0.05    	2.5915e-12
0       	0.1     	2.9761e-12
0       	0.15    	3.0388e-12
0       	0.2     	3.054e-12
0       	0.25    	3.062e-12
0       	0.3     	3.0685e-12
0       	0.35    	3.0745e-12
0       	0.4     	3.0802e-12
0       	0.45    	3.0855e-12
0       	0.5     	3.0906e-12
0       	0.55    	3.0955e-12
0       	0.6     	3.1001e-12
0       	0.65    	3.1045e-12
0       	0.7     	3.1088e-12
0.05    	0       	9.0546e-15
0.05    	0.05    	1.7883e-11
0.05    	0.1     	2.0523e-11
0.05    	0.15    	2.0957e-11
0.05    	0.2     	2.1065e-11
0.05    	0.25    	2.1122e-11
0.05    	0.3     	2.1168e-11
0.05    	0.35    	2.1211e-11
0.05    	0.4     	2.1251e-11
0.05    	0.45    	2.1288e-11
0.05    	0.5     	2.1324e-11
0.05    	0.55    	2.1357e-11
0.05    	0.6     	2.1389e-11
0.05    	0.65    	2.142e-11
0.05    	0.7     	2.1449e-11
0.1     	0       	6.6012e-14
0.1     	0.05    	1.2236e-10
0.1     	0.1     	1.406e-10
0.1     	0.15    	1.436e-10
0.1     	0.2     	1.4437e-10
0.1     	0.25    	1.4477e-10
0.1     	0.3     	1.451e-10
0.1     	0.35    	1.454e-10
0.1     	0.4     	1.4568e-10
0.1     	0.45    	1.4594e-10
0.1     	0.5     	1.4618e-10
0.1     	0.55    	1.4642e-10
0.1     	0.6     	1.4663e-10
0.1     	0.65    	1.4684e-10
0.1     	0.7     	1.4704e-10
0.15    	0       	4.501e-13
0.15    	0.05    	8.3143e-10
0.15    	0.1     	9.5654e-10
0.15    	0.15    	9.7743e-10
0.15    	0.2     	9.828e-10
0.15    	0.25    	9.8568e-10
0.15    	0.3     	9.8801e-10
0.15    	0.35    	9.9009e-10
0.15    	0.4     	9.92e-10
0.15    	0.45    	9.9378e-10
0.15    	0.5     	9.9544e-10
0.15    	0.55    	9.97e-10
0.15    	0.6     	9.9848e-10
0.15    	0.65    	9.9987e-10
0.15    	0.7     	1.0012e-09
0.2     	0       	5.9634e-13
0.2     	0.05    	5.5881e-09
0.2     	0.1     	6.4396e-09
0.2     	0.15    	6.5839e-09
0.2     	0.2     	6.6216e-09
0.2     	0.25    	6.6417e-09
0.2     	0.3     	6.6576e-09
0.2     	0.35    	6.6717e-09
0.2     	0.4     	6.6845e-09
0.2     	0.45    	6.6963e-09
0.2     	0.5     	6.7073e-09
0.2     	0.55    	6.7175e-09
0.2     	0.6     	6.7271e-09
0.2     	0.65    	6.7361e-09
0.2     	0.7     	6.7446e-09
0.25    	0       	-6.9157e-12
0.25    	0.05    	3.4738e-08
0.25    	0.1     	4.0487e-08
0.25    	0.15    	4.1473e-08
0.25    	0.2     	4.1723e-08
0.25    	0.25    	4.185e-08
0.25    	0.3     	4.1946e-08
0.25    	0.35    	4.203e-08
0.25    	0.4     	4.2105e-08
0.25    	0.45    	4.2173e-08
0.25    	0.5     	4.2236e-08
0.25    	0.55    	4.2294e-08
0.25    	0.6     	4.2348e-08
0.25    	0.65    	4.2398e-08
0.25    	0.7     	4.2446e-08
0.3     	0       	-3.4635e-11
0.3     	0.05    	1.606e-07
0.3     	0.1     	1.9637e-07
0.3     	0.15    	2.0287e-07
0.3     	0.2     	2.0433e-07
0.3     	0.25    	2.0494e-07
0.3     	0.3     	2.0535e-07
0.3     	0.35    	2.0569e-07
0.3     	0.4     	2.0598e-07
0.3     	0.45    	2.0627e-07
0.3     	0.5     	2.0651e-07
0.3     	0.55    	2.0672e-07
0.3     	0.6     	2.0692e-07
0.3     	0.65    	2.071e-07
0.3     	0.7     	2.0728e-07
0.35    	0       	-6.9127e-11
0.35    	0.05    	4.1072e-07
0.35    	0.1     	5.7519e-07
0.35    	0.15    	6.1435e-07
0.35    	0.2     	6.226e-07
0.35    	0.25    	6.2513e-07
0.35    	0.3     	6.2629e-07
0.35    	0.35    	6.2712e-07
0.35    	0.4     	6.2781e-07
0.35    	0.45    	6.284e-07
0.35    	0.5     	6.2898e-07
0.35    	0.55    	6.2945e-07
0.35    	0.6     	6.2987e-07
0.35    	0.65    	6.3026e-07
0.35    	0.7     	6.3062e-07
0.4     	0       	-8.0402e-11
0.4     	0.05    	6.2947e-07
0.4     	0.1     	1.0339e-06
0.4     	0.15    	1.2029e-06
0.4     	0.2     	1.2485e-06
0.4     	0.25    	1.259e-06
0.4     	0.3     	1.2626e-06
0.4     	0.35    	1.2643e-06
0.4     	0.4     	1.2655e-06
0.4     	0.45    	1.2666e-06
0.4     	0.5     	1.2675e-06
0.4     	0.55    	1.2682e-06
0.4     	0.6     	1.2689e-06
0.4     	0.65    	1.2694e-06
0.4     	0.7     	1.27e-06
0.45    	0       	-7.8832e-11
0.45    	0.05    	7.5698e-07
0.45    	0.1     	1.3605e-06
0.45    	0.15    	1.7409e-06
0.45    	0.2     	1.9163e-06
0.45    	0.25    	1.9677e-06
0.45    	0.3     	1.9815e-06
0.45    	0.35    	1.9859e-06
0.45    	0.4     	1.9881e-06
0.45    	0.45    	1.9897e-06
0.45    	0.5     	1.9909e-06
0.45    	0.55    	1.9919e-06
0.45    	0.6     	1.9928e-06
0.45    	0.65    	1.9936e-06
0.45    	0.7     	1.9943e-06
0.5     	0       	-8.048e-11
0.5     	0.05    	8.0673e-07
0.5     	0.1     	1.5316e-06
0.5     	0.15    	2.078e-06
0.5     	0.2     	2.4322e-06
0.5     	0.25    	2.6038e-06
0.5     	0.3     	2.6644e-06
0.5     	0.35    	2.682e-06
0.5     	0.4     	2.6878e-06
0.5     	0.45    	2.6905e-06
0.5     	0.5     	2.6924e-06
0.5     	0.55    	2.6937e-06
0.5     	0.6     	2.6948e-06
0.5     	0.65    	2.6956e-06
0.5     	0.7     	2.6964e-06
0.55    	0       	-9.6354e-11
0.55    	0.05    	8.0653e-07
0.55    	0.1     	1.5657e-06
0.55    	0.15    	2.2092e-06
0.55    	0.2     	2.6665e-06
0.55    	0.25    	3.0001e-06
0.55    	0.3     	3.1715e-06
0.55    	0.35    	3.2458e-06
0.55    	0.4     	3.2722e-06
0.55    	0.45    	3.281e-06
0.55    	0.5     	3.285e-06
0.55    	0.55    	3.2872e-06
0.55    	0.6     	3.2888e-06
0.55    	0.65    	3.2899e-06
0.55    	0.7     	3.2908e-06
0.6     	0       	-1.2503e-10
0.6     	0.05    	8.0832e-07
0.6     	0.1     	1.5622e-06
0.6     	0.15    	2.2203e-06
0.6     	0.2     	2.7686e-06
0.6     	0.25    	3.146e-06
0.6     	0.3     	3.4066e-06
0.6     	0.35    	3.5757e-06
0.6     	0.4     	3.6604e-06
0.6     	0.45    	3.6947e-06
0.6     	0.5     	3.7075e-06
0.6     	0.55    	3.7134e-06
0.6     	0.6     	3.7163e-06
0.6     	0.65    	3.7181e-06
0.6     	0.7     	3.7193e-06
0.65    	0       	-1.8567e-10
0.65    	0.05    	8.0565e-07
0.65    	0.1     	1.5629e-06
0.65    	0.15    	2.2203e-06
0.65    	0.2     	2.7532e-06
0.65    	0.25    	3.1894e-06
0.65    	0.3     	3.5131e-06
0.65    	0.35    	3.7259e-06
0.65    	0.4     	3.8689e-06
0.65    	0.45    	3.9506e-06
0.65    	0.5     	3.9893e-06
0.65    	0.55    	4.0061e-06
0.65    	0.6     	4.0135e-06
0.65    	0.65    	4.0173e-06
0.65    	0.7     	4.0193e-06
0.7     	0       	-2.8007e-10
0.7     	0.05    	8.0422e-07
0.7     	0.1     	1.5579e-06
0.7     	0.15    	2.2202e-06
0.7     	0.2     	2.7605e-06
0.7     	0.25    	3.2048e-06
0.7     	0.3     	3.5415e-06
0.7     	0.35    	3.7946e-06
0.7     	0.4     	3.9799e-06
0.7     	0.45    	4.102e-06
0.7     	0.5     	4.1771e-06
0.7     	0.55    	4.2179e-06
0.7     	0.6     	4.2379e-06
0.7     	0.65    	4.2477e-06
0.7     	0.7     	4.2523e-06
