vg      	vd      	ids     
0       	0       	1.0358e-15
0       	0.05    	1.3834e-12
0       	0.1     	1.5926e-12
0       	0.15    	1.6305e-12
0       	0.2     	1.6426e-12
0       	0.25    	1.6505e-12
0       	0.3     	1.6575e-12
0       	0.35    	1.664e-12
0       	0.4     	1.67e-12
0       	0.45    	1.6757e-12
0       	0.5     	1.6809e-12
0       	0.55    	1.6857e-12
0       	0.6     	1.6899e-12
0       	0.65    	1.6934e-12
0       	0.7     	1.6955e-12
0.05    	0       	1.3309e-14
0.05    	0.05    	9.3438e-12
0.05    	0.1     	1.0773e-11
0.05    	0.15    	1.1032e-11
0.05    	0.2     	1.1118e-11
0.05    	0.25    	1.1174e-11
0.05    	0.3     	1.1223e-11
0.05    	0.35    	1.1269e-11
0.05    	0.4     	1.1312e-11
0.05    	0.45    	1.1352e-11
0.05    	0.5     	1.139e-11
0.05    	0.55    	1.1424e-11
0.05    	0.6     	1.1455e-11
0.05    	0.65    	1.1483e-11
0.05    	0.7     	1.1505e-11
0.1     	0       	1.1389e-13
0.1     	0.05    	6.3587e-11
0.1     	0.1     	7.3265e-11
0.1     	0.15    	7.5057e-11
0.1     	0.2     	7.5657e-11
0.1     	0.25    	7.6061e-11
0.1     	0.3     	7.641e-11
0.1     	0.35    	7.6733e-11
0.1     	0.4     	7.7034e-11
0.1     	0.45    	7.7316e-11
0.1     	0.5     	7.7579e-11
0.1     	0.55    	7.7823e-11
0.1     	0.6     	7.8046e-11
0.1     	0.65    	7.8248e-11
0.1     	0.7     	7.8424e-11
0.15    	0       	1.0151e-12
0.15    	0.05    	4.2907e-10
0.15    	0.1     	4.9511e-10
0.15    	0.15    	5.0742e-10
0.15    	0.2     	5.1164e-10
0.15    	0.25    	5.1447e-10
0.15    	0.3     	5.1694e-10
0.15    	0.35    	5.1917e-10
0.15    	0.4     	5.2124e-10
0.15    	0.45    	5.2316e-10
0.15    	0.5     	5.2494e-10
0.15    	0.55    	5.2659e-10
0.15    	0.6     	5.281e-10
0.15    	0.65    	5.2948e-10
0.15    	0.7     	5.3072e-10
0.2     	0       	-2.2641e-12
0.2     	0.05    	2.8641e-09
0.2     	0.1     	3.3109e-09
0.2     	0.15    	3.3958e-09
0.2     	0.2     	3.4251e-09
0.2     	0.25    	3.4446e-09
0.2     	0.3     	3.4611e-09
0.2     	0.35    	3.4761e-09
0.2     	0.4     	3.4896e-09
0.2     	0.45    	3.5021e-09
0.2     	0.5     	3.5135e-09
0.2     	0.55    	3.5239e-09
0.2     	0.6     	3.5335e-09
0.2     	0.65    	3.5423e-09
0.2     	0.7     	3.5503e-09
0.25    	0       	5.8042e-11
0.25    	0.05    	1.8714e-08
0.25    	0.1     	2.1725e-08
0.25    	0.15    	2.2299e-08
0.25    	0.2     	2.2495e-08
0.25    	0.25    	2.2619e-08
0.25    	0.3     	2.2722e-08
0.25    	0.35    	2.2812e-08
0.25    	0.4     	2.2893e-08
0.25    	0.45    	2.2966e-08
0.25    	0.5     	2.3033e-08
0.25    	0.55    	2.3094e-08
0.25    	0.6     	2.315e-08
0.25    	0.65    	2.3201e-08
0.25    	0.7     	2.3249e-08
0.3     	0       	3.4703e-10
0.3     	0.05    	1.068e-07
0.3     	0.1     	1.2628e-07
0.3     	0.15    	1.2996e-07
0.3     	0.2     	1.3107e-07
0.3     	0.25    	1.317e-07
0.3     	0.3     	1.322e-07
0.3     	0.35    	1.3263e-07
0.3     	0.4     	1.3301e-07
0.3     	0.45    	1.3335e-07
0.3     	0.5     	1.3366e-07
0.3     	0.55    	1.3395e-07
0.3     	0.6     	1.3422e-07
0.3     	0.65    	1.3446e-07
0.3     	0.7     	1.347e-07
0.35    	0       	1.2029e-09
0.35    	0.05    	4.0496e-07
0.35    	0.1     	5.1281e-07
0.35    	0.15    	5.3428e-07
0.35    	0.2     	5.3944e-07
0.35    	0.25    	5.4164e-07
0.35    	0.3     	5.4315e-07
0.35    	0.35    	5.444e-07
0.35    	0.4     	5.4548e-07
0.35    	0.45    	5.4644e-07
0.35    	0.5     	5.4731e-07
0.35    	0.55    	5.4811e-07
0.35    	0.6     	5.4883e-07
0.35    	0.65    	5.495e-07
0.35    	0.7     	5.5012e-07
0.4     	0       	2.3179e-09
0.4     	0.05    	8.6539e-07
0.4     	0.1     	1.258e-06
0.4     	0.15    	1.3642e-06
0.4     	0.2     	1.3881e-06
0.4     	0.25    	1.395e-06
0.4     	0.3     	1.3987e-06
0.4     	0.35    	1.401e-06
0.4     	0.4     	1.4028e-06
0.4     	0.45    	1.4044e-06
0.4     	0.5     	1.4058e-06
0.4     	0.55    	1.4072e-06
0.4     	0.6     	1.4083e-06
0.4     	0.65    	1.4094e-06
0.4     	0.7     	1.4103e-06
0.45    	0       	3.3414e-09
0.45    	0.05    	1.2537e-06
0.45    	0.1     	2.084e-06
0.45    	0.15    	2.4388e-06
0.45    	0.2     	2.5453e-06
0.45    	0.25    	2.5713e-06
0.45    	0.3     	2.5804e-06
0.45    	0.35    	2.5845e-06
0.45    	0.4     	2.5873e-06
0.45    	0.45    	2.5898e-06
0.45    	0.5     	2.5917e-06
0.45    	0.55    	2.5933e-06
0.45    	0.6     	2.5948e-06
0.45    	0.65    	2.5962e-06
0.45    	0.7     	2.5973e-06
0.5     	0       	4.2841e-09
0.5     	0.05    	1.5349e-06
0.5     	0.1     	2.7342e-06
0.5     	0.15    	3.4776e-06
0.5     	0.2     	3.7939e-06
0.5     	0.25    	3.8977e-06
0.5     	0.3     	3.9271e-06
0.5     	0.35    	3.9367e-06
0.5     	0.4     	3.9419e-06
0.5     	0.45    	3.9451e-06
0.5     	0.5     	3.9475e-06
0.5     	0.55    	3.9497e-06
0.5     	0.6     	3.9514e-06
0.5     	0.65    	3.953e-06
0.5     	0.7     	3.9543e-06
0.55    	0       	5.1911e-09
0.55    	0.05    	1.738e-06
0.55    	0.1     	3.1926e-06
0.55    	0.15    	4.279e-06
0.55    	0.2     	4.9131e-06
0.55    	0.25    	5.205e-06
0.55    	0.3     	5.3128e-06
0.55    	0.35    	5.3433e-06
0.55    	0.4     	5.3554e-06
0.55    	0.45    	5.3612e-06
0.55    	0.5     	5.3646e-06
0.55    	0.55    	5.3673e-06
0.55    	0.6     	5.3693e-06
0.55    	0.65    	5.3708e-06
0.55    	0.7     	5.3722e-06
0.6     	0       	6.0498e-09
0.6     	0.05    	1.8892e-06
0.6     	0.1     	3.53e-06
0.6     	0.15    	4.8543e-06
0.6     	0.2     	5.779e-06
0.6     	0.25    	6.3225e-06
0.6     	0.3     	6.605e-06
0.6     	0.35    	6.7135e-06
0.6     	0.4     	6.7501e-06
0.6     	0.45    	6.7638e-06
0.6     	0.5     	6.7709e-06
0.6     	0.55    	6.775e-06
0.6     	0.6     	6.7775e-06
0.6     	0.65    	6.7794e-06
0.6     	0.7     	6.7807e-06
0.65    	0       	6.9228e-09
0.65    	0.05    	2.017e-06
0.65    	0.1     	3.7972e-06
0.65    	0.15    	5.2999e-06
0.65    	0.2     	6.4132e-06
0.65    	0.25    	7.1702e-06
0.65    	0.3     	7.6603e-06
0.65    	0.35    	7.9193e-06
0.65    	0.4     	8.037e-06
0.65    	0.45    	8.084e-06
0.65    	0.5     	8.1044e-06
0.65    	0.55    	8.1141e-06
0.65    	0.6     	8.119e-06
0.65    	0.65    	8.1213e-06
0.65    	0.7     	8.1223e-06
0.7     	0       	7.8324e-09
0.7     	0.05    	2.1256e-06
0.7     	0.1     	4.0202e-06
0.7     	0.15    	5.64e-06
0.7     	0.2     	6.8906e-06
0.7     	0.25    	7.7953e-06
0.7     	0.3     	8.4092e-06
0.7     	0.35    	8.8503e-06
0.7     	0.4     	9.0901e-06
0.7     	0.45    	9.2195e-06
0.7     	0.5     	9.2827e-06
0.7     	0.55    	9.3117e-06
0.7     	0.6     	9.3238e-06
0.7     	0.65    	9.3278e-06
0.7     	0.7     	9.3292e-06
