vg      	vd      	ids     
0       	0       	-3.1985e-13
0       	0.05    	1.3103e-10
0       	0.1     	1.5505e-10
0       	0.15    	1.6242e-10
0       	0.2     	1.6697e-10
0       	0.25    	1.7077e-10
0       	0.3     	1.7421e-10
0       	0.35    	1.7742e-10
0       	0.4     	1.8048e-10
0       	0.45    	1.8342e-10
0       	0.5     	1.8628e-10
0       	0.55    	1.8905e-10
0       	0.6     	1.9175e-10
0       	0.65    	1.9441e-10
0       	0.7     	1.9701e-10
0.05    	0       	-1.549e-12
0.05    	0.05    	8.2619e-10
0.05    	0.1     	9.7976e-10
0.05    	0.15    	1.0268e-09
0.05    	0.2     	1.0552e-09
0.05    	0.25    	1.0787e-09
0.05    	0.3     	1.1001e-09
0.05    	0.35    	1.1204e-09
0.05    	0.4     	1.1398e-09
0.05    	0.45    	1.1586e-09
0.05    	0.5     	1.1768e-09
0.05    	0.55    	1.1945e-09
0.05    	0.6     	1.2118e-09
0.05    	0.65    	1.2286e-09
0.05    	0.7     	1.2451e-09
0.1     	0       	-9.6163e-12
0.1     	0.05    	5.1378e-09
0.1     	0.1     	6.1013e-09
0.1     	0.15    	6.3923e-09
0.1     	0.2     	6.5643e-09
0.1     	0.25    	6.7082e-09
0.1     	0.3     	6.8408e-09
0.1     	0.35    	6.9663e-09
0.1     	0.4     	7.0865e-09
0.1     	0.45    	7.2023e-09
0.1     	0.5     	7.3139e-09
0.1     	0.55    	7.4215e-09
0.1     	0.6     	7.5247e-09
0.1     	0.65    	7.6233e-09
0.1     	0.7     	7.7173e-09
0.15    	0       	-5.6466e-11
0.15    	0.05    	2.9936e-08
0.15    	0.1     	3.5789e-08
0.15    	0.15    	3.7479e-08
0.15    	0.2     	3.8444e-08
0.15    	0.25    	3.9242e-08
0.15    	0.3     	3.997e-08
0.15    	0.35    	4.0644e-08
0.15    	0.4     	4.1268e-08
0.15    	0.45    	4.1848e-08
0.15    	0.5     	4.2386e-08
0.15    	0.55    	4.289e-08
0.15    	0.6     	4.3363e-08
0.15    	0.65    	4.3812e-08
0.15    	0.7     	4.4239e-08
0.2     	0       	-2.4621e-10
0.2     	0.05    	1.4115e-07
0.2     	0.1     	1.7256e-07
0.2     	0.15    	1.8077e-07
0.2     	0.2     	1.8469e-07
0.2     	0.25    	1.8761e-07
0.2     	0.3     	1.9014e-07
0.2     	0.35    	1.9242e-07
0.2     	0.4     	1.9452e-07
0.2     	0.45    	1.9647e-07
0.2     	0.5     	1.9831e-07
0.2     	0.55    	2.0005e-07
0.2     	0.6     	2.017e-07
0.2     	0.65    	2.0327e-07
0.2     	0.7     	2.0476e-07
0.25    	0       	-6.2637e-10
0.25    	0.05    	4.2958e-07
0.25    	0.1     	5.5325e-07
0.25    	0.15    	5.8277e-07
0.25    	0.2     	5.9331e-07
0.25    	0.25    	5.9982e-07
0.25    	0.3     	6.0509e-07
0.25    	0.35    	6.0971e-07
0.25    	0.4     	6.1387e-07
0.25    	0.45    	6.1767e-07
0.25    	0.5     	6.2116e-07
0.25    	0.55    	6.2442e-07
0.25    	0.6     	6.2747e-07
0.25    	0.65    	6.3034e-07
0.25    	0.7     	6.3306e-07
0.3     	0       	-1.0366e-09
0.3     	0.05    	8.4366e-07
0.3     	0.1     	1.172e-06
0.3     	0.15    	1.2554e-06
0.3     	0.2     	1.2815e-06
0.3     	0.25    	1.2929e-06
0.3     	0.3     	1.3008e-06
0.3     	0.35    	1.3075e-06
0.3     	0.4     	1.3133e-06
0.3     	0.45    	1.3185e-06
0.3     	0.5     	1.3233e-06
0.3     	0.55    	1.3277e-06
0.3     	0.6     	1.3318e-06
0.3     	0.65    	1.3356e-06
0.3     	0.7     	1.3392e-06
0.35    	0       	-1.3664e-09
0.35    	0.05    	1.2638e-06
0.35    	0.1     	1.9013e-06
0.35    	0.15    	2.098e-06
0.35    	0.2     	2.153e-06
0.35    	0.25    	2.1723e-06
0.35    	0.3     	2.1835e-06
0.35    	0.35    	2.1921e-06
0.35    	0.4     	2.1994e-06
0.35    	0.45    	2.2058e-06
0.35    	0.5     	2.2116e-06
0.35    	0.55    	2.2168e-06
0.35    	0.6     	2.2216e-06
0.35    	0.65    	2.2261e-06
0.35    	0.7     	2.2308e-06
0.4     	0       	-1.6132e-09
0.4     	0.05    	1.6334e-06
0.4     	0.1     	2.631e-06
0.4     	0.15    	3.0139e-06
0.4     	0.2     	3.1279e-06
0.4     	0.25    	3.1616e-06
0.4     	0.3     	3.1775e-06
0.4     	0.35    	3.1884e-06
0.4     	0.4     	3.1972e-06
0.4     	0.45    	3.2047e-06
0.4     	0.5     	3.2114e-06
0.4     	0.55    	3.2173e-06
0.4     	0.6     	3.2228e-06
0.4     	0.65    	3.2283e-06
0.4     	0.7     	3.233e-06
0.45    	0       	-1.7981e-09
0.45    	0.05    	1.9432e-06
0.45    	0.1     	3.3028e-06
0.45    	0.15    	3.9403e-06
0.45    	0.2     	4.1521e-06
0.45    	0.25    	4.2148e-06
0.45    	0.3     	4.2385e-06
0.45    	0.35    	4.2524e-06
0.45    	0.4     	4.2628e-06
0.45    	0.45    	4.2715e-06
0.45    	0.5     	4.279e-06
0.45    	0.55    	4.2857e-06
0.45    	0.6     	4.2917e-06
0.45    	0.65    	4.2971e-06
0.45    	0.7     	4.3027e-06
0.5     	0       	-1.9385e-09
0.5     	0.05    	2.2001e-06
0.5     	0.1     	3.8896e-06
0.5     	0.15    	4.8292e-06
0.5     	0.2     	5.1904e-06
0.5     	0.25    	5.3002e-06
0.5     	0.3     	5.3374e-06
0.5     	0.35    	5.3576e-06
0.5     	0.4     	5.3705e-06
0.5     	0.45    	5.3804e-06
0.5     	0.5     	5.3889e-06
0.5     	0.55    	5.3962e-06
0.5     	0.6     	5.4027e-06
0.5     	0.65    	5.4086e-06
0.5     	0.7     	5.4139e-06
0.55    	0       	-2.0466e-09
0.55    	0.05    	2.414e-06
0.55    	0.1     	4.3874e-06
0.55    	0.15    	5.6454e-06
0.55    	0.2     	6.2094e-06
0.55    	0.25    	6.3972e-06
0.55    	0.3     	6.4602e-06
0.55    	0.35    	6.4863e-06
0.55    	0.4     	6.5018e-06
0.55    	0.45    	6.5134e-06
0.55    	0.5     	6.5239e-06
0.55    	0.55    	6.5322e-06
0.55    	0.6     	6.5393e-06
0.55    	0.65    	6.5456e-06
0.55    	0.7     	6.5512e-06
0.6     	0       	-2.1306e-09
0.6     	0.05    	2.5935e-06
0.6     	0.1     	4.8039e-06
0.6     	0.15    	6.3674e-06
0.6     	0.2     	7.1606e-06
0.6     	0.25    	7.4829e-06
0.6     	0.3     	7.5867e-06
0.6     	0.35    	7.627e-06
0.6     	0.4     	7.6471e-06
0.6     	0.45    	7.6606e-06
0.6     	0.5     	7.6711e-06
0.6     	0.55    	7.68e-06
0.6     	0.6     	7.6882e-06
0.6     	0.65    	7.6952e-06
0.6     	0.7     	7.7011e-06
0.65    	0       	-2.196e-09
0.65    	0.05    	2.7454e-06
0.65    	0.1     	5.1511e-06
0.65    	0.15    	6.9753e-06
0.65    	0.2     	8.0422e-06
0.65    	0.25    	8.5334e-06
0.65    	0.3     	8.7083e-06
0.65    	0.35    	8.7664e-06
0.65    	0.4     	8.7944e-06
0.65    	0.45    	8.8107e-06
0.65    	0.5     	8.8226e-06
0.65    	0.55    	8.8322e-06
0.65    	0.6     	8.8403e-06
0.65    	0.65    	8.8473e-06
0.65    	0.7     	8.8541e-06
0.7     	0       	-2.2469e-09
0.7     	0.05    	2.875e-06
0.7     	0.1     	5.4416e-06
0.7     	0.15    	7.4893e-06
0.7     	0.2     	8.8246e-06
0.7     	0.25    	9.5233e-06
0.7     	0.3     	9.8029e-06
0.7     	0.35    	9.8993e-06
0.7     	0.4     	9.937e-06
0.7     	0.45    	9.9572e-06
0.7     	0.5     	9.9709e-06
0.7     	0.55    	9.9825e-06
0.7     	0.6     	9.9915e-06
0.7     	0.65    	9.9991e-06
0.7     	0.7     	1.0006e-05
