vg      	vd      	ids     
0       	0       	6.4642e-13
0       	0.05    	2.628e-11
0       	0.1     	3.025e-11
0       	0.15    	3.1006e-11
0       	0.2     	3.128e-11
0       	0.25    	3.1472e-11
0       	0.3     	3.1642e-11
0       	0.35    	3.18e-11
0       	0.4     	3.195e-11
0       	0.45    	3.2091e-11
0       	0.5     	3.2225e-11
0       	0.55    	3.2352e-11
0       	0.6     	3.2471e-11
0       	0.65    	3.2584e-11
0       	0.7     	3.2691e-11
0.05    	0       	4.2051e-12
0.05    	0.05    	1.7652e-10
0.05    	0.1     	2.0326e-10
0.05    	0.15    	2.0845e-10
0.05    	0.2     	2.1035e-10
0.05    	0.25    	2.1167e-10
0.05    	0.3     	2.1283e-10
0.05    	0.35    	2.1388e-10
0.05    	0.4     	2.1487e-10
0.05    	0.45    	2.1579e-10
0.05    	0.5     	2.1667e-10
0.05    	0.55    	2.1749e-10
0.05    	0.6     	2.1827e-10
0.05    	0.65    	2.1901e-10
0.05    	0.7     	2.197e-10
0.1     	0       	2.7561e-11
0.1     	0.05    	1.1399e-09
0.1     	0.1     	1.3195e-09
0.1     	0.15    	1.3544e-09
0.1     	0.2     	1.3672e-09
0.1     	0.25    	1.3759e-09
0.1     	0.3     	1.3834e-09
0.1     	0.35    	1.3902e-09
0.1     	0.4     	1.3964e-09
0.1     	0.45    	1.4022e-09
0.1     	0.5     	1.4077e-09
0.1     	0.55    	1.4128e-09
0.1     	0.6     	1.4177e-09
0.1     	0.65    	1.4223e-09
0.1     	0.7     	1.4267e-09
0.15    	0       	1.7247e-10
0.15    	0.05    	7.2248e-09
0.15    	0.1     	8.3857e-09
0.15    	0.15    	8.6175e-09
0.15    	0.2     	8.6998e-09
0.15    	0.25    	8.7551e-09
0.15    	0.3     	8.802e-09
0.15    	0.35    	8.844e-09
0.15    	0.4     	8.8821e-09
0.15    	0.45    	8.9172e-09
0.15    	0.5     	8.95e-09
0.15    	0.55    	8.981e-09
0.15    	0.6     	9.0105e-09
0.15    	0.65    	9.0385e-09
0.15    	0.7     	9.0654e-09
0.2     	0       	9.8027e-10
0.2     	0.05    	4.3275e-08
0.2     	0.1     	5.0619e-08
0.2     	0.15    	5.2028e-08
0.2     	0.2     	5.2521e-08
0.2     	0.25    	5.2835e-08
0.2     	0.3     	5.3096e-08
0.2     	0.35    	5.3329e-08
0.2     	0.4     	5.3539e-08
0.2     	0.45    	5.3732e-08
0.2     	0.5     	5.3911e-08
0.2     	0.55    	5.4078e-08
0.2     	0.6     	5.4237e-08
0.2     	0.65    	5.4389e-08
0.2     	0.7     	5.4534e-08
0.25    	0       	4.1249e-09
0.25    	0.05    	2.1037e-07
0.25    	0.1     	2.5336e-07
0.25    	0.15    	2.6184e-07
0.25    	0.2     	2.6429e-07
0.25    	0.25    	2.6562e-07
0.25    	0.3     	2.6666e-07
0.25    	0.35    	2.6757e-07
0.25    	0.4     	2.6839e-07
0.25    	0.45    	2.6912e-07
0.25    	0.5     	2.6979e-07
0.25    	0.55    	2.704e-07
0.25    	0.6     	2.7098e-07
0.25    	0.65    	2.7152e-07
0.25    	0.7     	2.7204e-07
0.3     	0       	1.0117e-08
0.3     	0.05    	6.4423e-07
0.3     	0.1     	8.3373e-07
0.3     	0.15    	8.7412e-07
0.3     	0.2     	8.8383e-07
0.3     	0.25    	8.8774e-07
0.3     	0.3     	8.9034e-07
0.3     	0.35    	8.9247e-07
0.3     	0.4     	8.9433e-07
0.3     	0.45    	8.9598e-07
0.3     	0.5     	8.9746e-07
0.3     	0.55    	8.9881e-07
0.3     	0.6     	9.0005e-07
0.3     	0.65    	9.012e-07
0.3     	0.7     	9.0228e-07
0.35    	0       	1.6259e-08
0.35    	0.05    	1.2629e-06
0.35    	0.1     	1.7797e-06
0.35    	0.15    	1.9207e-06
0.35    	0.2     	1.9535e-06
0.35    	0.25    	1.9638e-06
0.35    	0.3     	1.969e-06
0.35    	0.35    	1.9729e-06
0.35    	0.4     	1.9761e-06
0.35    	0.45    	1.9789e-06
0.35    	0.5     	1.9814e-06
0.35    	0.55    	1.9836e-06
0.35    	0.6     	1.9856e-06
0.35    	0.65    	1.9874e-06
0.35    	0.7     	1.9891e-06
0.4     	0       	2.1204e-08
0.4     	0.05    	1.8352e-06
0.4     	0.1     	2.8759e-06
0.4     	0.15    	3.2369e-06
0.4     	0.2     	3.3291e-06
0.4     	0.25    	3.3547e-06
0.4     	0.3     	3.3651e-06
0.4     	0.35    	3.3715e-06
0.4     	0.4     	3.3765e-06
0.4     	0.45    	3.3806e-06
0.4     	0.5     	3.3842e-06
0.4     	0.55    	3.3879e-06
0.4     	0.6     	3.3908e-06
0.4     	0.65    	3.3933e-06
0.4     	0.7     	3.3956e-06
0.45    	0       	2.5048e-08
0.45    	0.05    	2.3692e-06
0.45    	0.1     	3.9411e-06
0.45    	0.15    	4.6674e-06
0.45    	0.2     	4.8822e-06
0.45    	0.25    	4.9464e-06
0.45    	0.3     	4.9706e-06
0.45    	0.35    	4.9763e-06
0.45    	0.4     	4.9818e-06
0.45    	0.45    	4.9889e-06
0.45    	0.5     	4.9955e-06
0.45    	0.55    	4.9975e-06
0.45    	0.6     	4.9999e-06
0.45    	0.65    	5.0031e-06
0.45    	0.7     	5.0052e-06
0.5     	0       	2.8064e-08
0.5     	0.05    	2.8218e-06
0.5     	0.1     	4.9075e-06
0.5     	0.15    	6.0845e-06
0.5     	0.2     	6.5248e-06
0.5     	0.25    	6.655e-06
0.5     	0.3     	6.6906e-06
0.5     	0.35    	6.7114e-06
0.5     	0.4     	6.7221e-06
0.5     	0.45    	6.7236e-06
0.5     	0.5     	6.731e-06
0.5     	0.55    	6.7409e-06
0.5     	0.6     	6.7437e-06
0.5     	0.65    	6.7434e-06
0.5     	0.7     	6.7487e-06
0.55    	0       	3.047e-08
0.55    	0.05    	3.2008e-06
0.55    	0.1     	5.7415e-06
0.55    	0.15    	7.3942e-06
0.55    	0.2     	8.1726e-06
0.55    	0.25    	8.4207e-06
0.55    	0.3     	8.4986e-06
0.55    	0.35    	8.525e-06
0.55    	0.4     	8.5378e-06
0.55    	0.45    	8.5464e-06
0.55    	0.5     	8.5531e-06
0.55    	0.55    	8.5587e-06
0.55    	0.6     	8.5635e-06
0.55    	0.65    	8.5677e-06
0.55    	0.7     	8.5714e-06
0.6     	0       	3.2419e-08
0.6     	0.05    	3.5121e-06
0.6     	0.1     	6.4375e-06
0.6     	0.15    	8.5332e-06
0.6     	0.2     	9.7146e-06
0.6     	0.25    	1.0186e-05
0.6     	0.3     	1.0332e-05
0.6     	0.35    	1.0389e-05
0.6     	0.4     	1.0403e-05
0.6     	0.45    	1.042e-05
0.6     	0.5     	1.0422e-05
0.6     	0.55    	1.0436e-05
0.6     	0.6     	1.0442e-05
0.6     	0.65    	1.0447e-05
0.6     	0.7     	1.0443e-05
0.65    	0       	3.4057e-08
0.65    	0.05    	3.7651e-06
0.65    	0.1     	7.0077e-06
0.65    	0.15    	9.5005e-06
0.65    	0.2     	1.1131e-05
0.65    	0.25    	1.1879e-05
0.65    	0.3     	1.2163e-05
0.65    	0.35    	1.2259e-05
0.65    	0.4     	1.228e-05
0.65    	0.45    	1.2314e-05
0.65    	0.5     	1.2326e-05
0.65    	0.55    	1.2331e-05
0.65    	0.6     	1.2339e-05
0.65    	0.65    	1.2334e-05
0.65    	0.7     	1.235e-05
0.7     	0       	3.5474e-08
0.7     	0.05    	3.9708e-06
0.7     	0.1     	7.4714e-06
0.7     	0.15    	1.0307e-05
0.7     	0.2     	1.2302e-05
0.7     	0.25    	1.3442e-05
0.7     	0.3     	1.3953e-05
0.7     	0.35    	1.4122e-05
0.7     	0.4     	1.4185e-05
0.7     	0.45    	1.4207e-05
0.7     	0.5     	1.4213e-05
0.7     	0.55    	1.4232e-05
0.7     	0.6     	1.4229e-05
0.7     	0.65    	1.4234e-05
0.7     	0.7     	1.4235e-05
