vg      	vd      	ids     
0       	0       	6.2227e-11
0       	0.05    	9.3745e-09
0       	0.1     	1.1456e-08
0       	0.15    	1.2276e-08
0       	0.2     	1.2862e-08
0       	0.25    	1.3405e-08
0       	0.3     	1.394e-08
0       	0.35    	1.4474e-08
0       	0.4     	1.5006e-08
0       	0.45    	1.5529e-08
0       	0.5     	1.6032e-08
0       	0.55    	1.651e-08
0       	0.6     	1.6967e-08
0       	0.65    	1.7408e-08
0       	0.7     	1.7841e-08
0.05    	0       	3.5046e-10
0.05    	0.05    	5.169e-08
0.05    	0.1     	6.3291e-08
0.05    	0.15    	6.7715e-08
0.05    	0.2     	7.086e-08
0.05    	0.25    	7.3723e-08
0.05    	0.3     	7.6446e-08
0.05    	0.35    	7.9011e-08
0.05    	0.4     	8.1411e-08
0.05    	0.45    	8.3694e-08
0.05    	0.5     	8.5913e-08
0.05    	0.55    	8.8101e-08
0.05    	0.6     	9.0274e-08
0.05    	0.65    	9.2439e-08
0.05    	0.7     	9.4597e-08
0.1     	0       	1.5488e-09
0.1     	0.05    	2.5008e-07
0.1     	0.1     	3.0949e-07
0.1     	0.15    	3.3021e-07
0.1     	0.2     	3.4317e-07
0.1     	0.25    	3.5389e-07
0.1     	0.3     	3.6367e-07
0.1     	0.35    	3.7295e-07
0.1     	0.4     	3.8191e-07
0.1     	0.45    	3.9062e-07
0.1     	0.5     	3.9908e-07
0.1     	0.55    	4.0722e-07
0.1     	0.6     	4.1502e-07
0.1     	0.65    	4.2245e-07
0.1     	0.7     	4.2955e-07
0.15    	0       	4.8699e-09
0.15    	0.05    	8.8404e-07
0.15    	0.1     	1.1214e-06
0.15    	0.15    	1.1906e-06
0.15    	0.2     	1.2254e-06
0.15    	0.25    	1.2517e-06
0.15    	0.3     	1.2747e-06
0.15    	0.35    	1.2957e-06
0.15    	0.4     	1.3151e-06
0.15    	0.45    	1.3335e-06
0.15    	0.5     	1.3511e-06
0.15    	0.55    	1.368e-06
0.15    	0.6     	1.3844e-06
0.15    	0.65    	1.4003e-06
0.15    	0.7     	1.4156e-06
0.2     	0       	1.0189e-08
0.2     	0.05    	2.0981e-06
0.2     	0.1     	2.761e-06
0.2     	0.15    	2.9339e-06
0.2     	0.2     	3.0012e-06
0.2     	0.25    	3.0444e-06
0.2     	0.3     	3.0797e-06
0.2     	0.35    	3.1147e-06
0.2     	0.4     	3.1434e-06
0.2     	0.45    	3.1701e-06
0.2     	0.5     	3.1951e-06
0.2     	0.55    	3.2188e-06
0.2     	0.6     	3.2414e-06
0.2     	0.65    	3.2631e-06
0.2     	0.7     	3.2839e-06
0.25    	0       	1.6459e-08
0.25    	0.05    	3.7055e-06
0.25    	0.1     	5.0855e-06
0.25    	0.15    	5.4543e-06
0.25    	0.2     	5.5695e-06
0.25    	0.25    	5.6365e-06
0.25    	0.3     	5.6817e-06
0.25    	0.35    	5.7201e-06
0.25    	0.4     	5.7548e-06
0.25    	0.45    	5.7866e-06
0.25    	0.5     	5.8164e-06
0.25    	0.55    	5.8445e-06
0.25    	0.6     	5.8711e-06
0.25    	0.65    	5.8964e-06
0.25    	0.7     	5.9207e-06
0.3     	0       	2.2762e-08
0.3     	0.05    	5.4817e-06
0.3     	0.1     	7.8524e-06
0.3     	0.15    	8.5337e-06
0.3     	0.2     	8.7223e-06
0.3     	0.25    	8.8061e-06
0.3     	0.3     	8.8684e-06
0.3     	0.35    	8.9142e-06
0.3     	0.4     	8.9539e-06
0.3     	0.45    	8.9899e-06
0.3     	0.5     	9.0231e-06
0.3     	0.55    	9.0541e-06
0.3     	0.6     	9.0833e-06
0.3     	0.65    	9.111e-06
0.3     	0.7     	9.1374e-06
0.35    	0       	2.9137e-08
0.35    	0.05    	7.2869e-06
0.35    	0.1     	1.0878e-05
0.35    	0.15    	1.1999e-05
0.35    	0.2     	1.2312e-05
0.35    	0.25    	1.2429e-05
0.35    	0.3     	1.2498e-05
0.35    	0.35    	1.2551e-05
0.35    	0.4     	1.2597e-05
0.35    	0.45    	1.2637e-05
0.35    	0.5     	1.2678e-05
0.35    	0.55    	1.2713e-05
0.35    	0.6     	1.2744e-05
0.35    	0.65    	1.2774e-05
0.35    	0.7     	1.2802e-05
0.4     	0       	3.5491e-08
0.4     	0.05    	9.0417e-06
0.4     	0.1     	1.4029e-05
0.4     	0.15    	1.5747e-05
0.4     	0.2     	1.6231e-05
0.4     	0.25    	1.6406e-05
0.4     	0.3     	1.6493e-05
0.4     	0.35    	1.6555e-05
0.4     	0.4     	1.6606e-05
0.4     	0.45    	1.665e-05
0.4     	0.5     	1.669e-05
0.4     	0.55    	1.6727e-05
0.4     	0.6     	1.6761e-05
0.4     	0.65    	1.6793e-05
0.4     	0.7     	1.6823e-05
0.45    	0       	4.1249e-08
0.45    	0.05    	1.0702e-05
0.45    	0.1     	1.7204e-05
0.45    	0.15    	1.9692e-05
0.45    	0.2     	2.0438e-05
0.45    	0.25    	2.0668e-05
0.45    	0.3     	2.0777e-05
0.45    	0.35    	2.0851e-05
0.45    	0.4     	2.0909e-05
0.45    	0.45    	2.0963e-05
0.45    	0.5     	2.1008e-05
0.45    	0.55    	2.1048e-05
0.45    	0.6     	2.1085e-05
0.45    	0.65    	2.1118e-05
0.45    	0.7     	2.115e-05
0.5     	0       	4.6583e-08
0.5     	0.05    	1.2246e-05
0.5     	0.1     	2.0317e-05
0.5     	0.15    	2.3751e-05
0.5     	0.2     	2.4844e-05
0.5     	0.25    	2.5184e-05
0.5     	0.3     	2.5325e-05
0.5     	0.35    	2.541e-05
0.5     	0.4     	2.5475e-05
0.5     	0.45    	2.553e-05
0.5     	0.5     	2.5577e-05
0.5     	0.55    	2.562e-05
0.5     	0.6     	2.5659e-05
0.5     	0.65    	2.5695e-05
0.5     	0.7     	2.5729e-05
0.55    	0       	5.1437e-08
0.55    	0.05    	1.3666e-05
0.55    	0.1     	2.3306e-05
0.55    	0.15    	2.7846e-05
0.55    	0.2     	2.9407e-05
0.55    	0.25    	2.9891e-05
0.55    	0.3     	3.0075e-05
0.55    	0.35    	3.0178e-05
0.55    	0.4     	3.0253e-05
0.55    	0.45    	3.0313e-05
0.55    	0.5     	3.0366e-05
0.55    	0.55    	3.0412e-05
0.55    	0.6     	3.0454e-05
0.55    	0.65    	3.0496e-05
0.55    	0.7     	3.0533e-05
0.6     	0       	5.5831e-08
0.6     	0.05    	1.4969e-05
0.6     	0.1     	2.6127e-05
0.6     	0.15    	3.1853e-05
0.6     	0.2     	3.407e-05
0.6     	0.25    	3.4759e-05
0.6     	0.3     	3.5007e-05
0.6     	0.35    	3.5133e-05
0.6     	0.4     	3.5219e-05
0.6     	0.45    	3.5292e-05
0.6     	0.5     	3.5351e-05
0.6     	0.55    	3.5401e-05
0.6     	0.6     	3.5445e-05
0.6     	0.65    	3.5486e-05
0.6     	0.7     	3.5523e-05
0.65    	0       	5.9778e-08
0.65    	0.05    	1.6162e-05
0.65    	0.1     	2.8757e-05
0.65    	0.15    	3.5808e-05
0.65    	0.2     	3.878e-05
0.65    	0.25    	3.9749e-05
0.65    	0.3     	4.0086e-05
0.65    	0.35    	4.0253e-05
0.65    	0.4     	4.0354e-05
0.65    	0.45    	4.0428e-05
0.65    	0.5     	4.049e-05
0.65    	0.55    	4.0543e-05
0.65    	0.6     	4.059e-05
0.65    	0.65    	4.0633e-05
0.65    	0.7     	4.0673e-05
0.7     	0       	6.3342e-08
0.7     	0.05    	1.7259e-05
0.7     	0.1     	3.1189e-05
0.7     	0.15    	3.9611e-05
0.7     	0.2     	4.3435e-05
0.7     	0.25    	4.4819e-05
0.7     	0.3     	4.53e-05
0.7     	0.35    	4.5502e-05
0.7     	0.4     	4.5617e-05
0.7     	0.45    	4.57e-05
0.7     	0.5     	4.5767e-05
0.7     	0.55    	4.5824e-05
0.7     	0.6     	4.5874e-05
0.7     	0.65    	4.592e-05
0.7     	0.7     	4.5961e-05
