vg      	vd      	ids     
0       	0       	3.8582e-11
0       	0.05    	3.921e-08
0       	0.1     	4.8602e-08
0       	0.15    	5.2435e-08
0       	0.2     	5.5147e-08
0       	0.25    	5.759e-08
0       	0.3     	5.9923e-08
0       	0.35    	6.2181e-08
0       	0.4     	6.4364e-08
0       	0.45    	6.6506e-08
0       	0.5     	6.8602e-08
0       	0.55    	7.0632e-08
0       	0.6     	7.2598e-08
0       	0.65    	7.4483e-08
0       	0.7     	7.6264e-08
0.05    	0       	1.8581e-10
0.05    	0.05    	1.9407e-07
0.05    	0.1     	2.4143e-07
0.05    	0.15    	2.5978e-07
0.05    	0.2     	2.7277e-07
0.05    	0.25    	2.8429e-07
0.05    	0.3     	2.9498e-07
0.05    	0.35    	3.0483e-07
0.05    	0.4     	3.1368e-07
0.05    	0.45    	3.2152e-07
0.05    	0.5     	3.2859e-07
0.05    	0.55    	3.3514e-07
0.05    	0.6     	3.4133e-07
0.05    	0.65    	3.4726e-07
0.05    	0.7     	3.5299e-07
0.1     	0       	6.3018e-10
0.1     	0.05    	7.3176e-07
0.1     	0.1     	9.3186e-07
0.1     	0.15    	1.0004e-06
0.1     	0.2     	1.0394e-06
0.1     	0.25    	1.0688e-06
0.1     	0.3     	1.0938e-06
0.1     	0.35    	1.1163e-06
0.1     	0.4     	1.1372e-06
0.1     	0.45    	1.1567e-06
0.1     	0.5     	1.1752e-06
0.1     	0.55    	1.1928e-06
0.1     	0.6     	1.2095e-06
0.1     	0.65    	1.2255e-06
0.1     	0.7     	1.2408e-06
0.15    	0       	1.3994e-09
0.15    	0.05    	1.8686e-06
0.15    	0.1     	2.4887e-06
0.15    	0.15    	2.6671e-06
0.15    	0.2     	2.7516e-06
0.15    	0.25    	2.8047e-06
0.15    	0.3     	2.8489e-06
0.15    	0.35    	2.8876e-06
0.15    	0.4     	2.9222e-06
0.15    	0.45    	2.9532e-06
0.15    	0.5     	2.9812e-06
0.15    	0.55    	3.0067e-06
0.15    	0.6     	3.0327e-06
0.15    	0.65    	3.0545e-06
0.15    	0.7     	3.0748e-06
0.2     	0       	2.2911e-09
0.2     	0.05    	3.4077e-06
0.2     	0.1     	4.8708e-06
0.2     	0.15    	5.2955e-06
0.2     	0.2     	5.4477e-06
0.2     	0.25    	5.5231e-06
0.2     	0.3     	5.5786e-06
0.2     	0.35    	5.6251e-06
0.2     	0.4     	5.6705e-06
0.2     	0.45    	5.707e-06
0.2     	0.5     	5.7402e-06
0.2     	0.55    	5.7708e-06
0.2     	0.6     	5.7993e-06
0.2     	0.65    	5.826e-06
0.2     	0.7     	5.8512e-06
0.25    	0       	3.1596e-09
0.25    	0.05    	4.9827e-06
0.25    	0.1     	7.7026e-06
0.25    	0.15    	8.6482e-06
0.25    	0.2     	8.933e-06
0.25    	0.25    	9.043e-06
0.25    	0.3     	9.1118e-06
0.25    	0.35    	9.172e-06
0.25    	0.4     	9.2182e-06
0.25    	0.45    	9.2588e-06
0.25    	0.5     	9.2954e-06
0.25    	0.55    	9.3286e-06
0.25    	0.6     	9.3592e-06
0.25    	0.65    	9.3905e-06
0.25    	0.7     	9.417e-06
0.3     	0       	3.9637e-09
0.3     	0.05    	6.3661e-06
0.3     	0.1     	1.0564e-05
0.3     	0.15    	1.2405e-05
0.3     	0.2     	1.3e-05 
0.3     	0.25    	1.3182e-05
0.3     	0.3     	1.3272e-05
0.3     	0.35    	1.334e-05
0.3     	0.4     	1.339e-05
0.3     	0.45    	1.3432e-05
0.3     	0.5     	1.347e-05
0.3     	0.55    	1.3506e-05
0.3     	0.6     	1.3537e-05
0.3     	0.65    	1.3565e-05
0.3     	0.7     	1.3591e-05
0.35    	0       	4.692e-09
0.35    	0.05    	7.4964e-06
0.35    	0.1     	1.3121e-05
0.35    	0.15    	1.6211e-05
0.35    	0.2     	1.7406e-05
0.35    	0.25    	1.777e-05
0.35    	0.3     	1.7903e-05
0.35    	0.35    	1.7985e-05
0.35    	0.4     	1.8041e-05
0.35    	0.45    	1.8085e-05
0.35    	0.5     	1.8124e-05
0.35    	0.55    	1.8162e-05
0.35    	0.6     	1.8193e-05
0.35    	0.65    	1.822e-05
0.35    	0.7     	1.8246e-05
0.4     	0       	5.3382e-09
0.4     	0.05    	8.3957e-06
0.4     	0.1     	1.5092e-05
0.4     	0.15    	1.9682e-05
0.4     	0.2     	2.1856e-05
0.4     	0.25    	2.2611e-05
0.4     	0.3     	2.2847e-05
0.4     	0.35    	2.2959e-05
0.4     	0.4     	2.3025e-05
0.4     	0.45    	2.3074e-05
0.4     	0.5     	2.3118e-05
0.4     	0.55    	2.3153e-05
0.4     	0.6     	2.3184e-05
0.4     	0.65    	2.3211e-05
0.4     	0.7     	2.3238e-05
0.45    	0       	5.9267e-09
0.45    	0.05    	9.1081e-06
0.45    	0.1     	1.6734e-05
0.45    	0.15    	2.2564e-05
0.45    	0.2     	2.5955e-05
0.45    	0.25    	2.742e-05
0.45    	0.3     	2.7913e-05
0.45    	0.35    	2.8097e-05
0.45    	0.4     	2.8184e-05
0.45    	0.45    	2.824e-05
0.45    	0.5     	2.8287e-05
0.45    	0.55    	2.8324e-05
0.45    	0.6     	2.8357e-05
0.45    	0.65    	2.8385e-05
0.45    	0.7     	2.8409e-05
0.5     	0       	6.4509e-09
0.5     	0.05    	9.6758e-06
0.5     	0.1     	1.8016e-05
0.5     	0.15    	2.4822e-05
0.5     	0.2     	2.9381e-05
0.5     	0.25    	3.1845e-05
0.5     	0.3     	3.287e-05
0.5     	0.35    	3.3227e-05
0.5     	0.4     	3.3366e-05
0.5     	0.45    	3.3445e-05
0.5     	0.5     	3.3496e-05
0.5     	0.55    	3.3537e-05
0.5     	0.6     	3.3569e-05
0.5     	0.65    	3.3598e-05
0.5     	0.7     	3.3622e-05
0.55    	0       	6.9144e-09
0.55    	0.05    	1.0123e-05
0.55    	0.1     	1.9178e-05
0.55    	0.15    	2.6539e-05
0.55    	0.2     	3.1852e-05
0.55    	0.25    	3.5402e-05
0.55    	0.3     	3.7344e-05
0.55    	0.35    	3.8116e-05
0.55    	0.4     	3.84e-05
0.55    	0.45    	3.8523e-05
0.55    	0.5     	3.8588e-05
0.55    	0.55    	3.8634e-05
0.55    	0.6     	3.8668e-05
0.55    	0.65    	3.8696e-05
0.55    	0.7     	3.8721e-05
0.6     	0       	7.242e-09
0.6     	0.05    	1.0426e-05
0.6     	0.1     	1.9894e-05
0.6     	0.15    	2.7773e-05
0.6     	0.2     	3.373e-05
0.6     	0.25    	3.8081e-05
0.6     	0.3     	4.0999e-05
0.6     	0.35    	4.2397e-05
0.6     	0.4     	4.3015e-05
0.6     	0.45    	4.3257e-05
0.6     	0.5     	4.3366e-05
0.6     	0.55    	4.3424e-05
0.6     	0.6     	4.3463e-05
0.6     	0.65    	4.3494e-05
0.6     	0.7     	4.3518e-05
0.65    	0       	7.5272e-09
0.65    	0.05    	1.0593e-05
0.65    	0.1     	2.0388e-05
0.65    	0.15    	2.8656e-05
0.65    	0.2     	3.5055e-05
0.65    	0.25    	3.995e-05
0.65    	0.3     	4.3579e-05
0.65    	0.35    	4.5818e-05
0.65    	0.4     	4.6981e-05
0.65    	0.45    	4.7471e-05
0.65    	0.5     	4.7651e-05
0.65    	0.55    	4.7754e-05
0.65    	0.6     	4.781e-05
0.65    	0.65    	4.7845e-05
0.65    	0.7     	4.7871e-05
0.7     	0       	7.8275e-09
0.7     	0.05    	1.0716e-05
0.7     	0.1     	2.0682e-05
0.7     	0.15    	2.929e-05
0.7     	0.2     	3.6049e-05
0.7     	0.25    	4.1297e-05
0.7     	0.3     	4.5256e-05
0.7     	0.35    	4.8121e-05
0.7     	0.4     	4.9964e-05
0.7     	0.45    	5.0963e-05
0.7     	0.5     	5.1422e-05
0.7     	0.55    	5.1611e-05
0.7     	0.6     	5.169e-05
0.7     	0.65    	5.1724e-05
0.7     	0.7     	5.1755e-05
