vg      	vd      	ids     
0       	0       	1.1332e-10
0       	0.05    	5.5708e-08
0       	0.1     	7.6528e-08
0       	0.15    	8.9323e-08
0       	0.2     	1.0133e-07
0       	0.25    	1.139e-07
0       	0.3     	1.2713e-07
0       	0.35    	1.4099e-07
0       	0.4     	1.5496e-07
0       	0.45    	1.6759e-07
0       	0.5     	1.7907e-07
0       	0.55    	1.904e-07
0       	0.6     	2.0172e-07
0       	0.65    	2.1338e-07
0       	0.7     	2.2529e-07
0.05    	0       	3.7196e-10
0.05    	0.05    	1.9809e-07
0.05    	0.1     	2.6941e-07
0.05    	0.15    	3.1265e-07
0.05    	0.2     	3.5158e-07
0.05    	0.25    	3.8971e-07
0.05    	0.3     	4.2391e-07
0.05    	0.35    	4.5353e-07
0.05    	0.4     	4.8209e-07
0.05    	0.45    	5.1051e-07
0.05    	0.5     	5.3901e-07
0.05    	0.55    	5.6764e-07
0.05    	0.6     	5.964e-07
0.05    	0.65    	6.2763e-07
0.05    	0.7     	6.5685e-07
0.1     	0       	9.1783e-10
0.1     	0.05    	5.4742e-07
0.1     	0.1     	7.5061e-07
0.1     	0.15    	8.5932e-07
0.1     	0.2     	9.444e-07
0.1     	0.25    	1.0072e-06
0.1     	0.3     	1.0656e-06
0.1     	0.35    	1.1222e-06
0.1     	0.4     	1.1776e-06
0.1     	0.45    	1.232e-06
0.1     	0.5     	1.2855e-06
0.1     	0.55    	1.3378e-06
0.1     	0.6     	1.3928e-06
0.1     	0.65    	1.4404e-06
0.1     	0.7     	1.4838e-06
0.15    	0       	1.6733e-09
0.15    	0.05    	1.1401e-06
0.15    	0.1     	1.6131e-06
0.15    	0.15    	1.8092e-06
0.15    	0.2     	1.935e-06
0.15    	0.25    	2.0324e-06
0.15    	0.3     	2.1222e-06
0.15    	0.35    	2.2068e-06
0.15    	0.4     	2.2859e-06
0.15    	0.45    	2.3581e-06
0.15    	0.5     	2.4287e-06
0.15    	0.55    	2.4868e-06
0.15    	0.6     	2.5406e-06
0.15    	0.65    	2.5918e-06
0.15    	0.7     	2.6412e-06
0.2     	0       	2.4439e-09
0.2     	0.05    	1.8798e-06
0.2     	0.1     	2.7586e-06
0.2     	0.15    	3.1015e-06
0.2     	0.2     	3.2849e-06
0.2     	0.25    	3.4135e-06
0.2     	0.3     	3.5221e-06
0.2     	0.35    	3.6155e-06
0.2     	0.4     	3.6972e-06
0.2     	0.45    	3.7788e-06
0.2     	0.5     	3.8485e-06
0.2     	0.55    	3.9147e-06
0.2     	0.6     	3.9781e-06
0.2     	0.65    	4.0393e-06
0.2     	0.7     	4.0985e-06
0.25    	0       	3.1176e-09
0.25    	0.05    	2.6371e-06
0.25    	0.1     	4.0597e-06
0.25    	0.15    	4.6402e-06
0.25    	0.2     	4.8768e-06
0.25    	0.25    	5.0389e-06
0.25    	0.3     	5.1525e-06
0.25    	0.35    	5.2499e-06
0.25    	0.4     	5.3475e-06
0.25    	0.45    	5.4307e-06
0.25    	0.5     	5.5091e-06
0.25    	0.55    	5.5838e-06
0.25    	0.6     	5.6552e-06
0.25    	0.65    	5.7239e-06
0.25    	0.7     	5.7962e-06
0.3     	0       	3.6781e-09
0.3     	0.05    	3.3286e-06
0.3     	0.1     	5.4225e-06
0.3     	0.15    	6.3021e-06
0.3     	0.2     	6.6505e-06
0.3     	0.25    	6.8372e-06
0.3     	0.3     	6.9621e-06
0.3     	0.35    	7.069e-06
0.3     	0.4     	7.1661e-06
0.3     	0.45    	7.2655e-06
0.3     	0.5     	7.3506e-06
0.3     	0.55    	7.4306e-06
0.3     	0.6     	7.5064e-06
0.3     	0.65    	7.5783e-06
0.3     	0.7     	7.6528e-06
0.35    	0       	4.1375e-09
0.35    	0.05    	3.9207e-06
0.35    	0.1     	6.6404e-06
0.35    	0.15    	8.0095e-06
0.35    	0.2     	8.5353e-06
0.35    	0.25    	8.7668e-06
0.35    	0.3     	8.9083e-06
0.35    	0.35    	9.024e-06
0.35    	0.4     	9.1269e-06
0.35    	0.45    	9.2299e-06
0.35    	0.5     	9.3168e-06
0.35    	0.55    	9.3966e-06
0.35    	0.6     	9.4704e-06
0.35    	0.65    	9.5447e-06
0.35    	0.7     	9.6082e-06
0.4     	0       	4.5171e-09
0.4     	0.05    	4.4107e-06
0.4     	0.1     	7.7465e-06
0.4     	0.15    	9.6748e-06
0.4     	0.2     	1.0459e-05
0.4     	0.25    	1.0768e-05
0.4     	0.3     	1.0947e-05
0.4     	0.35    	1.107e-05
0.4     	0.4     	1.1174e-05
0.4     	0.45    	1.1274e-05
0.4     	0.5     	1.1357e-05
0.4     	0.55    	1.1431e-05
0.4     	0.6     	1.1499e-05
0.4     	0.65    	1.1567e-05
0.4     	0.7     	1.1626e-05
0.45    	0       	4.8373e-09
0.45    	0.05    	4.8108e-06
0.45    	0.1     	8.6836e-06
0.45    	0.15    	1.1212e-05
0.45    	0.2     	1.2372e-05
0.45    	0.25    	1.2828e-05
0.45    	0.3     	1.3039e-05
0.45    	0.35    	1.3168e-05
0.45    	0.4     	1.327e-05
0.45    	0.45    	1.3358e-05
0.45    	0.5     	1.3443e-05
0.45    	0.55    	1.3515e-05
0.45    	0.6     	1.3581e-05
0.45    	0.65    	1.3647e-05
0.45    	0.7     	1.3705e-05
0.5     	0       	5.1119e-09
0.5     	0.05    	5.1374e-06
0.5     	0.1     	9.4579e-06
0.5     	0.15    	1.2558e-05
0.5     	0.2     	1.4196e-05
0.5     	0.25    	1.4867e-05
0.5     	0.3     	1.5138e-05
0.5     	0.35    	1.5293e-05
0.5     	0.4     	1.5399e-05
0.5     	0.45    	1.5487e-05
0.5     	0.5     	1.557e-05
0.5     	0.55    	1.5642e-05
0.5     	0.6     	1.5707e-05
0.5     	0.65    	1.5772e-05
0.5     	0.7     	1.583e-05
0.55    	0       	5.35e-09
0.55    	0.05    	5.4054e-06
0.55    	0.1     	1.0091e-05
0.55    	0.15    	1.3687e-05
0.55    	0.2     	1.5848e-05
0.55    	0.25    	1.6844e-05
0.55    	0.3     	1.7246e-05
0.55    	0.35    	1.7432e-05
0.55    	0.4     	1.7546e-05
0.55    	0.45    	1.7637e-05
0.55    	0.5     	1.7721e-05
0.55    	0.55    	1.7792e-05
0.55    	0.6     	1.7857e-05
0.55    	0.65    	1.7921e-05
0.55    	0.7     	1.7978e-05
0.6     	0       	5.5579e-09
0.6     	0.05    	5.6273e-06
0.6     	0.1     	1.0608e-05
0.6     	0.15    	1.4611e-05
0.6     	0.2     	1.727e-05
0.6     	0.25    	1.8685e-05
0.6     	0.3     	1.9293e-05
0.6     	0.35    	1.9556e-05
0.6     	0.4     	1.969e-05
0.6     	0.45    	1.9793e-05
0.6     	0.5     	1.9874e-05
0.6     	0.55    	1.9944e-05
0.6     	0.6     	2.0012e-05
0.6     	0.65    	2.0071e-05
0.6     	0.7     	2.0126e-05
0.65    	0       	5.7401e-09
0.65    	0.05    	5.8131e-06
0.65    	0.1     	1.1035e-05
0.65    	0.15    	1.536e-05
0.65    	0.2     	1.8332e-05
0.65    	0.25    	2.0307e-05
0.65    	0.3     	2.1223e-05
0.65    	0.35    	2.1617e-05
0.65    	0.4     	2.18e-05
0.65    	0.45    	2.1915e-05
0.65    	0.5     	2.1999e-05
0.65    	0.55    	2.207e-05
0.65    	0.6     	2.2137e-05
0.65    	0.65    	2.2195e-05
0.65    	0.7     	2.2248e-05
0.7     	0       	5.9008e-09
0.7     	0.05    	5.9698e-06
0.7     	0.1     	1.1388e-05
0.7     	0.15    	1.5965e-05
0.7     	0.2     	1.9257e-05
0.7     	0.25    	2.165e-05
0.7     	0.3     	2.2937e-05
0.7     	0.35    	2.3575e-05
0.7     	0.4     	2.3836e-05
0.7     	0.45    	2.3976e-05
0.7     	0.5     	2.4072e-05
0.7     	0.55    	2.4145e-05
0.7     	0.6     	2.4206e-05
0.7     	0.65    	2.4264e-05
0.7     	0.7     	2.4315e-05
