vg      	vd      	ids     
0       	0       	4.0445e-13
0       	0.05    	3.8453e-11
0       	0.1     	4.4308e-11
0       	0.15    	4.5388e-11
0       	0.2     	4.5748e-11
0       	0.25    	4.5988e-11
0       	0.3     	4.6197e-11
0       	0.35    	4.6389e-11
0       	0.4     	4.657e-11
0       	0.45    	4.6739e-11
0       	0.5     	4.6899e-11
0       	0.55    	4.7051e-11
0       	0.6     	4.7196e-11
0       	0.65    	4.7334e-11
0       	0.7     	4.7467e-11
0.05    	0       	2.5312e-12
0.05    	0.05    	2.6149e-10
0.05    	0.1     	3.0113e-10
0.05    	0.15    	3.0855e-10
0.05    	0.2     	3.1106e-10
0.05    	0.25    	3.1273e-10
0.05    	0.3     	3.1418e-10
0.05    	0.35    	3.1551e-10
0.05    	0.4     	3.1674e-10
0.05    	0.45    	3.179e-10
0.05    	0.5     	3.1898e-10
0.05    	0.55    	3.2001e-10
0.05    	0.6     	3.2098e-10
0.05    	0.65    	3.2191e-10
0.05    	0.7     	3.228e-10
0.1     	0       	1.6873e-11
0.1     	0.05    	1.736e-09
0.1     	0.1     	2.0063e-09
0.1     	0.15    	2.0569e-09
0.1     	0.2     	2.0742e-09
0.1     	0.25    	2.0856e-09
0.1     	0.3     	2.0954e-09
0.1     	0.35    	2.1042e-09
0.1     	0.4     	2.1125e-09
0.1     	0.45    	2.1201e-09
0.1     	0.5     	2.1272e-09
0.1     	0.55    	2.1339e-09
0.1     	0.6     	2.1403e-09
0.1     	0.65    	2.1463e-09
0.1     	0.7     	2.1521e-09
0.15    	0       	1.0538e-10
0.15    	0.05    	1.1278e-08
0.15    	0.1     	1.3073e-08
0.15    	0.15    	1.3418e-08
0.15    	0.2     	1.3533e-08
0.15    	0.25    	1.3608e-08
0.15    	0.3     	1.3671e-08
0.15    	0.35    	1.3727e-08
0.15    	0.4     	1.3778e-08
0.15    	0.45    	1.3826e-08
0.15    	0.5     	1.387e-08
0.15    	0.55    	1.3912e-08
0.15    	0.6     	1.395e-08
0.15    	0.65    	1.3987e-08
0.15    	0.7     	1.4022e-08
0.2     	0       	5.5025e-10
0.2     	0.05    	6.562e-08
0.2     	0.1     	7.7201e-08
0.2     	0.15    	7.9412e-08
0.2     	0.2     	8.0106e-08
0.2     	0.25    	8.052e-08
0.2     	0.3     	8.0855e-08
0.2     	0.35    	8.1148e-08
0.2     	0.4     	8.1411e-08
0.2     	0.45    	8.1652e-08
0.2     	0.5     	8.1874e-08
0.2     	0.55    	8.208e-08
0.2     	0.6     	8.2272e-08
0.2     	0.65    	8.2452e-08
0.2     	0.7     	8.2621e-08
0.25    	0       	1.8069e-09
0.25    	0.05    	2.6738e-07
0.25    	0.1     	3.3016e-07
0.25    	0.15    	3.4242e-07
0.25    	0.2     	3.4566e-07
0.25    	0.25    	3.4725e-07
0.25    	0.3     	3.4841e-07
0.25    	0.35    	3.494e-07
0.25    	0.4     	3.5025e-07
0.25    	0.45    	3.5102e-07
0.25    	0.5     	3.5172e-07
0.25    	0.55    	3.5236e-07
0.25    	0.6     	3.5295e-07
0.25    	0.65    	3.5349e-07
0.25    	0.7     	3.54e-07
0.3     	0       	3.5145e-09
0.3     	0.05    	6.4064e-07
0.3     	0.1     	8.6595e-07
0.3     	0.15    	9.1701e-07
0.3     	0.2     	9.2914e-07
0.3     	0.25    	9.337e-07
0.3     	0.3     	9.3652e-07
0.3     	0.35    	9.3873e-07
0.3     	0.4     	9.4058e-07
0.3     	0.45    	9.422e-07
0.3     	0.5     	9.4364e-07
0.3     	0.55    	9.4493e-07
0.3     	0.6     	9.461e-07
0.3     	0.65    	9.4736e-07
0.3     	0.7     	9.4836e-07
0.35    	0       	4.9659e-09
0.35    	0.05    	1.043e-06
0.35    	0.1     	1.5651e-06
0.35    	0.15    	1.7191e-06
0.35    	0.2     	1.759e-06
0.35    	0.25    	1.7705e-06
0.35    	0.3     	1.776e-06
0.35    	0.35    	1.7799e-06
0.35    	0.4     	1.783e-06
0.35    	0.45    	1.786e-06
0.35    	0.5     	1.7883e-06
0.35    	0.55    	1.7903e-06
0.35    	0.6     	1.7921e-06
0.35    	0.65    	1.7937e-06
0.35    	0.7     	1.7952e-06
0.4     	0       	6.0802e-09
0.4     	0.05    	1.3814e-06
0.4     	0.1     	2.2624e-06
0.4     	0.15    	2.6228e-06
0.4     	0.2     	2.7248e-06
0.4     	0.25    	2.7519e-06
0.4     	0.3     	2.7623e-06
0.4     	0.35    	2.7684e-06
0.4     	0.4     	2.7729e-06
0.4     	0.45    	2.7771e-06
0.4     	0.5     	2.7803e-06
0.4     	0.55    	2.783e-06
0.4     	0.6     	2.7854e-06
0.4     	0.65    	2.7876e-06
0.4     	0.7     	2.7896e-06
0.45    	0       	6.9375e-09
0.45    	0.05    	1.6458e-06
0.45    	0.1     	2.8683e-06
0.45    	0.15    	3.5172e-06
0.45    	0.2     	3.7437e-06
0.45    	0.25    	3.8097e-06
0.45    	0.3     	3.83e-06
0.45    	0.35    	3.8395e-06
0.45    	0.4     	3.8458e-06
0.45    	0.45    	3.8512e-06
0.45    	0.5     	3.8553e-06
0.45    	0.55    	3.8588e-06
0.45    	0.6     	3.8618e-06
0.45    	0.65    	3.8645e-06
0.45    	0.7     	3.8669e-06
0.5     	0       	7.6108e-09
0.5     	0.05    	1.8516e-06
0.5     	0.1     	3.3551e-06
0.5     	0.15    	4.3257e-06
0.5     	0.2     	4.7511e-06
0.5     	0.25    	4.8944e-06
0.5     	0.3     	4.9384e-06
0.5     	0.35    	4.9544e-06
0.5     	0.4     	4.9632e-06
0.5     	0.45    	4.9694e-06
0.5     	0.5     	4.975e-06
0.5     	0.55    	4.9793e-06
0.5     	0.6     	4.9829e-06
0.5     	0.65    	4.9861e-06
0.5     	0.7     	4.989e-06
0.55    	0       	8.1499e-09
0.55    	0.05    	2.014e-06
0.55    	0.1     	3.7347e-06
0.55    	0.15    	5.002e-06
0.55    	0.2     	5.6824e-06
0.55    	0.25    	5.9611e-06
0.55    	0.3     	6.053e-06
0.55    	0.35    	6.0843e-06
0.55    	0.4     	6.0977e-06
0.55    	0.45    	6.1058e-06
0.55    	0.5     	6.1125e-06
0.55    	0.55    	6.1176e-06
0.55    	0.6     	6.1218e-06
0.55    	0.65    	6.1254e-06
0.55    	0.7     	6.1287e-06
0.6     	0       	8.5883e-09
0.6     	0.05    	2.1441e-06
0.6     	0.1     	4.0302e-06
0.6     	0.15    	5.538e-06
0.6     	0.2     	6.485e-06
0.6     	0.25    	6.9574e-06
0.6     	0.3     	7.1467e-06
0.6     	0.35    	7.2044e-06
0.6     	0.4     	7.2279e-06
0.6     	0.45    	7.2394e-06
0.6     	0.5     	7.247e-06
0.6     	0.55    	7.2534e-06
0.6     	0.6     	7.2583e-06
0.6     	0.65    	7.2624e-06
0.6     	0.7     	7.2663e-06
0.65    	0       	8.9506e-09
0.65    	0.05    	2.2495e-06
0.65    	0.1     	4.2632e-06
0.65    	0.15    	5.9289e-06
0.65    	0.2     	7.1356e-06
0.65    	0.25    	7.83e-06
0.65    	0.3     	8.1714e-06
0.65    	0.35    	8.2929e-06
0.65    	0.4     	8.3362e-06
0.65    	0.45    	8.3538e-06
0.65    	0.5     	8.3637e-06
0.65    	0.55    	8.3712e-06
0.65    	0.6     	8.3769e-06
0.65    	0.65    	8.3814e-06
0.65    	0.7     	8.3856e-06
0.7     	0       	9.2546e-09
0.7     	0.05    	2.3358e-06
0.7     	0.1     	4.4709e-06
0.7     	0.15    	6.2712e-06
0.7     	0.2     	7.6394e-06
0.7     	0.25    	8.5429e-06
0.7     	0.3     	9.0756e-06
0.7     	0.35    	9.3069e-06
0.7     	0.4     	9.3991e-06
0.7     	0.45    	9.4305e-06
0.7     	0.5     	9.446e-06
0.7     	0.55    	9.4549e-06
0.7     	0.6     	9.4613e-06
0.7     	0.65    	9.4668e-06
0.7     	0.7     	9.4711e-06
