vg      	vd      	ids     
0       	0       	6.2443e-11
0       	0.05    	5.0475e-09
0       	0.1     	6.0922e-09
0       	0.15    	6.4663e-09
0       	0.2     	6.7109e-09
0       	0.25    	6.9243e-09
0       	0.3     	7.1288e-09
0       	0.35    	7.3302e-09
0       	0.4     	7.5302e-09
0       	0.45    	7.7292e-09
0       	0.5     	7.9272e-09
0       	0.55    	8.1235e-09
0       	0.6     	8.3171e-09
0       	0.65    	8.5067e-09
0       	0.7     	8.6904e-09
0.05    	0       	3.335e-10
0.05    	0.05    	2.8986e-08
0.05    	0.1     	3.5003e-08
0.05    	0.15    	3.7066e-08
0.05    	0.2     	3.8406e-08
0.05    	0.25    	3.9593e-08
0.05    	0.3     	4.0736e-08
0.05    	0.35    	4.1855e-08
0.05    	0.4     	4.2953e-08
0.05    	0.45    	4.4021e-08
0.05    	0.5     	4.5045e-08
0.05    	0.55    	4.6009e-08
0.05    	0.6     	4.691e-08
0.05    	0.65    	4.7756e-08
0.05    	0.7     	4.8561e-08
0.1     	0       	1.683e-09
0.1     	0.05    	1.5059e-07
0.1     	0.1     	1.8341e-07
0.1     	0.15    	1.9393e-07
0.1     	0.2     	2.0039e-07
0.1     	0.25    	2.0585e-07
0.1     	0.3     	2.108e-07
0.1     	0.35    	2.1532e-07
0.1     	0.4     	2.195e-07
0.1     	0.45    	2.2345e-07
0.1     	0.5     	2.2724e-07
0.1     	0.55    	2.309e-07
0.1     	0.6     	2.345e-07
0.1     	0.65    	2.3801e-07
0.1     	0.7     	2.4144e-07
0.15    	0       	5.7042e-09
0.15    	0.05    	5.9065e-07
0.15    	0.1     	7.3814e-07
0.15    	0.15    	7.7868e-07
0.15    	0.2     	7.9837e-07
0.15    	0.25    	8.1311e-07
0.15    	0.3     	8.2609e-07
0.15    	0.35    	8.3808e-07
0.15    	0.4     	8.4936e-07
0.15    	0.45    	8.6002e-07
0.15    	0.5     	8.701e-07
0.15    	0.55    	8.7963e-07
0.15    	0.6     	8.8862e-07
0.15    	0.65    	8.9714e-07
0.15    	0.7     	9.0522e-07
0.2     	0       	1.2423e-08
0.2     	0.05    	1.521e-06
0.2     	0.1     	1.984e-06
0.2     	0.15    	2.0994e-06
0.2     	0.2     	2.1429e-06
0.2     	0.25    	2.17e-06
0.2     	0.3     	2.192e-06
0.2     	0.35    	2.214e-06
0.2     	0.4     	2.2317e-06
0.2     	0.45    	2.248e-06
0.2     	0.5     	2.2633e-06
0.2     	0.55    	2.2779e-06
0.2     	0.6     	2.2918e-06
0.2     	0.65    	2.3051e-06
0.2     	0.7     	2.3178e-06
0.25    	0       	2.0003e-08
0.25    	0.05    	2.7929e-06
0.25    	0.1     	3.8362e-06
0.25    	0.15    	4.1108e-06
0.25    	0.2     	4.1989e-06
0.25    	0.25    	4.2396e-06
0.25    	0.3     	4.2689e-06
0.25    	0.35    	4.2937e-06
0.25    	0.4     	4.3159e-06
0.25    	0.45    	4.3362e-06
0.25    	0.5     	4.355e-06
0.25    	0.55    	4.3727e-06
0.25    	0.6     	4.3894e-06
0.25    	0.65    	4.4052e-06
0.25    	0.7     	4.4202e-06
0.3     	0       	2.7079e-08
0.3     	0.05    	4.1957e-06
0.3     	0.1     	6.0782e-06
0.3     	0.15    	6.6127e-06
0.3     	0.2     	6.7671e-06
0.3     	0.25    	6.8269e-06
0.3     	0.3     	6.8646e-06
0.3     	0.35    	6.8946e-06
0.3     	0.4     	6.9207e-06
0.3     	0.45    	6.9442e-06
0.3     	0.5     	6.9657e-06
0.3     	0.55    	6.9857e-06
0.3     	0.6     	7.0045e-06
0.3     	0.65    	7.0222e-06
0.3     	0.7     	7.0389e-06
0.35    	0       	3.3802e-08
0.35    	0.05    	5.6045e-06
0.35    	0.1     	8.5003e-06
0.35    	0.15    	9.4487e-06
0.35    	0.2     	9.7006e-06
0.35    	0.25    	9.7959e-06
0.35    	0.3     	9.8449e-06
0.35    	0.35    	9.8807e-06
0.35    	0.4     	9.9107e-06
0.35    	0.45    	9.9372e-06
0.35    	0.5     	9.9611e-06
0.35    	0.55    	9.9832e-06
0.35    	0.6     	1.0004e-05
0.35    	0.65    	1.0023e-05
0.35    	0.7     	1.0041e-05
0.4     	0       	3.9894e-08
0.4     	0.05    	6.9524e-06
0.4     	0.1     	1.1011e-05
0.4     	0.15    	1.2495e-05
0.4     	0.2     	1.2917e-05
0.4     	0.25    	1.305e-05
0.4     	0.3     	1.3113e-05
0.4     	0.35    	1.3157e-05
0.4     	0.4     	1.3192e-05
0.4     	0.45    	1.3222e-05
0.4     	0.5     	1.3248e-05
0.4     	0.55    	1.3275e-05
0.4     	0.6     	1.3298e-05
0.4     	0.65    	1.3319e-05
0.4     	0.7     	1.3338e-05
0.45    	0       	4.5371e-08
0.45    	0.05    	8.2059e-06
0.45    	0.1     	1.3511e-05
0.45    	0.15    	1.5651e-05
0.45    	0.2     	1.6327e-05
0.45    	0.25    	1.6535e-05
0.45    	0.3     	1.662e-05
0.45    	0.35    	1.6672e-05
0.45    	0.4     	1.6711e-05
0.45    	0.45    	1.6744e-05
0.45    	0.5     	1.6774e-05
0.45    	0.55    	1.68e-05
0.45    	0.6     	1.6824e-05
0.45    	0.65    	1.6846e-05
0.45    	0.7     	1.6867e-05
0.5     	0       	5.0591e-08
0.5     	0.05    	9.3531e-06
0.5     	0.1     	1.5902e-05
0.5     	0.15    	1.8872e-05
0.5     	0.2     	1.9883e-05
0.5     	0.25    	2.0192e-05
0.5     	0.3     	2.0307e-05
0.5     	0.35    	2.0371e-05
0.5     	0.4     	2.0417e-05
0.5     	0.45    	2.0454e-05
0.5     	0.5     	2.0487e-05
0.5     	0.55    	2.0518e-05
0.5     	0.6     	2.0543e-05
0.5     	0.65    	2.0568e-05
0.5     	0.7     	2.059e-05
0.55    	0       	5.495e-08
0.55    	0.05    	1.0396e-05
0.55    	0.1     	1.8151e-05
0.55    	0.15    	2.2073e-05
0.55    	0.2     	2.3534e-05
0.55    	0.25    	2.3989e-05
0.55    	0.3     	2.4156e-05
0.55    	0.35    	2.4236e-05
0.55    	0.4     	2.4289e-05
0.55    	0.45    	2.433e-05
0.55    	0.5     	2.4365e-05
0.55    	0.55    	2.4396e-05
0.55    	0.6     	2.4424e-05
0.55    	0.65    	2.4449e-05
0.55    	0.7     	2.4472e-05
0.6     	0       	5.8826e-08
0.6     	0.05    	1.1341e-05
0.6     	0.1     	2.0232e-05
0.6     	0.15    	2.5169e-05
0.6     	0.2     	2.7217e-05
0.6     	0.25    	2.7882e-05
0.6     	0.3     	2.8124e-05
0.6     	0.35    	2.8217e-05
0.6     	0.4     	2.8289e-05
0.6     	0.45    	2.8326e-05
0.6     	0.5     	2.8374e-05
0.6     	0.55    	2.8398e-05
0.6     	0.6     	2.843e-05
0.6     	0.65    	2.8458e-05
0.6     	0.7     	2.8482e-05
0.65    	0       	6.2303e-08
0.65    	0.05    	1.2199e-05
0.65    	0.1     	2.2132e-05
0.65    	0.15    	2.8166e-05
0.65    	0.2     	3.0939e-05
0.65    	0.25    	3.1908e-05
0.65    	0.3     	3.2189e-05
0.65    	0.35    	3.2304e-05
0.65    	0.4     	3.2379e-05
0.65    	0.45    	3.2428e-05
0.65    	0.5     	3.2499e-05
0.65    	0.55    	3.2528e-05
0.65    	0.6     	3.2543e-05
0.65    	0.65    	3.2569e-05
0.65    	0.7     	3.2591e-05
0.7     	0       	6.5431e-08
0.7     	0.05    	1.2978e-05
0.7     	0.1     	2.368e-05
0.7     	0.15    	3.0965e-05
0.7     	0.2     	3.4466e-05
0.7     	0.25    	3.5828e-05
0.7     	0.3     	3.6365e-05
0.7     	0.35    	3.6509e-05
0.7     	0.4     	3.6561e-05
0.7     	0.45    	3.6651e-05
0.7     	0.5     	3.6682e-05
0.7     	0.55    	3.674e-05
0.7     	0.6     	3.6758e-05
0.7     	0.65    	3.6801e-05
0.7     	0.7     	3.6815e-05
