vg      	vd      	ids     
0       	0       	2.1348e-11
0       	0.05    	2.0132e-08
0       	0.1     	2.3449e-08
0       	0.15    	2.4184e-08
0       	0.2     	2.4504e-08
0       	0.25    	2.474e-08
0       	0.3     	2.4943e-08
0       	0.35    	2.5126e-08
0       	0.4     	2.5295e-08
0       	0.45    	2.5451e-08
0       	0.5     	2.5596e-08
0       	0.55    	2.5732e-08
0       	0.6     	2.586e-08
0       	0.65    	2.598e-08
0       	0.7     	2.6094e-08
0.05    	0       	1.2722e-10
0.05    	0.05    	1.2188e-07
0.05    	0.1     	1.4325e-07
0.05    	0.15    	1.479e-07
0.05    	0.2     	1.4981e-07
0.05    	0.25    	1.5115e-07
0.05    	0.3     	1.5228e-07
0.05    	0.35    	1.5328e-07
0.05    	0.4     	1.5418e-07
0.05    	0.45    	1.5501e-07
0.05    	0.5     	1.5577e-07
0.05    	0.55    	1.5647e-07
0.05    	0.6     	1.5713e-07
0.05    	0.65    	1.5774e-07
0.05    	0.7     	1.5832e-07
0.1     	0       	5.2391e-10
0.1     	0.05    	5.6869e-07
0.1     	0.1     	6.8997e-07
0.1     	0.15    	7.1532e-07
0.1     	0.2     	7.2389e-07
0.1     	0.25    	7.291e-07
0.1     	0.3     	7.3284e-07
0.1     	0.35    	7.3644e-07
0.1     	0.4     	7.3963e-07
0.1     	0.45    	7.425e-07
0.1     	0.5     	7.4511e-07
0.1     	0.55    	7.4749e-07
0.1     	0.6     	7.4996e-07
0.1     	0.65    	7.52e-07
0.1     	0.7     	7.539e-07
0.15    	0       	1.2716e-09
0.15    	0.05    	1.6467e-06
0.15    	0.1     	2.1314e-06
0.15    	0.15    	2.2373e-06
0.15    	0.2     	2.2665e-06
0.15    	0.25    	2.2821e-06
0.15    	0.3     	2.2918e-06
0.15    	0.35    	2.2997e-06
0.15    	0.4     	2.3065e-06
0.15    	0.45    	2.3125e-06
0.15    	0.5     	2.3178e-06
0.15    	0.55    	2.3226e-06
0.15    	0.6     	2.327e-06
0.15    	0.65    	2.3311e-06
0.15    	0.7     	2.3348e-06
0.2     	0       	2.1444e-09
0.2     	0.05    	3.1474e-06
0.2     	0.1     	4.4409e-06
0.2     	0.15    	4.7728e-06
0.2     	0.2     	4.8602e-06
0.2     	0.25    	4.8907e-06
0.2     	0.3     	4.9088e-06
0.2     	0.35    	4.9226e-06
0.2     	0.4     	4.934e-06
0.2     	0.45    	4.9438e-06
0.2     	0.5     	4.9535e-06
0.2     	0.55    	4.9611e-06
0.2     	0.6     	4.9679e-06
0.2     	0.65    	4.974e-06
0.2     	0.7     	4.9797e-06
0.25    	0       	2.9999e-09
0.25    	0.05    	4.691e-06
0.25    	0.1     	7.2087e-06
0.25    	0.15    	8.0468e-06
0.25    	0.2     	8.2648e-06
0.25    	0.25    	8.3294e-06
0.25    	0.3     	8.3608e-06
0.25    	0.35    	8.3823e-06
0.25    	0.4     	8.4012e-06
0.25    	0.45    	8.4154e-06
0.25    	0.5     	8.4274e-06
0.25    	0.55    	8.438e-06
0.25    	0.6     	8.4473e-06
0.25    	0.65    	8.4558e-06
0.25    	0.7     	8.4642e-06
0.3     	0       	3.7997e-09
0.3     	0.05    	6.0627e-06
0.3     	0.1     	1.002e-05
0.3     	0.15    	1.173e-05
0.3     	0.2     	1.2255e-05
0.3     	0.25    	1.2393e-05
0.3     	0.3     	1.2448e-05
0.3     	0.35    	1.2483e-05
0.3     	0.4     	1.2506e-05
0.3     	0.45    	1.2525e-05
0.3     	0.5     	1.2541e-05
0.3     	0.55    	1.2554e-05
0.3     	0.6     	1.2568e-05
0.3     	0.65    	1.2578e-05
0.3     	0.7     	1.2588e-05
0.35    	0       	4.5301e-09
0.35    	0.05    	7.199e-06
0.35    	0.1     	1.256e-05
0.35    	0.15    	1.5478e-05
0.35    	0.2     	1.6595e-05
0.35    	0.25    	1.6912e-05
0.35    	0.3     	1.7013e-05
0.35    	0.35    	1.7062e-05
0.35    	0.4     	1.7096e-05
0.35    	0.45    	1.7121e-05
0.35    	0.5     	1.7141e-05
0.35    	0.55    	1.7158e-05
0.35    	0.6     	1.7174e-05
0.35    	0.65    	1.7187e-05
0.35    	0.7     	1.7199e-05
0.4     	0       	5.1819e-09
0.4     	0.05    	8.1134e-06
0.4     	0.1     	1.4547e-05
0.4     	0.15    	1.8933e-05
0.4     	0.2     	2.0996e-05
0.4     	0.25    	2.1684e-05
0.4     	0.3     	2.1902e-05
0.4     	0.35    	2.1983e-05
0.4     	0.4     	2.2031e-05
0.4     	0.45    	2.2063e-05
0.4     	0.5     	2.2087e-05
0.4     	0.55    	2.2109e-05
0.4     	0.6     	2.2126e-05
0.4     	0.65    	2.2141e-05
0.4     	0.7     	2.2154e-05
0.45    	0       	5.7769e-09
0.45    	0.05    	8.8441e-06
0.45    	0.1     	1.6224e-05
0.45    	0.15    	2.1845e-05
0.45    	0.2     	2.5091e-05
0.45    	0.25    	2.6482e-05
0.45    	0.3     	2.6938e-05
0.45    	0.35    	2.7089e-05
0.45    	0.4     	2.7161e-05
0.45    	0.45    	2.7203e-05
0.45    	0.5     	2.7235e-05
0.45    	0.55    	2.7259e-05
0.45    	0.6     	2.7278e-05
0.45    	0.65    	2.7296e-05
0.45    	0.7     	2.7311e-05
0.5     	0       	6.3083e-09
0.5     	0.05    	9.4302e-06
0.5     	0.1     	1.7702e-05
0.5     	0.15    	2.4158e-05
0.5     	0.2     	2.8565e-05
0.5     	0.25    	3.0925e-05
0.5     	0.3     	3.1871e-05
0.5     	0.35    	3.222e-05
0.5     	0.4     	3.2341e-05
0.5     	0.45    	3.2403e-05
0.5     	0.5     	3.2441e-05
0.5     	0.55    	3.2468e-05
0.5     	0.6     	3.2492e-05
0.5     	0.65    	3.2511e-05
0.5     	0.7     	3.2527e-05
0.55    	0       	6.779e-09
0.55    	0.05    	9.8949e-06
0.55    	0.1     	1.8742e-05
0.55    	0.15    	2.5938e-05
0.55    	0.2     	3.1122e-05
0.55    	0.25    	3.4561e-05
0.55    	0.3     	3.6419e-05
0.55    	0.35    	3.7144e-05
0.55    	0.4     	3.7401e-05
0.55    	0.45    	3.7502e-05
0.55    	0.5     	3.7558e-05
0.55    	0.55    	3.7593e-05
0.55    	0.6     	3.762e-05
0.55    	0.65    	3.7641e-05
0.55    	0.7     	3.7658e-05
0.6     	0       	7.1158e-09
0.6     	0.05    	1.0216e-05
0.6     	0.1     	1.9494e-05
0.6     	0.15    	2.723e-05
0.6     	0.2     	3.3087e-05
0.6     	0.25    	3.7499e-05
0.6     	0.3     	4.0178e-05
0.6     	0.35    	4.1542e-05
0.6     	0.4     	4.2071e-05
0.6     	0.45    	4.2295e-05
0.6     	0.5     	4.2392e-05
0.6     	0.55    	4.2441e-05
0.6     	0.6     	4.2475e-05
0.6     	0.65    	4.2499e-05
0.6     	0.7     	4.2518e-05
0.65    	0       	7.4089e-09
0.65    	0.05    	1.04e-05
0.65    	0.1     	2.0023e-05
0.65    	0.15    	2.8165e-05
0.65    	0.2     	3.4491e-05
0.65    	0.25    	3.9499e-05
0.65    	0.3     	4.2966e-05
0.65    	0.35    	4.5117e-05
0.65    	0.4     	4.6206e-05
0.65    	0.45    	4.6649e-05
0.65    	0.5     	4.6806e-05
0.65    	0.55    	4.6871e-05
0.65    	0.6     	4.6915e-05
0.65    	0.65    	4.6948e-05
0.65    	0.7     	4.6968e-05
0.7     	0       	7.7151e-09
0.7     	0.05    	1.0537e-05
0.7     	0.1     	2.0348e-05
0.7     	0.15    	2.8847e-05
0.7     	0.2     	3.555e-05
0.7     	0.25    	4.0769e-05
0.7     	0.3     	4.4815e-05
0.7     	0.35    	4.7575e-05
0.7     	0.4     	4.9332e-05
0.7     	0.45    	5.0274e-05
0.7     	0.5     	5.0692e-05
0.7     	0.55    	5.0858e-05
0.7     	0.6     	5.0929e-05
0.7     	0.65    	5.0963e-05
0.7     	0.7     	5.0976e-05
