vg      	vd      	ids     
0       	0       	2.3978e-12
0       	0.05    	1.4755e-09
0       	0.1     	1.7061e-09
0       	0.15    	1.7495e-09
0       	0.2     	1.7646e-09
0       	0.25    	1.7746e-09
0       	0.3     	1.7831e-09
0       	0.35    	1.7908e-09
0       	0.4     	1.7979e-09
0       	0.45    	1.8044e-09
0       	0.5     	1.8104e-09
0       	0.55    	1.8161e-09
0       	0.6     	1.8214e-09
0       	0.65    	1.8264e-09
0       	0.7     	1.8312e-09
0.05    	0       	1.8049e-11
0.05    	0.05    	9.7595e-09
0.05    	0.1     	1.1305e-08
0.05    	0.15    	1.1602e-08
0.05    	0.2     	1.1705e-08
0.05    	0.25    	1.1773e-08
0.05    	0.3     	1.183e-08
0.05    	0.35    	1.1881e-08
0.05    	0.4     	1.1927e-08
0.05    	0.45    	1.1969e-08
0.05    	0.5     	1.2008e-08
0.05    	0.55    	1.2045e-08
0.05    	0.6     	1.2079e-08
0.05    	0.65    	1.2111e-08
0.05    	0.7     	1.2141e-08
0.1     	0       	1.2429e-10
0.1     	0.05    	6.0896e-08
0.1     	0.1     	7.1087e-08
0.1     	0.15    	7.3052e-08
0.1     	0.2     	7.3711e-08
0.1     	0.25    	7.4125e-08
0.1     	0.3     	7.4465e-08
0.1     	0.35    	7.4765e-08
0.1     	0.4     	7.5035e-08
0.1     	0.45    	7.528e-08
0.1     	0.5     	7.5506e-08
0.1     	0.55    	7.5714e-08
0.1     	0.6     	7.5909e-08
0.1     	0.65    	7.6091e-08
0.1     	0.7     	7.6263e-08
0.15    	0       	6.1086e-10
0.15    	0.05    	3.0815e-07
0.15    	0.1     	3.6974e-07
0.15    	0.15    	3.8157e-07
0.15    	0.2     	3.8502e-07
0.15    	0.25    	3.8692e-07
0.15    	0.3     	3.8838e-07
0.15    	0.35    	3.8964e-07
0.15    	0.4     	3.9074e-07
0.15    	0.45    	3.9174e-07
0.15    	0.5     	3.9264e-07
0.15    	0.55    	3.9346e-07
0.15    	0.6     	3.9422e-07
0.15    	0.65    	3.9493e-07
0.15    	0.7     	3.9558e-07
0.2     	0       	1.7054e-09
0.2     	0.05    	9.757e-07
0.2     	0.1     	1.2549e-06
0.2     	0.15    	1.3129e-06
0.2     	0.2     	1.3271e-06
0.2     	0.25    	1.3331e-06
0.2     	0.3     	1.3371e-06
0.2     	0.35    	1.3403e-06
0.2     	0.4     	1.3431e-06
0.2     	0.45    	1.3455e-06
0.2     	0.5     	1.3477e-06
0.2     	0.55    	1.3496e-06
0.2     	0.6     	1.3514e-06
0.2     	0.65    	1.353e-06
0.2     	0.7     	1.3545e-06
0.25    	0       	3.0686e-09
0.25    	0.05    	1.929e-06
0.25    	0.1     	2.7356e-06
0.25    	0.15    	2.9482e-06
0.25    	0.2     	2.9974e-06
0.25    	0.25    	3.0132e-06
0.25    	0.3     	3.0217e-06
0.25    	0.35    	3.0278e-06
0.25    	0.4     	3.0329e-06
0.25    	0.45    	3.0372e-06
0.25    	0.5     	3.0409e-06
0.25    	0.55    	3.0447e-06
0.25    	0.6     	3.0477e-06
0.25    	0.65    	3.0504e-06
0.25    	0.7     	3.0528e-06
0.3     	0       	4.4899e-09
0.3     	0.05    	2.8752e-06
0.3     	0.1     	4.4802e-06
0.3     	0.15    	5.0435e-06
0.3     	0.2     	5.1917e-06
0.3     	0.25    	5.2315e-06
0.3     	0.3     	5.248e-06
0.3     	0.35    	5.2583e-06
0.3     	0.4     	5.2662e-06
0.3     	0.45    	5.2735e-06
0.3     	0.5     	5.2791e-06
0.3     	0.55    	5.2839e-06
0.3     	0.6     	5.2881e-06
0.3     	0.65    	5.2919e-06
0.3     	0.7     	5.2953e-06
0.35    	0       	5.8831e-09
0.35    	0.05    	3.6822e-06
0.35    	0.1     	6.1792e-06
0.35    	0.15    	7.3314e-06
0.35    	0.2     	7.6984e-06
0.35    	0.25    	7.8005e-06
0.35    	0.3     	7.8333e-06
0.35    	0.35    	7.85e-06
0.35    	0.4     	7.8614e-06
0.35    	0.45    	7.8714e-06
0.35    	0.5     	7.879e-06
0.35    	0.55    	7.8853e-06
0.35    	0.6     	7.8909e-06
0.35    	0.65    	7.8958e-06
0.35    	0.7     	7.9002e-06
0.4     	0       	7.1793e-09
0.4     	0.05    	4.3332e-06
0.4     	0.1     	7.655e-06
0.4     	0.15    	9.5727e-06
0.4     	0.2     	1.034e-05
0.4     	0.25    	1.0578e-05
0.4     	0.3     	1.0652e-05
0.4     	0.35    	1.068e-05
0.4     	0.4     	1.0696e-05
0.4     	0.45    	1.0708e-05
0.4     	0.5     	1.0719e-05
0.4     	0.55    	1.0727e-05
0.4     	0.6     	1.0734e-05
0.4     	0.65    	1.074e-05
0.4     	0.7     	1.0746e-05
0.45    	0       	8.4402e-09
0.45    	0.05    	4.8532e-06
0.45    	0.1     	8.8579e-06
0.45    	0.15    	1.1579e-05
0.45    	0.2     	1.2933e-05
0.45    	0.25    	1.3452e-05
0.45    	0.3     	1.3601e-05
0.45    	0.35    	1.3657e-05
0.45    	0.4     	1.3682e-05
0.45    	0.45    	1.3698e-05
0.45    	0.5     	1.3711e-05
0.45    	0.55    	1.3721e-05
0.45    	0.6     	1.3729e-05
0.45    	0.65    	1.3736e-05
0.45    	0.7     	1.3742e-05
0.5     	0       	9.6481e-09
0.5     	0.05    	5.2741e-06
0.5     	0.1     	9.8521e-06
0.5     	0.15    	1.3257e-05
0.5     	0.2     	1.5302e-05
0.5     	0.25    	1.6273e-05
0.5     	0.3     	1.6604e-05
0.5     	0.35    	1.6709e-05
0.5     	0.4     	1.6754e-05
0.5     	0.45    	1.6777e-05
0.5     	0.5     	1.6792e-05
0.5     	0.55    	1.6805e-05
0.5     	0.6     	1.6815e-05
0.5     	0.65    	1.6823e-05
0.5     	0.7     	1.683e-05
0.55    	0       	1.0831e-08
0.55    	0.05    	5.6231e-06
0.55    	0.1     	1.0629e-05
0.55    	0.15    	1.4615e-05
0.55    	0.2     	1.7333e-05
0.55    	0.25    	1.8848e-05
0.55    	0.3     	1.9544e-05
0.55    	0.35    	1.978e-05
0.55    	0.4     	1.9865e-05
0.55    	0.45    	1.99e-05
0.55    	0.5     	1.992e-05
0.55    	0.55    	1.9936e-05
0.55    	0.6     	1.9947e-05
0.55    	0.65    	1.9957e-05
0.55    	0.7     	1.9965e-05
0.6     	0       	1.2003e-08
0.6     	0.05    	5.9198e-06
0.6     	0.1     	1.1267e-05
0.6     	0.15    	1.5705e-05
0.6     	0.2     	1.8859e-05
0.6     	0.25    	2.1094e-05
0.6     	0.3     	2.2274e-05
0.6     	0.35    	2.2771e-05
0.6     	0.4     	2.2945e-05
0.6     	0.45    	2.301e-05
0.6     	0.5     	2.3043e-05
0.6     	0.55    	2.3062e-05
0.6     	0.6     	2.3076e-05
0.6     	0.65    	2.3087e-05
0.6     	0.7     	2.3095e-05
0.65    	0       	1.3167e-08
0.65    	0.05    	6.1771e-06
0.65    	0.1     	1.1802e-05
0.65    	0.15    	1.6588e-05
0.65    	0.2     	2.0178e-05
0.65    	0.25    	2.2922e-05
0.65    	0.3     	2.4624e-05
0.65    	0.35    	2.5514e-05
0.65    	0.4     	2.5885e-05
0.65    	0.45    	2.6031e-05
0.65    	0.5     	2.6092e-05
0.65    	0.55    	2.6122e-05
0.65    	0.6     	2.6139e-05
0.65    	0.65    	2.6153e-05
0.65    	0.7     	2.6162e-05
0.7     	0       	1.4323e-08
0.7     	0.05    	6.402e-06
0.7     	0.1     	1.226e-05
0.7     	0.15    	1.7315e-05
0.7     	0.2     	2.1237e-05
0.7     	0.25    	2.4364e-05
0.7     	0.3     	2.6508e-05
0.7     	0.35    	2.7836e-05
0.7     	0.4     	2.8546e-05
0.7     	0.45    	2.8865e-05
0.7     	0.5     	2.8991e-05
0.7     	0.55    	2.9046e-05
0.7     	0.6     	2.9072e-05
0.7     	0.65    	2.909e-05
0.7     	0.7     	2.9102e-05
