vg      	vd      	ids     
0       	0       	3.5845e-10
0       	0.05    	2.2852e-07
0       	0.1     	3.3936e-07
0       	0.15    	4.2675e-07
0       	0.2     	5.182e-07
0       	0.25    	6.1595e-07
0       	0.3     	7.0477e-07
0       	0.35    	7.8902e-07
0       	0.4     	8.7702e-07
0       	0.45    	9.698e-07
0       	0.5     	1.067e-06
0       	0.55    	1.1685e-06
0       	0.6     	1.2739e-06
0       	0.65    	1.3826e-06
0       	0.7     	1.4915e-06
0.05    	0       	8.3358e-10
0.05    	0.05    	5.6126e-07
0.05    	0.1     	8.2348e-07
0.05    	0.15    	1.0146e-06
0.05    	0.2     	1.1873e-06
0.05    	0.25    	1.3317e-06
0.05    	0.3     	1.4706e-06
0.05    	0.35    	1.6129e-06
0.05    	0.4     	1.7592e-06
0.05    	0.45    	1.9092e-06
0.05    	0.5     	2.0617e-06
0.05    	0.55    	2.2247e-06
0.05    	0.6     	2.3679e-06
0.05    	0.65    	2.5025e-06
0.05    	0.7     	2.6272e-06
0.1     	0       	1.5928e-09
0.1     	0.05    	1.1518e-06
0.1     	0.1     	1.6829e-06
0.1     	0.15    	2.0079e-06
0.1     	0.2     	2.2382e-06
0.1     	0.25    	2.4447e-06
0.1     	0.3     	2.6651e-06
0.1     	0.35    	2.8712e-06
0.1     	0.4     	3.0759e-06
0.1     	0.45    	3.2724e-06
0.1     	0.5     	3.4546e-06
0.1     	0.55    	3.6353e-06
0.1     	0.6     	3.7889e-06
0.1     	0.65    	3.9364e-06
0.1     	0.7     	4.0815e-06
0.15    	0       	2.5779e-09
0.15    	0.05    	2.0048e-06
0.15    	0.1     	2.9257e-06
0.15    	0.15    	3.4007e-06
0.15    	0.2     	3.7104e-06
0.15    	0.25    	3.9878e-06
0.15    	0.3     	4.2523e-06
0.15    	0.35    	4.5226e-06
0.15    	0.4     	4.7528e-06
0.15    	0.45    	4.959e-06
0.15    	0.5     	5.1463e-06
0.15    	0.55    	5.3263e-06
0.15    	0.6     	5.5177e-06
0.15    	0.65    	5.6922e-06
0.15    	0.7     	5.8638e-06
0.2     	0       	3.685e-09
0.2     	0.05    	3.055e-06
0.2     	0.1     	4.4771e-06
0.2     	0.15    	5.1278e-06
0.2     	0.2     	5.5543e-06
0.2     	0.25    	5.8906e-06
0.2     	0.3     	6.1879e-06
0.2     	0.35    	6.4484e-06
0.2     	0.4     	6.6981e-06
0.2     	0.45    	6.9144e-06
0.2     	0.5     	7.1239e-06
0.2     	0.55    	7.3286e-06
0.2     	0.6     	7.5293e-06
0.2     	0.65    	7.7263e-06
0.2     	0.7     	7.9198e-06
0.25    	0       	4.8214e-09
0.25    	0.05    	4.2149e-06
0.25    	0.1     	6.2601e-06
0.25    	0.15    	7.1789e-06
0.25    	0.2     	7.6681e-06
0.25    	0.25    	8.0679e-06
0.25    	0.3     	8.3682e-06
0.25    	0.35    	8.6298e-06
0.25    	0.4     	8.8761e-06
0.25    	0.45    	9.1138e-06
0.25    	0.5     	9.3667e-06
0.25    	0.55    	9.5934e-06
0.25    	0.6     	9.8141e-06
0.25    	0.65    	1.003e-05
0.25    	0.7     	1.0241e-05
0.3     	0       	5.9282e-09
0.3     	0.05    	5.4051e-06
0.3     	0.1     	8.2535e-06
0.3     	0.15    	9.4249e-06
0.3     	0.2     	1.004e-05
0.3     	0.25    	1.0424e-05
0.3     	0.3     	1.0732e-05
0.3     	0.35    	1.1041e-05
0.3     	0.4     	1.1309e-05
0.3     	0.45    	1.1566e-05
0.3     	0.5     	1.1815e-05
0.3     	0.55    	1.2057e-05
0.3     	0.6     	1.2293e-05
0.3     	0.65    	1.2545e-05
0.3     	0.7     	1.2769e-05
0.35    	0       	6.9777e-09
0.35    	0.05    	6.5667e-06
0.35    	0.1     	1.0295e-05
0.35    	0.15    	1.1831e-05
0.35    	0.2     	1.2548e-05
0.35    	0.25    	1.2995e-05
0.35    	0.3     	1.3326e-05
0.35    	0.35    	1.3627e-05
0.35    	0.4     	1.3911e-05
0.35    	0.45    	1.4211e-05
0.35    	0.5     	1.4475e-05
0.35    	0.55    	1.473e-05
0.35    	0.6     	1.4976e-05
0.35    	0.65    	1.5213e-05
0.35    	0.7     	1.544e-05
0.4     	0       	7.9499e-09
0.4     	0.05    	7.6618e-06
0.4     	0.1     	1.229e-05
0.4     	0.15    	1.4349e-05
0.4     	0.2     	1.5243e-05
0.4     	0.25    	1.57e-05
0.4     	0.3     	1.6091e-05
0.4     	0.35    	1.6411e-05
0.4     	0.4     	1.6709e-05
0.4     	0.45    	1.6993e-05
0.4     	0.5     	1.7265e-05
0.4     	0.55    	1.7526e-05
0.4     	0.6     	1.7797e-05
0.4     	0.65    	1.8032e-05
0.4     	0.7     	1.8247e-05
0.45    	0       	8.7982e-09
0.45    	0.05    	8.6702e-06
0.45    	0.1     	1.4301e-05
0.45    	0.15    	1.6938e-05
0.45    	0.2     	1.8022e-05
0.45    	0.25    	1.8582e-05
0.45    	0.3     	1.8968e-05
0.45    	0.35    	1.9302e-05
0.45    	0.4     	1.9611e-05
0.45    	0.45    	1.993e-05
0.45    	0.5     	2.0205e-05
0.45    	0.55    	2.0459e-05
0.45    	0.6     	2.0693e-05
0.45    	0.65    	2.0908e-05
0.45    	0.7     	2.1124e-05
0.5     	0       	9.6432e-09
0.5     	0.05    	9.585e-06
0.5     	0.1     	1.6225e-05
0.5     	0.15    	1.9553e-05
0.5     	0.2     	2.0895e-05
0.5     	0.25    	2.1541e-05
0.5     	0.3     	2.1957e-05
0.5     	0.35    	2.2338e-05
0.5     	0.4     	2.2653e-05
0.5     	0.45    	2.2939e-05
0.5     	0.5     	2.3201e-05
0.5     	0.55    	2.3439e-05
0.5     	0.6     	2.3678e-05
0.5     	0.65    	2.3885e-05
0.5     	0.7     	2.4079e-05
0.55    	0       	1.0365e-08
0.55    	0.05    	1.0408e-05
0.55    	0.1     	1.8029e-05
0.55    	0.15    	2.2148e-05
0.55    	0.2     	2.3832e-05
0.55    	0.25    	2.4585e-05
0.55    	0.3     	2.5072e-05
0.55    	0.35    	2.543e-05
0.55    	0.4     	2.5739e-05
0.55    	0.45    	2.6039e-05
0.55    	0.5     	2.6289e-05
0.55    	0.55    	2.6516e-05
0.55    	0.6     	2.673e-05
0.55    	0.65    	2.6934e-05
0.55    	0.7     	2.7129e-05
0.6     	0       	1.1011e-08
0.6     	0.05    	1.1145e-05
0.6     	0.1     	1.9695e-05
0.6     	0.15    	2.4677e-05
0.6     	0.2     	2.6797e-05
0.6     	0.25    	2.7732e-05
0.6     	0.3     	2.822e-05
0.6     	0.35    	2.8612e-05
0.6     	0.4     	2.8916e-05
0.6     	0.45    	2.9182e-05
0.6     	0.5     	2.9424e-05
0.6     	0.55    	2.965e-05
0.6     	0.6     	2.9865e-05
0.6     	0.65    	3.0087e-05
0.6     	0.7     	3.0287e-05
0.65    	0       	1.1586e-08
0.65    	0.05    	1.1806e-05
0.65    	0.1     	2.1216e-05
0.65    	0.15    	2.7097e-05
0.65    	0.2     	2.9754e-05
0.65    	0.25    	3.0874e-05
0.65    	0.3     	3.145e-05
0.65    	0.35    	3.1823e-05
0.65    	0.4     	3.2125e-05
0.65    	0.45    	3.239e-05
0.65    	0.5     	3.2653e-05
0.65    	0.55    	3.2884e-05
0.65    	0.6     	3.31e-05
0.65    	0.65    	3.3306e-05
0.65    	0.7     	3.3504e-05
0.7     	0       	1.2098e-08
0.7     	0.05    	1.2399e-05
0.7     	0.1     	2.2596e-05
0.7     	0.15    	2.9375e-05
0.7     	0.2     	3.2666e-05
0.7     	0.25    	3.4037e-05
0.7     	0.3     	3.4689e-05
0.7     	0.35    	3.5085e-05
0.7     	0.4     	3.5418e-05
0.7     	0.45    	3.5689e-05
0.7     	0.5     	3.5933e-05
0.7     	0.55    	3.6161e-05
0.7     	0.6     	3.6379e-05
0.7     	0.65    	3.6586e-05
0.7     	0.7     	3.6802e-05
