vg      	vd      	ids     
0       	0       	1.3027e-13
0       	0.05    	4.1727e-11
0       	0.1     	4.7857e-11
0       	0.15    	4.8853e-11
0       	0.2     	4.9091e-11
0       	0.25    	4.921e-11
0       	0.3     	4.9305e-11
0       	0.35    	4.939e-11
0       	0.4     	4.947e-11
0       	0.45    	4.9544e-11
0       	0.5     	4.9614e-11
0       	0.55    	4.968e-11
0       	0.6     	4.9742e-11
0       	0.65    	4.9801e-11
0       	0.7     	4.9858e-11
0.05    	0       	8.764e-13
0.05    	0.05    	2.8532e-10
0.05    	0.1     	3.2775e-10
0.05    	0.15    	3.3466e-10
0.05    	0.2     	3.3635e-10
0.05    	0.25    	3.3721e-10
0.05    	0.3     	3.379e-10
0.05    	0.35    	3.3851e-10
0.05    	0.4     	3.3907e-10
0.05    	0.45    	3.396e-10
0.05    	0.5     	3.4009e-10
0.05    	0.55    	3.4055e-10
0.05    	0.6     	3.4098e-10
0.05    	0.65    	3.4139e-10
0.05    	0.7     	3.4178e-10
0.1     	0       	5.8119e-12
0.1     	0.05    	1.9472e-09
0.1     	0.1     	2.2381e-09
0.1     	0.15    	2.2864e-09
0.1     	0.2     	2.2985e-09
0.1     	0.25    	2.3048e-09
0.1     	0.3     	2.3097e-09
0.1     	0.35    	2.3141e-09
0.1     	0.4     	2.318e-09
0.1     	0.45    	2.3217e-09
0.1     	0.5     	2.3251e-09
0.1     	0.55    	2.3283e-09
0.1     	0.6     	2.3313e-09
0.1     	0.65    	2.3341e-09
0.1     	0.7     	2.3367e-09
0.15    	0       	3.7358e-11
0.15    	0.05    	1.2907e-08
0.15    	0.1     	1.4899e-08
0.15    	0.15    	1.5233e-08
0.15    	0.2     	1.5319e-08
0.15    	0.25    	1.5363e-08
0.15    	0.3     	1.5397e-08
0.15    	0.35    	1.5427e-08
0.15    	0.4     	1.5454e-08
0.15    	0.45    	1.5478e-08
0.15    	0.5     	1.5501e-08
0.15    	0.55    	1.5522e-08
0.15    	0.6     	1.5541e-08
0.15    	0.65    	1.556e-08
0.15    	0.7     	1.5577e-08
0.2     	0       	1.9817e-10
0.2     	0.05    	7.668e-08
0.2     	0.1     	8.9935e-08
0.2     	0.15    	9.2223e-08
0.2     	0.2     	9.279e-08
0.2     	0.25    	9.3065e-08
0.2     	0.3     	9.3269e-08
0.2     	0.35    	9.3442e-08
0.2     	0.4     	9.3595e-08
0.2     	0.45    	9.3732e-08
0.2     	0.5     	9.3857e-08
0.2     	0.55    	9.3971e-08
0.2     	0.6     	9.4077e-08
0.2     	0.65    	9.4176e-08
0.2     	0.7     	9.4268e-08
0.25    	0       	6.2858e-10
0.25    	0.05    	3.0701e-07
0.25    	0.1     	3.834e-07
0.25    	0.15    	3.9791e-07
0.25    	0.2     	4.0117e-07
0.25    	0.25    	4.0245e-07
0.25    	0.3     	4.0339e-07
0.25    	0.35    	4.0404e-07
0.25    	0.4     	4.046e-07
0.25    	0.45    	4.051e-07
0.25    	0.5     	4.0554e-07
0.25    	0.55    	4.0593e-07
0.25    	0.6     	4.063e-07
0.25    	0.65    	4.0663e-07
0.25    	0.7     	4.0694e-07
0.3     	0       	1.1073e-09
0.3     	0.05    	6.8027e-07
0.3     	0.1     	9.7204e-07
0.3     	0.15    	1.0461e-06
0.3     	0.2     	1.0629e-06
0.3     	0.25    	1.0675e-06
0.3     	0.3     	1.0697e-06
0.3     	0.35    	1.0713e-06
0.3     	0.4     	1.0726e-06
0.3     	0.45    	1.0738e-06
0.3     	0.5     	1.0748e-06
0.3     	0.55    	1.0756e-06
0.3     	0.6     	1.0764e-06
0.3     	0.65    	1.0771e-06
0.3     	0.7     	1.0777e-06
0.35    	0       	1.4444e-09
0.35    	0.05    	9.967e-07
0.35    	0.1     	1.6306e-06
0.35    	0.15    	1.8943e-06
0.35    	0.2     	1.9661e-06
0.35    	0.25    	1.9831e-06
0.35    	0.3     	1.9893e-06
0.35    	0.35    	1.9925e-06
0.35    	0.4     	1.9947e-06
0.35    	0.45    	1.9965e-06
0.35    	0.5     	1.9982e-06
0.35    	0.55    	1.9996e-06
0.35    	0.6     	2.0008e-06
0.35    	0.65    	2.0018e-06
0.35    	0.7     	2.0029e-06
0.4     	0       	1.6722e-09
0.4     	0.05    	1.2014e-06
0.4     	0.1     	2.1338e-06
0.4     	0.15    	2.6932e-06
0.4     	0.2     	2.933e-06
0.4     	0.25    	2.9992e-06
0.4     	0.3     	3.0167e-06
0.4     	0.35    	3.0238e-06
0.4     	0.4     	3.0276e-06
0.4     	0.45    	3.0302e-06
0.4     	0.5     	3.0326e-06
0.4     	0.55    	3.0344e-06
0.4     	0.6     	3.036e-06
0.4     	0.65    	3.0375e-06
0.4     	0.7     	3.0388e-06
0.45    	0       	1.8331e-09
0.45    	0.05    	1.3291e-06
0.45    	0.1     	2.4564e-06
0.45    	0.15    	3.2735e-06
0.45    	0.2     	3.7678e-06
0.45    	0.25    	3.9778e-06
0.45    	0.3     	4.0417e-06
0.45    	0.35    	4.0604e-06
0.45    	0.4     	4.0684e-06
0.45    	0.45    	4.0725e-06
0.45    	0.5     	4.0757e-06
0.45    	0.55    	4.078e-06
0.45    	0.6     	4.08e-06
0.45    	0.65    	4.0817e-06
0.45    	0.7     	4.0831e-06
0.5     	0       	1.9498e-09
0.5     	0.05    	1.4119e-06
0.5     	0.1     	2.6584e-06
0.5     	0.15    	3.6402e-06
0.5     	0.2     	4.3148e-06
0.5     	0.25    	4.7607e-06
0.5     	0.3     	4.9528e-06
0.5     	0.35    	5.0214e-06
0.5     	0.4     	5.0424e-06
0.5     	0.45    	5.0513e-06
0.5     	0.5     	5.0559e-06
0.5     	0.55    	5.0591e-06
0.5     	0.6     	5.0614e-06
0.5     	0.65    	5.0633e-06
0.5     	0.7     	5.065e-06
0.55    	0       	2.0184e-09
0.55    	0.05    	1.4624e-06
0.55    	0.1     	2.7836e-06
0.55    	0.15    	3.8643e-06
0.55    	0.2     	4.6595e-06
0.55    	0.25    	5.2411e-06
0.55    	0.3     	5.6167e-06
0.55    	0.35    	5.8e-06 
0.55    	0.4     	5.8804e-06
0.55    	0.45    	5.9075e-06
0.55    	0.5     	5.9181e-06
0.55    	0.55    	5.9237e-06
0.55    	0.6     	5.927e-06
0.55    	0.65    	5.9293e-06
0.55    	0.7     	5.9312e-06
0.6     	0       	2.0527e-09
0.6     	0.05    	1.4839e-06
0.6     	0.1     	2.8466e-06
0.6     	0.15    	3.9837e-06
0.6     	0.2     	4.8473e-06
0.6     	0.25    	5.5146e-06
0.6     	0.3     	5.9782e-06
0.6     	0.35    	6.2983e-06
0.6     	0.4     	6.4819e-06
0.6     	0.45    	6.5702e-06
0.6     	0.5     	6.6095e-06
0.6     	0.55    	6.6258e-06
0.6     	0.6     	6.6333e-06
0.6     	0.65    	6.6375e-06
0.6     	0.7     	6.64e-06
0.65    	0       	2.0798e-09
0.65    	0.05    	1.4952e-06
0.65    	0.1     	2.8753e-06
0.65    	0.15    	4.0502e-06
0.65    	0.2     	4.9535e-06
0.65    	0.25    	5.662e-06
0.65    	0.3     	6.174e-06
0.65    	0.35    	6.5562e-06
0.65    	0.4     	6.8015e-06
0.65    	0.45    	6.9681e-06
0.65    	0.5     	7.0613e-06
0.65    	0.55    	7.1108e-06
0.65    	0.6     	7.1346e-06
0.65    	0.65    	7.1453e-06
0.65    	0.7     	7.1501e-06
0.7     	0       	2.1027e-09
0.7     	0.05    	1.5045e-06
0.7     	0.1     	2.8955e-06
0.7     	0.15    	4.0874e-06
0.7     	0.2     	5.0225e-06
0.7     	0.25    	5.7637e-06
0.7     	0.3     	6.3041e-06
0.7     	0.35    	6.6994e-06
0.7     	0.4     	7.0002e-06
0.7     	0.45    	7.2005e-06
0.7     	0.5     	7.338e-06
0.7     	0.55    	7.424e-06
0.7     	0.6     	7.4709e-06
0.7     	0.65    	7.4912e-06
0.7     	0.7     	7.4993e-06
