vg      	vd      	ids     
0       	0       	2.9824e-12
0       	0.05    	8.3266e-09
0       	0.1     	9.9359e-09
0       	0.15    	1.0454e-08
0       	0.2     	1.0767e-08
0       	0.25    	1.1024e-08
0       	0.3     	1.1259e-08
0       	0.35    	1.1482e-08
0       	0.4     	1.1696e-08
0       	0.45    	1.1903e-08
0       	0.5     	1.2106e-08
0       	0.55    	1.2306e-08
0       	0.6     	1.2501e-08
0       	0.65    	1.2693e-08
0       	0.7     	1.2882e-08
0.05    	0       	2.4705e-11
0.05    	0.05    	4.9056e-08
0.05    	0.1     	5.8702e-08
0.05    	0.15    	6.1635e-08
0.05    	0.2     	6.3351e-08
0.05    	0.25    	6.4795e-08
0.05    	0.3     	6.6137e-08
0.05    	0.35    	6.7416e-08
0.05    	0.4     	6.8641e-08
0.05    	0.45    	6.9819e-08
0.05    	0.5     	7.0952e-08
0.05    	0.55    	7.204e-08
0.05    	0.6     	7.308e-08
0.05    	0.65    	7.4067e-08
0.05    	0.7     	7.4995e-08
0.1     	0       	1.2342e-10
0.1     	0.05    	2.5006e-07
0.1     	0.1     	3.0336e-07
0.1     	0.15    	3.1828e-07
0.1     	0.2     	3.2627e-07
0.1     	0.25    	3.3264e-07
0.1     	0.3     	3.3829e-07
0.1     	0.35    	3.4337e-07
0.1     	0.4     	3.4797e-07
0.1     	0.45    	3.5217e-07
0.1     	0.5     	3.5605e-07
0.1     	0.55    	3.597e-07
0.1     	0.6     	3.6318e-07
0.1     	0.65    	3.6652e-07
0.1     	0.7     	3.6974e-07
0.15    	0       	3.7875e-10
0.15    	0.05    	8.9214e-07
0.15    	0.1     	1.1238e-06
0.15    	0.15    	1.181e-06
0.15    	0.2     	1.2039e-06
0.15    	0.25    	1.2192e-06
0.15    	0.3     	1.2321e-06
0.15    	0.35    	1.2437e-06
0.15    	0.4     	1.2544e-06
0.15    	0.45    	1.2642e-06
0.15    	0.5     	1.2734e-06
0.15    	0.55    	1.282e-06
0.15    	0.6     	1.2901e-06
0.15    	0.65    	1.2977e-06
0.15    	0.7     	1.3049e-06
0.2     	0       	7.2378e-10
0.2     	0.05    	2.0489e-06
0.2     	0.1     	2.7436e-06
0.2     	0.15    	2.9193e-06
0.2     	0.2     	2.9716e-06
0.2     	0.25    	2.9987e-06
0.2     	0.3     	3.019e-06
0.2     	0.35    	3.0363e-06
0.2     	0.4     	3.0517e-06
0.2     	0.45    	3.0657e-06
0.2     	0.5     	3.0786e-06
0.2     	0.55    	3.0905e-06
0.2     	0.6     	3.1017e-06
0.2     	0.65    	3.1122e-06
0.2     	0.7     	3.1222e-06
0.25    	0       	1.0513e-09
0.25    	0.05    	3.4486e-06
0.25    	0.1     	4.9564e-06
0.25    	0.15    	5.3877e-06
0.25    	0.2     	5.5075e-06
0.25    	0.25    	5.5525e-06
0.25    	0.3     	5.5807e-06
0.25    	0.35    	5.6031e-06
0.25    	0.4     	5.6225e-06
0.25    	0.45    	5.6398e-06
0.25    	0.5     	5.6555e-06
0.25    	0.55    	5.6717e-06
0.25    	0.6     	5.6851e-06
0.25    	0.65    	5.6974e-06
0.25    	0.7     	5.7089e-06
0.3     	0       	1.3551e-09
0.3     	0.05    	4.8454e-06
0.3     	0.1     	7.4552e-06
0.3     	0.15    	8.3639e-06
0.3     	0.2     	8.608e-06
0.3     	0.25    	8.685e-06
0.3     	0.3     	8.7243e-06
0.3     	0.35    	8.7525e-06
0.3     	0.4     	8.7758e-06
0.3     	0.45    	8.7961e-06
0.3     	0.5     	8.8164e-06
0.3     	0.55    	8.833e-06
0.3     	0.6     	8.8478e-06
0.3     	0.65    	8.8615e-06
0.3     	0.7     	8.8743e-06
0.35    	0       	1.642e-09
0.35    	0.05    	6.11e-06
0.35    	0.1     	9.9805e-06
0.35    	0.15    	1.162e-05
0.35    	0.2     	1.2101e-05
0.35    	0.25    	1.2246e-05
0.35    	0.3     	1.2305e-05
0.35    	0.35    	1.2341e-05
0.35    	0.4     	1.2368e-05
0.35    	0.45    	1.2392e-05
0.35    	0.5     	1.2413e-05
0.35    	0.55    	1.2431e-05
0.35    	0.6     	1.2449e-05
0.35    	0.65    	1.2465e-05
0.35    	0.7     	1.2479e-05
0.4     	0       	1.9249e-09
0.4     	0.05    	7.1959e-06
0.4     	0.1     	1.2341e-05
0.4     	0.15    	1.4961e-05
0.4     	0.2     	1.5852e-05
0.4     	0.25    	1.6119e-05
0.4     	0.3     	1.6211e-05
0.4     	0.35    	1.6264e-05
0.4     	0.4     	1.6298e-05
0.4     	0.45    	1.6325e-05
0.4     	0.5     	1.6349e-05
0.4     	0.55    	1.6369e-05
0.4     	0.6     	1.6387e-05
0.4     	0.65    	1.6404e-05
0.4     	0.7     	1.6421e-05
0.45    	0       	2.1784e-09
0.45    	0.05    	8.1073e-06
0.45    	0.1     	1.4428e-05
0.45    	0.15    	1.8143e-05
0.45    	0.2     	1.9721e-05
0.45    	0.25    	2.0221e-05
0.45    	0.3     	2.0374e-05
0.45    	0.35    	2.0442e-05
0.45    	0.4     	2.0484e-05
0.45    	0.45    	2.0519e-05
0.45    	0.5     	2.0546e-05
0.45    	0.55    	2.0569e-05
0.45    	0.6     	2.0589e-05
0.45    	0.65    	2.0607e-05
0.45    	0.7     	2.0624e-05
0.5     	0       	2.4188e-09
0.5     	0.05    	8.8699e-06
0.5     	0.1     	1.6207e-05
0.5     	0.15    	2.1086e-05
0.5     	0.2     	2.3546e-05
0.5     	0.25    	2.4432e-05
0.5     	0.3     	2.4702e-05
0.5     	0.35    	2.4812e-05
0.5     	0.4     	2.4868e-05
0.5     	0.45    	2.4906e-05
0.5     	0.5     	2.4936e-05
0.5     	0.55    	2.4962e-05
0.5     	0.6     	2.4986e-05
0.5     	0.65    	2.5006e-05
0.5     	0.7     	2.5024e-05
0.55    	0       	2.6435e-09
0.55    	0.05    	9.5123e-06
0.55    	0.1     	1.7695e-05
0.55    	0.15    	2.3658e-05
0.55    	0.2     	2.7151e-05
0.55    	0.25    	2.8635e-05
0.55    	0.3     	2.9132e-05
0.55    	0.35    	2.9302e-05
0.55    	0.4     	2.9384e-05
0.55    	0.45    	2.9431e-05
0.55    	0.5     	2.9466e-05
0.55    	0.55    	2.9494e-05
0.55    	0.6     	2.9518e-05
0.55    	0.65    	2.9541e-05
0.55    	0.7     	2.9561e-05
0.6     	0       	2.8502e-09
0.6     	0.05    	1.0059e-05
0.6     	0.1     	1.8934e-05
0.6     	0.15    	2.5834e-05
0.6     	0.2     	3.0288e-05
0.6     	0.25    	3.2636e-05
0.6     	0.3     	3.3545e-05
0.6     	0.35    	3.3853e-05
0.6     	0.4     	3.3971e-05
0.6     	0.45    	3.4033e-05
0.6     	0.5     	3.4077e-05
0.6     	0.55    	3.411e-05
0.6     	0.6     	3.4137e-05
0.6     	0.65    	3.416e-05
0.6     	0.7     	3.4181e-05
0.65    	0       	3.026e-09
0.65    	0.05    	1.0527e-05
0.65    	0.1     	1.9968e-05
0.65    	0.15    	2.7639e-05
0.65    	0.2     	3.3039e-05
0.65    	0.25    	3.6318e-05
0.65    	0.3     	3.7818e-05
0.65    	0.35    	3.8366e-05
0.65    	0.4     	3.8571e-05
0.65    	0.45    	3.8661e-05
0.65    	0.5     	3.8712e-05
0.65    	0.55    	3.8752e-05
0.65    	0.6     	3.8782e-05
0.65    	0.65    	3.8806e-05
0.65    	0.7     	3.8828e-05
0.7     	0       	3.1375e-09
0.7     	0.05    	1.0916e-05
0.7     	0.1     	2.0818e-05
0.7     	0.15    	2.9107e-05
0.7     	0.2     	3.5304e-05
0.7     	0.25    	3.9497e-05
0.7     	0.3     	4.176e-05
0.7     	0.35    	4.2735e-05
0.7     	0.4     	4.3084e-05
0.7     	0.45    	4.3232e-05
0.7     	0.5     	4.3303e-05
0.7     	0.55    	4.3351e-05
0.7     	0.6     	4.3384e-05
0.7     	0.65    	4.3411e-05
0.7     	0.7     	4.3435e-05
