vg      	vd      	ids     
0       	0       	7.3583e-14
0       	0.05    	3.8372e-11
0       	0.1     	4.402e-11
0       	0.15    	4.4946e-11
0       	0.2     	4.5169e-11
0       	0.25    	4.528e-11
0       	0.3     	4.5369e-11
0       	0.35    	4.545e-11
0       	0.4     	4.5524e-11
0       	0.45    	4.5594e-11
0       	0.5     	4.5659e-11
0       	0.55    	4.5721e-11
0       	0.6     	4.5779e-11
0       	0.65    	4.5834e-11
0       	0.7     	4.5886e-11
0.05    	0       	5.3795e-13
0.05    	0.05    	2.6094e-10
0.05    	0.1     	3.0006e-10
0.05    	0.15    	3.0642e-10
0.05    	0.2     	3.0799e-10
0.05    	0.25    	3.0879e-10
0.05    	0.3     	3.0943e-10
0.05    	0.35    	3.1e-10 
0.05    	0.4     	3.1052e-10
0.05    	0.45    	3.1101e-10
0.05    	0.5     	3.1146e-10
0.05    	0.55    	3.1189e-10
0.05    	0.6     	3.1229e-10
0.05    	0.65    	3.1267e-10
0.05    	0.7     	3.1303e-10
0.1     	0       	4.5205e-12
0.1     	0.05    	1.7778e-09
0.1     	0.1     	2.0443e-09
0.1     	0.15    	2.0888e-09
0.1     	0.2     	2.0999e-09
0.1     	0.25    	2.1057e-09
0.1     	0.3     	2.1102e-09
0.1     	0.35    	2.1143e-09
0.1     	0.4     	2.1179e-09
0.1     	0.45    	2.1213e-09
0.1     	0.5     	2.1245e-09
0.1     	0.55    	2.1274e-09
0.1     	0.6     	2.1302e-09
0.1     	0.65    	2.1328e-09
0.1     	0.7     	2.1352e-09
0.15    	0       	3.5165e-11
0.15    	0.05    	1.1795e-08
0.15    	0.1     	1.3615e-08
0.15    	0.15    	1.3921e-08
0.15    	0.2     	1.3999e-08
0.15    	0.25    	1.404e-08
0.15    	0.3     	1.4071e-08
0.15    	0.35    	1.4098e-08
0.15    	0.4     	1.4123e-08
0.15    	0.45    	1.4146e-08
0.15    	0.5     	1.4167e-08
0.15    	0.55    	1.4186e-08
0.15    	0.6     	1.4204e-08
0.15    	0.65    	1.4221e-08
0.15    	0.7     	1.4237e-08
0.2     	0       	2.2559e-10
0.2     	0.05    	7.2355e-08
0.2     	0.1     	8.449e-08
0.2     	0.15    	8.6576e-08
0.2     	0.2     	8.7097e-08
0.2     	0.25    	8.7352e-08
0.2     	0.3     	8.7544e-08
0.2     	0.35    	8.7708e-08
0.2     	0.4     	8.7853e-08
0.2     	0.45    	8.7983e-08
0.2     	0.5     	8.8103e-08
0.2     	0.55    	8.8212e-08
0.2     	0.6     	8.8314e-08
0.2     	0.65    	8.8408e-08
0.2     	0.7     	8.8497e-08
0.25    	0       	9.2971e-10
0.25    	0.05    	3.2479e-07
0.25    	0.1     	3.9765e-07
0.25    	0.15    	4.1096e-07
0.25    	0.2     	4.1396e-07
0.25    	0.25    	4.1517e-07
0.25    	0.3     	4.1598e-07
0.25    	0.35    	4.1664e-07
0.25    	0.4     	4.1721e-07
0.25    	0.45    	4.1771e-07
0.25    	0.5     	4.1816e-07
0.25    	0.55    	4.1857e-07
0.25    	0.6     	4.1894e-07
0.25    	0.65    	4.1929e-07
0.25    	0.7     	4.1961e-07
0.3     	0       	2.0753e-09
0.3     	0.05    	8.373e-07
0.3     	0.1     	1.1461e-06
0.3     	0.15    	1.2171e-06
0.3     	0.2     	1.2322e-06
0.3     	0.25    	1.2368e-06
0.3     	0.3     	1.2391e-06
0.3     	0.35    	1.2409e-06
0.3     	0.4     	1.2423e-06
0.3     	0.45    	1.2435e-06
0.3     	0.5     	1.2447e-06
0.3     	0.55    	1.2456e-06
0.3     	0.6     	1.2465e-06
0.3     	0.65    	1.2472e-06
0.3     	0.7     	1.2479e-06
0.35    	0       	3.2105e-09
0.35    	0.05    	1.3712e-06
0.35    	0.1     	2.148e-06
0.35    	0.15    	2.4153e-06
0.35    	0.2     	2.4848e-06
0.35    	0.25    	2.5016e-06
0.35    	0.3     	2.5077e-06
0.35    	0.35    	2.5112e-06
0.35    	0.4     	2.5142e-06
0.35    	0.45    	2.5163e-06
0.35    	0.5     	2.5181e-06
0.35    	0.55    	2.5197e-06
0.35    	0.6     	2.5211e-06
0.35    	0.65    	2.5225e-06
0.35    	0.7     	2.5236e-06
0.4     	0       	4.2374e-09
0.4     	0.05    	1.7818e-06
0.4     	0.1     	3.075e-06
0.4     	0.15    	3.7262e-06
0.4     	0.2     	3.9633e-06
0.4     	0.25    	4.0276e-06
0.4     	0.3     	4.0453e-06
0.4     	0.35    	4.0533e-06
0.4     	0.4     	4.0576e-06
0.4     	0.45    	4.0609e-06
0.4     	0.5     	4.0635e-06
0.4     	0.55    	4.066e-06
0.4     	0.6     	4.0679e-06
0.4     	0.65    	4.0696e-06
0.4     	0.7     	4.0712e-06
0.45    	0       	5.1796e-09
0.45    	0.05    	2.0837e-06
0.45    	0.1     	3.7853e-06
0.45    	0.15    	4.9103e-06
0.45    	0.2     	5.4491e-06
0.45    	0.25    	5.6561e-06
0.45    	0.3     	5.7117e-06
0.45    	0.35    	5.7308e-06
0.45    	0.4     	5.7388e-06
0.45    	0.45    	5.7438e-06
0.45    	0.5     	5.7478e-06
0.45    	0.55    	5.7508e-06
0.45    	0.6     	5.7532e-06
0.45    	0.65    	5.7556e-06
0.45    	0.7     	5.7575e-06
0.5     	0       	6.0629e-09
0.5     	0.05    	2.3118e-06
0.5     	0.1     	4.3033e-06
0.5     	0.15    	5.8155e-06
0.5     	0.2     	6.7396e-06
0.5     	0.25    	7.2204e-06
0.5     	0.3     	7.3905e-06
0.5     	0.35    	7.4456e-06
0.5     	0.4     	7.4641e-06
0.5     	0.45    	7.4734e-06
0.5     	0.5     	7.4787e-06
0.5     	0.55    	7.4829e-06
0.5     	0.6     	7.486e-06
0.5     	0.65    	7.4885e-06
0.5     	0.7     	7.4909e-06
0.55    	0       	6.9057e-09
0.55    	0.05    	2.4904e-06
0.55    	0.1     	4.6914e-06
0.55    	0.15    	6.4824e-06
0.55    	0.2     	7.7445e-06
0.55    	0.25    	8.5249e-06
0.55    	0.3     	8.9452e-06
0.55    	0.35    	9.1084e-06
0.55    	0.4     	9.1628e-06
0.55    	0.45    	9.1826e-06
0.55    	0.5     	9.1927e-06
0.55    	0.55    	9.1983e-06
0.55    	0.6     	9.2026e-06
0.55    	0.65    	9.2057e-06
0.55    	0.7     	9.2083e-06
0.6     	0       	7.7213e-09
0.6     	0.05    	2.6341e-06
0.6     	0.1     	4.9951e-06
0.6     	0.15    	6.9825e-06
0.6     	0.2     	8.491e-06
0.6     	0.25    	9.5374e-06
0.6     	0.3     	1.0228e-05
0.6     	0.35    	1.0589e-05
0.6     	0.4     	1.0746e-05
0.6     	0.45    	1.0805e-05
0.6     	0.5     	1.083e-05
0.6     	0.55    	1.0841e-05
0.6     	0.6     	1.0847e-05
0.6     	0.65    	1.0852e-05
0.6     	0.7     	1.0855e-05
0.65    	0       	8.4937e-09
0.65    	0.05    	2.7588e-06
0.65    	0.1     	5.2435e-06
0.65    	0.15    	7.3747e-06
0.65    	0.2     	9.0522e-06
0.65    	0.25    	1.0286e-05
0.65    	0.3     	1.1188e-05
0.65    	0.35    	1.1759e-05
0.65    	0.4     	1.2084e-05
0.65    	0.45    	1.2247e-05
0.65    	0.5     	1.2321e-05
0.65    	0.55    	1.2353e-05
0.65    	0.6     	1.2368e-05
0.65    	0.65    	1.2376e-05
0.65    	0.7     	1.2381e-05
0.7     	0       	9.2788e-09
0.7     	0.05    	2.8556e-06
0.7     	0.1     	5.4518e-06
0.7     	0.15    	7.6938e-06
0.7     	0.2     	9.4899e-06
0.7     	0.25    	1.085e-05
0.7     	0.3     	1.189e-05
0.7     	0.35    	1.261e-05
0.7     	0.4     	1.3085e-05
0.7     	0.45    	1.3381e-05
0.7     	0.5     	1.3553e-05
0.7     	0.55    	1.3646e-05
0.7     	0.6     	1.3691e-05
0.7     	0.65    	1.3712e-05
0.7     	0.7     	1.372e-05
