vg      	vd      	ids     
0       	0       	1.7314e-13
0       	0.05    	4.656e-11
0       	0.1     	5.4009e-11
0       	0.15    	5.5683e-11
0       	0.2     	5.6459e-11
0       	0.25    	5.7062e-11
0       	0.3     	5.7605e-11
0       	0.35    	5.8109e-11
0       	0.4     	5.8579e-11
0       	0.45    	5.9023e-11
0       	0.5     	5.9443e-11
0       	0.55    	5.9843e-11
0       	0.6     	6.0228e-11
0       	0.65    	6.0598e-11
0       	0.7     	6.0956e-11
0.05    	0       	1.0265e-12
0.05    	0.05    	3.0797e-10
0.05    	0.1     	3.5813e-10
0.05    	0.15    	3.6943e-10
0.05    	0.2     	3.7466e-10
0.05    	0.25    	3.7869e-10
0.05    	0.3     	3.8229e-10
0.05    	0.35    	3.8563e-10
0.05    	0.4     	3.8874e-10
0.05    	0.45    	3.9167e-10
0.05    	0.5     	3.9445e-10
0.05    	0.55    	3.9709e-10
0.05    	0.6     	3.9962e-10
0.05    	0.65    	4.0206e-10
0.05    	0.7     	4.0441e-10
0.1     	0       	6.569e-12
0.1     	0.05    	2.0179e-09
0.1     	0.1     	2.3502e-09
0.1     	0.15    	2.4262e-09
0.1     	0.2     	2.461e-09
0.1     	0.25    	2.4874e-09
0.1     	0.3     	2.5109e-09
0.1     	0.35    	2.5325e-09
0.1     	0.4     	2.5527e-09
0.1     	0.45    	2.5716e-09
0.1     	0.5     	2.5895e-09
0.1     	0.55    	2.6065e-09
0.1     	0.6     	2.6227e-09
0.1     	0.65    	2.6382e-09
0.1     	0.7     	2.653e-09
0.15    	0       	3.9627e-11
0.15    	0.05    	1.2748e-08
0.15    	0.1     	1.4919e-08
0.15    	0.15    	1.5411e-08
0.15    	0.2     	1.5631e-08
0.15    	0.25    	1.5794e-08
0.15    	0.3     	1.5936e-08
0.15    	0.35    	1.6066e-08
0.15    	0.4     	1.6186e-08
0.15    	0.45    	1.6298e-08
0.15    	0.5     	1.6403e-08
0.15    	0.55    	1.6501e-08
0.15    	0.6     	1.6594e-08
0.15    	0.65    	1.6682e-08
0.15    	0.7     	1.6765e-08
0.2     	0       	1.8769e-10
0.2     	0.05    	7.0466e-08
0.2     	0.1     	8.3844e-08
0.2     	0.15    	8.6751e-08
0.2     	0.2     	8.7901e-08
0.2     	0.25    	8.8692e-08
0.2     	0.3     	8.9361e-08
0.2     	0.35    	8.9955e-08
0.2     	0.4     	9.0495e-08
0.2     	0.45    	9.0992e-08
0.2     	0.5     	9.1453e-08
0.2     	0.55    	9.1882e-08
0.2     	0.6     	9.2287e-08
0.2     	0.65    	9.2669e-08
0.2     	0.7     	9.3027e-08
0.25    	0       	5.3906e-10
0.25    	0.05    	2.6483e-07
0.25    	0.1     	3.3096e-07
0.25    	0.15    	3.4492e-07
0.25    	0.2     	3.4922e-07
0.25    	0.25    	3.5163e-07
0.25    	0.3     	3.5352e-07
0.25    	0.35    	3.5514e-07
0.25    	0.4     	3.5658e-07
0.25    	0.45    	3.5788e-07
0.25    	0.5     	3.5907e-07
0.25    	0.55    	3.6017e-07
0.25    	0.6     	3.6119e-07
0.25    	0.65    	3.6215e-07
0.25    	0.7     	3.6304e-07
0.3     	0       	1.0389e-09
0.3     	0.05    	5.9794e-07
0.3     	0.1     	8.1277e-07
0.3     	0.15    	8.6302e-07
0.3     	0.2     	8.7608e-07
0.3     	0.25    	8.8166e-07
0.3     	0.3     	8.8537e-07
0.3     	0.35    	8.8837e-07
0.3     	0.4     	8.9094e-07
0.3     	0.45    	8.9321e-07
0.3     	0.5     	8.9524e-07
0.3     	0.55    	8.9739e-07
0.3     	0.6     	8.9909e-07
0.3     	0.65    	9.0063e-07
0.3     	0.7     	9.0206e-07
0.35    	0       	1.4581e-09
0.35    	0.05    	9.5128e-07
0.35    	0.1     	1.421e-06
0.35    	0.15    	1.5605e-06
0.35    	0.2     	1.5953e-06
0.35    	0.25    	1.607e-06
0.35    	0.3     	1.6133e-06
0.35    	0.35    	1.6185e-06
0.35    	0.4     	1.6223e-06
0.35    	0.45    	1.6255e-06
0.35    	0.5     	1.6283e-06
0.35    	0.55    	1.6308e-06
0.35    	0.6     	1.6331e-06
0.35    	0.65    	1.6352e-06
0.35    	0.7     	1.6371e-06
0.4     	0       	1.797e-09
0.4     	0.05    	1.2547e-06
0.4     	0.1     	2.0358e-06
0.4     	0.15    	2.3344e-06
0.4     	0.2     	2.4196e-06
0.4     	0.25    	2.4437e-06
0.4     	0.3     	2.4541e-06
0.4     	0.35    	2.4616e-06
0.4     	0.4     	2.4667e-06
0.4     	0.45    	2.471e-06
0.4     	0.5     	2.4746e-06
0.4     	0.55    	2.4778e-06
0.4     	0.6     	2.4807e-06
0.4     	0.65    	2.4833e-06
0.4     	0.7     	2.4856e-06
0.45    	0       	2.0721e-09
0.45    	0.05    	1.4986e-06
0.45    	0.1     	2.579e-06
0.45    	0.15    	3.1121e-06
0.45    	0.2     	3.289e-06
0.45    	0.25    	3.3414e-06
0.45    	0.3     	3.3593e-06
0.45    	0.35    	3.3688e-06
0.45    	0.4     	3.3755e-06
0.45    	0.45    	3.3815e-06
0.45    	0.5     	3.3862e-06
0.45    	0.55    	3.3901e-06
0.45    	0.6     	3.3935e-06
0.45    	0.65    	3.3966e-06
0.45    	0.7     	3.3994e-06
0.5     	0       	2.2984e-09
0.5     	0.05    	1.6937e-06
0.5     	0.1     	3.0361e-06
0.5     	0.15    	3.8392e-06
0.5     	0.2     	4.1616e-06
0.5     	0.25    	4.2687e-06
0.5     	0.3     	4.3001e-06
0.5     	0.35    	4.314e-06
0.5     	0.4     	4.3228e-06
0.5     	0.45    	4.3294e-06
0.5     	0.5     	4.3354e-06
0.5     	0.55    	4.3402e-06
0.5     	0.6     	4.3442e-06
0.5     	0.65    	4.3477e-06
0.5     	0.7     	4.3509e-06
0.55    	0       	2.4879e-09
0.55    	0.05    	1.8525e-06
0.55    	0.1     	3.4078e-06
0.55    	0.15    	4.4791e-06
0.55    	0.2     	4.9968e-06
0.55    	0.25    	5.1951e-06
0.55    	0.3     	5.2558e-06
0.55    	0.35    	5.2778e-06
0.55    	0.4     	5.2894e-06
0.55    	0.45    	5.2975e-06
0.55    	0.5     	5.3039e-06
0.55    	0.55    	5.3098e-06
0.55    	0.6     	5.3145e-06
0.55    	0.65    	5.3185e-06
0.55    	0.7     	5.322e-06
0.6     	0       	2.6494e-09
0.6     	0.05    	1.9868e-06
0.6     	0.1     	3.7066e-06
0.6     	0.15    	5.0156e-06
0.6     	0.2     	5.757e-06
0.6     	0.25    	6.0929e-06
0.6     	0.3     	6.2049e-06
0.6     	0.35    	6.2425e-06
0.6     	0.4     	6.2606e-06
0.6     	0.45    	6.271e-06
0.6     	0.5     	6.2786e-06
0.6     	0.55    	6.2847e-06
0.6     	0.6     	6.2903e-06
0.6     	0.65    	6.2949e-06
0.6     	0.7     	6.2988e-06
0.65    	0       	2.7893e-09
0.65    	0.05    	2.0977e-06
0.65    	0.1     	3.9489e-06
0.65    	0.15    	5.4348e-06
0.65    	0.2     	6.4168e-06
0.65    	0.25    	6.9158e-06
0.65    	0.3     	7.1279e-06
0.65    	0.35    	7.1984e-06
0.65    	0.4     	7.2248e-06
0.65    	0.45    	7.2395e-06
0.65    	0.5     	7.2488e-06
0.65    	0.55    	7.2558e-06
0.65    	0.6     	7.2615e-06
0.65    	0.65    	7.2668e-06
0.65    	0.7     	7.2711e-06
0.7     	0       	2.9122e-09
0.7     	0.05    	2.1811e-06
0.7     	0.1     	4.1476e-06
0.7     	0.15    	5.7806e-06
0.7     	0.2     	6.9667e-06
0.7     	0.25    	7.6541e-06
0.7     	0.3     	7.9996e-06
0.7     	0.35    	8.1267e-06
0.7     	0.4     	8.1742e-06
0.7     	0.45    	8.1943e-06
0.7     	0.5     	8.2067e-06
0.7     	0.55    	8.215e-06
0.7     	0.6     	8.2215e-06
0.7     	0.65    	8.2272e-06
0.7     	0.7     	8.2319e-06
