vg      	vd      	ids     
0       	0       	-4.5815e-14
0       	0.05    	3.126e-11
0       	0.1     	3.5933e-11
0       	0.15    	3.6685e-11
0       	0.2     	3.6857e-11
0       	0.25    	3.6939e-11
0       	0.3     	3.7004e-11
0       	0.35    	3.7062e-11
0       	0.4     	3.7115e-11
0       	0.45    	3.7166e-11
0       	0.5     	3.7213e-11
0       	0.55    	3.7258e-11
0       	0.6     	3.7301e-11
0       	0.65    	3.7342e-11
0       	0.7     	3.7381e-11
0.05    	0       	-4.5978e-13
0.05    	0.05    	2.1234e-10
0.05    	0.1     	2.4422e-10
0.05    	0.15    	2.4939e-10
0.05    	0.2     	2.506e-10
0.05    	0.25    	2.5118e-10
0.05    	0.3     	2.5164e-10
0.05    	0.35    	2.5205e-10
0.05    	0.4     	2.5243e-10
0.05    	0.45    	2.5278e-10
0.05    	0.5     	2.5311e-10
0.05    	0.55    	2.5342e-10
0.05    	0.6     	2.5372e-10
0.05    	0.65    	2.54e-10
0.05    	0.7     	2.5426e-10
0.1     	0       	-4.3119e-12
0.1     	0.05    	1.445e-09
0.1     	0.1     	1.6621e-09
0.1     	0.15    	1.6977e-09
0.1     	0.2     	1.7062e-09
0.1     	0.25    	1.7104e-09
0.1     	0.3     	1.7136e-09
0.1     	0.35    	1.7166e-09
0.1     	0.4     	1.7192e-09
0.1     	0.45    	1.7217e-09
0.1     	0.5     	1.7239e-09
0.1     	0.55    	1.7261e-09
0.1     	0.6     	1.7281e-09
0.1     	0.65    	1.73e-09
0.1     	0.7     	1.7318e-09
0.15    	0       	-2.0422e-11
0.15    	0.05    	9.5302e-09
0.15    	0.1     	1.1012e-08
0.15    	0.15    	1.1257e-08
0.15    	0.2     	1.1316e-08
0.15    	0.25    	1.1345e-08
0.15    	0.3     	1.1368e-08
0.15    	0.35    	1.1388e-08
0.15    	0.4     	1.1406e-08
0.15    	0.45    	1.1422e-08
0.15    	0.5     	1.1437e-08
0.15    	0.55    	1.1451e-08
0.15    	0.6     	1.1464e-08
0.15    	0.65    	1.1477e-08
0.15    	0.7     	1.1488e-08
0.2     	0       	-8.3302e-11
0.2     	0.05    	5.8732e-08
0.2     	0.1     	6.8533e-08
0.2     	0.15    	7.0196e-08
0.2     	0.2     	7.0597e-08
0.2     	0.25    	7.0785e-08
0.2     	0.3     	7.0926e-08
0.2     	0.35    	7.1046e-08
0.2     	0.4     	7.1154e-08
0.2     	0.45    	7.1252e-08
0.2     	0.5     	7.1342e-08
0.2     	0.55    	7.1424e-08
0.2     	0.6     	7.15e-08
0.2     	0.65    	7.1571e-08
0.2     	0.7     	7.1638e-08
0.25    	0       	-1.9398e-10
0.25    	0.05    	2.7669e-07
0.25    	0.1     	3.3582e-07
0.25    	0.15    	3.4646e-07
0.25    	0.2     	3.4884e-07
0.25    	0.25    	3.4979e-07
0.25    	0.3     	3.5044e-07
0.25    	0.35    	3.5097e-07
0.25    	0.4     	3.5143e-07
0.25    	0.45    	3.5184e-07
0.25    	0.5     	3.5221e-07
0.25    	0.55    	3.5255e-07
0.25    	0.6     	3.5286e-07
0.25    	0.65    	3.5315e-07
0.25    	0.7     	3.5341e-07
0.3     	0       	-2.825e-10
0.3     	0.05    	7.7027e-07
0.3     	0.1     	1.0296e-06
0.3     	0.15    	1.0857e-06
0.3     	0.2     	1.0975e-06
0.3     	0.25    	1.1012e-06
0.3     	0.3     	1.1032e-06
0.3     	0.35    	1.1047e-06
0.3     	0.4     	1.106e-06
0.3     	0.45    	1.107e-06
0.3     	0.5     	1.108e-06
0.3     	0.55    	1.1089e-06
0.3     	0.6     	1.1097e-06
0.3     	0.65    	1.1104e-06
0.3     	0.7     	1.111e-06
0.35    	0       	-3.201e-10
0.35    	0.05    	1.3374e-06
0.35    	0.1     	2.0331e-06
0.35    	0.15    	2.2459e-06
0.35    	0.2     	2.296e-06
0.35    	0.25    	2.309e-06
0.35    	0.3     	2.3148e-06
0.35    	0.35    	2.318e-06
0.35    	0.4     	2.3204e-06
0.35    	0.45    	2.3224e-06
0.35    	0.5     	2.3242e-06
0.35    	0.55    	2.3257e-06
0.35    	0.6     	2.3273e-06
0.35    	0.65    	2.3286e-06
0.35    	0.7     	2.3297e-06
0.4     	0       	-3.262e-10
0.4     	0.05    	1.7924e-06
0.4     	0.1     	3.0174e-06
0.4     	0.15    	3.5865e-06
0.4     	0.2     	3.7538e-06
0.4     	0.25    	3.7963e-06
0.4     	0.3     	3.8102e-06
0.4     	0.35    	3.8162e-06
0.4     	0.4     	3.8201e-06
0.4     	0.45    	3.8232e-06
0.4     	0.5     	3.8261e-06
0.4     	0.55    	3.8284e-06
0.4     	0.6     	3.8303e-06
0.4     	0.65    	3.8321e-06
0.4     	0.7     	3.8337e-06
0.45    	0       	-3.1235e-10
0.45    	0.05    	2.1281e-06
0.45    	0.1     	3.806e-06
0.45    	0.15    	4.852e-06
0.45    	0.2     	5.2774e-06
0.45    	0.25    	5.4113e-06
0.45    	0.3     	5.4495e-06
0.45    	0.35    	5.4619e-06
0.45    	0.4     	5.4683e-06
0.45    	0.45    	5.4727e-06
0.45    	0.5     	5.4766e-06
0.45    	0.55    	5.4796e-06
0.45    	0.6     	5.4821e-06
0.45    	0.65    	5.4846e-06
0.45    	0.7     	5.4866e-06
0.5     	0       	-2.8825e-10
0.5     	0.05    	2.3671e-06
0.5     	0.1     	4.3766e-06
0.5     	0.15    	5.8664e-06
0.5     	0.2     	6.6736e-06
0.5     	0.25    	7.0144e-06
0.5     	0.3     	7.1239e-06
0.5     	0.35    	7.1569e-06
0.5     	0.4     	7.1687e-06
0.5     	0.45    	7.1758e-06
0.5     	0.5     	7.1804e-06
0.5     	0.55    	7.184e-06
0.5     	0.6     	7.1873e-06
0.5     	0.65    	7.19e-06
0.5     	0.7     	7.1924e-06
0.55    	0       	-2.7155e-10
0.55    	0.05    	2.5462e-06
0.55    	0.1     	4.8027e-06
0.55    	0.15    	6.5969e-06
0.55    	0.2     	7.8124e-06
0.55    	0.25    	8.4431e-06
0.55    	0.3     	8.7297e-06
0.55    	0.35    	8.8173e-06
0.55    	0.4     	8.8447e-06
0.55    	0.45    	8.8568e-06
0.55    	0.5     	8.8632e-06
0.55    	0.55    	8.8681e-06
0.55    	0.6     	8.8717e-06
0.55    	0.65    	8.8747e-06
0.55    	0.7     	8.8776e-06
0.6     	0       	-2.7099e-10
0.6     	0.05    	2.6719e-06
0.6     	0.1     	5.0858e-06
0.6     	0.15    	7.0996e-06
0.6     	0.2     	8.6114e-06
0.6     	0.25    	9.5503e-06
0.6     	0.3     	1.0115e-05
0.6     	0.35    	1.0347e-05
0.6     	0.4     	1.0424e-05
0.6     	0.45    	1.045e-05
0.6     	0.5     	1.0461e-05
0.6     	0.55    	1.0467e-05
0.6     	0.6     	1.0471e-05
0.6     	0.65    	1.0475e-05
0.6     	0.7     	1.0478e-05
0.65    	0       	-2.7845e-10
0.65    	0.05    	2.7392e-06
0.65    	0.1     	5.2629e-06
0.65    	0.15    	7.4354e-06
0.65    	0.2     	9.1419e-06
0.65    	0.25    	1.0306e-05
0.65    	0.3     	1.1142e-05
0.65    	0.35    	1.1605e-05
0.65    	0.4     	1.181e-05
0.65    	0.45    	1.1883e-05
0.65    	0.5     	1.191e-05
0.65    	0.55    	1.1921e-05
0.65    	0.6     	1.1927e-05
0.65    	0.65    	1.1931e-05
0.65    	0.7     	1.1935e-05
0.7     	0       	-2.6789e-10
0.7     	0.05    	2.7389e-06
0.7     	0.1     	5.3167e-06
0.7     	0.15    	7.5858e-06
0.7     	0.2     	9.4348e-06
0.7     	0.25    	1.0828e-05
0.7     	0.3     	1.1797e-05
0.7     	0.35    	1.2477e-05
0.7     	0.4     	1.2889e-05
0.7     	0.45    	1.3077e-05
0.7     	0.5     	1.3151e-05
0.7     	0.55    	1.3179e-05
0.7     	0.6     	1.3192e-05
0.7     	0.65    	1.3198e-05
0.7     	0.7     	1.3202e-05
