vg      	vd      	ids     
0       	0       	7.2239e-14
0       	0.05    	1.6918e-09
0       	0.1     	1.9499e-09
0       	0.15    	1.9955e-09
0       	0.2     	2.0091e-09
0       	0.25    	2.0173e-09
0       	0.3     	2.0241e-09
0       	0.35    	2.0302e-09
0       	0.4     	2.0358e-09
0       	0.45    	2.041e-09
0       	0.5     	2.0459e-09
0       	0.55    	2.0504e-09
0       	0.6     	2.0547e-09
0       	0.65    	2.0588e-09
0       	0.7     	2.0626e-09
0.05    	0       	-1.5669e-13
0.05    	0.05    	1.129e-08
0.05    	0.1     	1.3042e-08
0.05    	0.15    	1.3357e-08
0.05    	0.2     	1.3453e-08
0.05    	0.25    	1.351e-08
0.05    	0.3     	1.3557e-08
0.05    	0.35    	1.3598e-08
0.05    	0.4     	1.3636e-08
0.05    	0.45    	1.367e-08
0.05    	0.5     	1.3702e-08
0.05    	0.55    	1.3732e-08
0.05    	0.6     	1.376e-08
0.05    	0.65    	1.3786e-08
0.05    	0.7     	1.3811e-08
0.1     	0       	-1.0479e-12
0.1     	0.05    	6.9782e-08
0.1     	0.1     	8.1429e-08
0.1     	0.15    	8.3557e-08
0.1     	0.2     	8.4186e-08
0.1     	0.25    	8.4545e-08
0.1     	0.3     	8.4831e-08
0.1     	0.35    	8.5078e-08
0.1     	0.4     	8.53e-08
0.1     	0.45    	8.55e-08
0.1     	0.5     	8.5684e-08
0.1     	0.55    	8.5853e-08
0.1     	0.6     	8.6011e-08
0.1     	0.65    	8.6158e-08
0.1     	0.7     	8.6296e-08
0.15    	0       	-5.2533e-13
0.15    	0.05    	3.2363e-07
0.15    	0.1     	3.9291e-07
0.15    	0.15    	4.0603e-07
0.15    	0.2     	4.0966e-07
0.15    	0.25    	4.1135e-07
0.15    	0.3     	4.1247e-07
0.15    	0.35    	4.1363e-07
0.15    	0.4     	4.1453e-07
0.15    	0.45    	4.1533e-07
0.15    	0.5     	4.1597e-07
0.15    	0.55    	4.1664e-07
0.15    	0.6     	4.1732e-07
0.15    	0.65    	4.1781e-07
0.15    	0.7     	4.1833e-07
0.2     	0       	4.4178e-12
0.2     	0.05    	8.8024e-07
0.2     	0.1     	1.1713e-06
0.2     	0.15    	1.2345e-06
0.2     	0.2     	1.2493e-06
0.2     	0.25    	1.2551e-06
0.2     	0.3     	1.2586e-06
0.2     	0.35    	1.2618e-06
0.2     	0.4     	1.2641e-06
0.2     	0.45    	1.2661e-06
0.2     	0.5     	1.2679e-06
0.2     	0.55    	1.2695e-06
0.2     	0.6     	1.2709e-06
0.2     	0.65    	1.2722e-06
0.2     	0.7     	1.2734e-06
0.25    	0       	5.5491e-11
0.25    	0.05    	1.5337e-06
0.25    	0.1     	2.2841e-06
0.25    	0.15    	2.5098e-06
0.25    	0.2     	2.5638e-06
0.25    	0.25    	2.5791e-06
0.25    	0.3     	2.5867e-06
0.25    	0.35    	2.592e-06
0.25    	0.4     	2.5962e-06
0.25    	0.45    	2.5998e-06
0.25    	0.5     	2.6029e-06
0.25    	0.55    	2.606e-06
0.25    	0.6     	2.6085e-06
0.25    	0.65    	2.6107e-06
0.25    	0.7     	2.6127e-06
0.3     	0       	9.966e-11
0.3     	0.05    	2.0926e-06
0.3     	0.1     	3.4262e-06
0.3     	0.15    	4.0014e-06
0.3     	0.2     	4.1589e-06
0.3     	0.25    	4.1996e-06
0.3     	0.3     	4.215e-06
0.3     	0.35    	4.224e-06
0.3     	0.4     	4.2314e-06
0.3     	0.45    	4.2368e-06
0.3     	0.5     	4.2413e-06
0.3     	0.55    	4.2452e-06
0.3     	0.6     	4.2487e-06
0.3     	0.65    	4.2521e-06
0.3     	0.7     	4.255e-06
0.35    	0       	1.4348e-10
0.35    	0.05    	2.5154e-06
0.35    	0.1     	4.3951e-06
0.35    	0.15    	5.4683e-06
0.35    	0.2     	5.8594e-06
0.35    	0.25    	5.9723e-06
0.35    	0.3     	6.0076e-06
0.35    	0.35    	6.0225e-06
0.35    	0.4     	6.0321e-06
0.35    	0.45    	6.0394e-06
0.35    	0.5     	6.046e-06
0.35    	0.55    	6.0511e-06
0.35    	0.6     	6.0556e-06
0.35    	0.65    	6.0595e-06
0.35    	0.7     	6.0633e-06
0.4     	0       	1.842e-10
0.4     	0.05    	2.823e-06
0.4     	0.1     	5.1343e-06
0.4     	0.15    	6.6779e-06
0.4     	0.2     	7.4945e-06
0.4     	0.25    	7.7812e-06
0.4     	0.3     	7.863e-06
0.4     	0.35    	7.8909e-06
0.4     	0.4     	7.9054e-06
0.4     	0.45    	7.9161e-06
0.4     	0.5     	7.9238e-06
0.4     	0.55    	7.9301e-06
0.4     	0.6     	7.9359e-06
0.4     	0.65    	7.9407e-06
0.4     	0.7     	7.9448e-06
0.45    	0       	2.2152e-10
0.45    	0.05    	3.0469e-06
0.45    	0.1     	5.6734e-06
0.45    	0.15    	7.6263e-06
0.45    	0.2     	8.8924e-06
0.45    	0.25    	9.4855e-06
0.45    	0.3     	9.6934e-06
0.45    	0.35    	9.7549e-06
0.45    	0.4     	9.7813e-06
0.45    	0.45    	9.7953e-06
0.45    	0.5     	9.8056e-06
0.45    	0.55    	9.8133e-06
0.45    	0.6     	9.8195e-06
0.45    	0.65    	9.8252e-06
0.45    	0.7     	9.83e-06
0.5     	0       	2.5589e-10
0.5     	0.05    	3.213e-06
0.5     	0.1     	6.0654e-06
0.5     	0.15    	8.3162e-06
0.5     	0.2     	9.9613e-06
0.5     	0.25    	1.0929e-05
0.5     	0.3     	1.138e-05
0.5     	0.35    	1.1544e-05
0.5     	0.4     	1.1599e-05
0.5     	0.45    	1.1621e-05
0.5     	0.5     	1.1635e-05
0.5     	0.55    	1.1644e-05
0.5     	0.6     	1.1651e-05
0.5     	0.65    	1.1658e-05
0.5     	0.7     	1.1663e-05
0.55    	0       	2.8605e-10
0.55    	0.05    	3.3369e-06
0.55    	0.1     	6.3511e-06
0.55    	0.15    	8.8089e-06
0.55    	0.2     	1.072e-05
0.55    	0.25    	1.2008e-05
0.55    	0.3     	1.2767e-05
0.55    	0.35    	1.3147e-05
0.55    	0.4     	1.3284e-05
0.55    	0.45    	1.3331e-05
0.55    	0.5     	1.3354e-05
0.55    	0.55    	1.3367e-05
0.55    	0.6     	1.3376e-05
0.55    	0.65    	1.3383e-05
0.55    	0.7     	1.3388e-05
0.6     	0       	3.1177e-10
0.6     	0.05    	3.4256e-06
0.6     	0.1     	6.5585e-06
0.6     	0.15    	9.1569e-06
0.6     	0.2     	1.1241e-05
0.6     	0.25    	1.2743e-05
0.6     	0.3     	1.3754e-05
0.6     	0.35    	1.4398e-05
0.6     	0.4     	1.4719e-05
0.6     	0.45    	1.4848e-05
0.6     	0.5     	1.4898e-05
0.6     	0.55    	1.4919e-05
0.6     	0.6     	1.4932e-05
0.6     	0.65    	1.494e-05
0.6     	0.7     	1.4947e-05
0.65    	0       	3.383e-10
0.65    	0.05    	3.4905e-06
0.65    	0.1     	6.7063e-06
0.65    	0.15    	9.4095e-06
0.65    	0.2     	1.1603e-05
0.65    	0.25    	1.3234e-05
0.65    	0.3     	1.44e-05
0.65    	0.35    	1.5243e-05
0.65    	0.4     	1.5771e-05
0.65    	0.45    	1.6063e-05
0.65    	0.5     	1.6196e-05
0.65    	0.55    	1.6253e-05
0.65    	0.6     	1.6278e-05
0.65    	0.65    	1.6292e-05
0.65    	0.7     	1.63e-05
0.7     	0       	3.6714e-10
0.7     	0.05    	3.5363e-06
0.7     	0.1     	6.8041e-06
0.7     	0.15    	9.5718e-06
0.7     	0.2     	1.1847e-05
0.7     	0.25    	1.3555e-05
0.7     	0.3     	1.4808e-05
0.7     	0.35    	1.5719e-05
0.7     	0.4     	1.6402e-05
0.7     	0.45    	1.6857e-05
0.7     	0.5     	1.7137e-05
0.7     	0.55    	1.7285e-05
0.7     	0.6     	1.7358e-05
0.7     	0.65    	1.7392e-05
0.7     	0.7     	1.7409e-05
