vg      	vd      	ids     
0       	0       	-8.4731e-12
0       	0.05    	1.4949e-09
0       	0.1     	1.8209e-09
0       	0.15    	1.9532e-09
0       	0.2     	2.0536e-09
0       	0.25    	2.1449e-09
0       	0.3     	2.2234e-09
0       	0.35    	2.2878e-09
0       	0.4     	2.3453e-09
0       	0.45    	2.3995e-09
0       	0.5     	2.4519e-09
0       	0.55    	2.5031e-09
0       	0.6     	2.5536e-09
0       	0.65    	2.6036e-09
0       	0.7     	2.6536e-09
0.05    	0       	-3.7262e-11
0.05    	0.05    	8.5099e-09
0.05    	0.1     	1.0406e-08
0.05    	0.15    	1.1174e-08
0.05    	0.2     	1.1716e-08
0.05    	0.25    	1.2139e-08
0.05    	0.3     	1.2493e-08
0.05    	0.35    	1.282e-08
0.05    	0.4     	1.3134e-08
0.05    	0.45    	1.344e-08
0.05    	0.5     	1.3738e-08
0.05    	0.55    	1.403e-08
0.05    	0.6     	1.4317e-08
0.05    	0.65    	1.46e-08
0.05    	0.7     	1.4882e-08
0.1     	0       	-1.6978e-10
0.1     	0.05    	4.641e-08
0.1     	0.1     	5.707e-08
0.1     	0.15    	6.0967e-08
0.1     	0.2     	6.3238e-08
0.1     	0.25    	6.5093e-08
0.1     	0.3     	6.6835e-08
0.1     	0.35    	6.8529e-08
0.1     	0.4     	7.019e-08
0.1     	0.45    	7.1817e-08
0.1     	0.5     	7.341e-08
0.1     	0.55    	7.4968e-08
0.1     	0.6     	7.6493e-08
0.1     	0.65    	7.7993e-08
0.1     	0.7     	7.9474e-08
0.15    	0       	-6.7129e-10
0.15    	0.05    	2.2036e-07
0.15    	0.1     	2.7307e-07
0.15    	0.15    	2.8925e-07
0.15    	0.2     	2.9855e-07
0.15    	0.25    	3.0641e-07
0.15    	0.3     	3.1385e-07
0.15    	0.35    	3.2109e-07
0.15    	0.4     	3.2815e-07
0.15    	0.45    	3.3505e-07
0.15    	0.5     	3.4172e-07
0.15    	0.55    	3.4814e-07
0.15    	0.6     	3.5425e-07
0.15    	0.65    	3.5999e-07
0.15    	0.7     	3.6529e-07
0.2     	0       	-1.7672e-09
0.2     	0.05    	7.5287e-07
0.2     	0.1     	9.6527e-07
0.2     	0.15    	1.0256e-06
0.2     	0.2     	1.0543e-06
0.2     	0.25    	1.0757e-06
0.2     	0.3     	1.0939e-06
0.2     	0.35    	1.1099e-06
0.2     	0.4     	1.1239e-06
0.2     	0.45    	1.1363e-06
0.2     	0.5     	1.1477e-06
0.2     	0.55    	1.1583e-06
0.2     	0.6     	1.1682e-06
0.2     	0.65    	1.1776e-06
0.2     	0.7     	1.1867e-06
0.25    	0       	-2.8917e-09
0.25    	0.05    	1.708e-06
0.25    	0.1     	2.3265e-06
0.25    	0.15    	2.4929e-06
0.25    	0.2     	2.5496e-06
0.25    	0.25    	2.5812e-06
0.25    	0.3     	2.6056e-06
0.25    	0.35    	2.627e-06
0.25    	0.4     	2.6468e-06
0.25    	0.45    	2.6655e-06
0.25    	0.5     	2.6832e-06
0.25    	0.55    	2.7e-06 
0.25    	0.6     	2.7161e-06
0.25    	0.65    	2.7314e-06
0.25    	0.7     	2.7461e-06
0.3     	0       	-3.5003e-09
0.3     	0.05    	2.8705e-06
0.3     	0.1     	4.1858e-06
0.3     	0.15    	4.5677e-06
0.3     	0.2     	4.6789e-06
0.3     	0.25    	4.7282e-06
0.3     	0.3     	4.7616e-06
0.3     	0.35    	4.7933e-06
0.3     	0.4     	4.8183e-06
0.3     	0.45    	4.8411e-06
0.3     	0.5     	4.8622e-06
0.3     	0.55    	4.882e-06
0.3     	0.6     	4.9004e-06
0.3     	0.65    	4.9176e-06
0.3     	0.7     	4.9336e-06
0.35    	0       	-3.5937e-09
0.35    	0.05    	4.0466e-06
0.35    	0.1     	6.2935e-06
0.35    	0.15    	7.0533e-06
0.35    	0.2     	7.2743e-06
0.35    	0.25    	7.351e-06
0.35    	0.3     	7.3932e-06
0.35    	0.35    	7.4248e-06
0.35    	0.4     	7.4518e-06
0.35    	0.45    	7.4759e-06
0.35    	0.5     	7.5009e-06
0.35    	0.55    	7.5213e-06
0.35    	0.6     	7.5399e-06
0.35    	0.65    	7.5571e-06
0.35    	0.7     	7.5732e-06
0.4     	0       	-3.2627e-09
0.4     	0.05    	5.1483e-06
0.4     	0.1     	8.4543e-06
0.4     	0.15    	9.7843e-06
0.4     	0.2     	1.0186e-05
0.4     	0.25    	1.0318e-05
0.4     	0.3     	1.0374e-05
0.4     	0.35    	1.041e-05
0.4     	0.4     	1.0439e-05
0.4     	0.45    	1.0465e-05
0.4     	0.5     	1.0487e-05
0.4     	0.55    	1.0509e-05
0.4     	0.6     	1.0528e-05
0.4     	0.65    	1.0546e-05
0.4     	0.7     	1.0563e-05
0.45    	0       	-2.7811e-09
0.45    	0.05    	6.1459e-06
0.45    	0.1     	1.0536e-05
0.45    	0.15    	1.2628e-05
0.45    	0.2     	1.3317e-05
0.45    	0.25    	1.3535e-05
0.45    	0.3     	1.3616e-05
0.45    	0.35    	1.366e-05
0.45    	0.4     	1.3693e-05
0.45    	0.45    	1.372e-05
0.45    	0.5     	1.375e-05
0.45    	0.55    	1.377e-05
0.45    	0.6     	1.3792e-05
0.45    	0.65    	1.3809e-05
0.45    	0.7     	1.3828e-05
0.5     	0       	-2.2434e-09
0.5     	0.05    	7.0494e-06
0.5     	0.1     	1.2453e-05
0.5     	0.15    	1.5443e-05
0.5     	0.2     	1.6582e-05
0.5     	0.25    	1.6942e-05
0.5     	0.3     	1.7061e-05
0.5     	0.35    	1.7146e-05
0.5     	0.4     	1.7174e-05
0.5     	0.45    	1.7192e-05
0.5     	0.5     	1.7233e-05
0.5     	0.55    	1.7251e-05
0.5     	0.6     	1.7261e-05
0.5     	0.65    	1.7292e-05
0.5     	0.7     	1.7306e-05
0.55    	0       	-2.0087e-09
0.55    	0.05    	7.8604e-06
0.55    	0.1     	1.4114e-05
0.55    	0.15    	1.8164e-05
0.55    	0.2     	1.9919e-05
0.55    	0.25    	2.0482e-05
0.55    	0.3     	2.0705e-05
0.55    	0.35    	2.0778e-05
0.55    	0.4     	2.0813e-05
0.55    	0.45    	2.0851e-05
0.55    	0.5     	2.0863e-05
0.55    	0.55    	2.0893e-05
0.55    	0.6     	2.0917e-05
0.55    	0.65    	2.0923e-05
0.55    	0.7     	2.0946e-05
0.6     	0       	-1.7227e-09
0.6     	0.05    	8.5341e-06
0.6     	0.1     	1.5641e-05
0.6     	0.15    	2.0577e-05
0.6     	0.2     	2.3125e-05
0.6     	0.25    	2.4127e-05
0.6     	0.3     	2.4412e-05
0.6     	0.35    	2.4535e-05
0.6     	0.4     	2.4596e-05
0.6     	0.45    	2.4631e-05
0.6     	0.5     	2.4658e-05
0.6     	0.55    	2.468e-05
0.6     	0.6     	2.47e-05
0.6     	0.65    	2.4718e-05
0.6     	0.7     	2.4734e-05
0.65    	0       	-1.4643e-09
0.65    	0.05    	9.1275e-06
0.65    	0.1     	1.696e-05
0.65    	0.15    	2.2784e-05
0.65    	0.2     	2.624e-05
0.65    	0.25    	2.7733e-05
0.65    	0.3     	2.8251e-05
0.65    	0.35    	2.8439e-05
0.65    	0.4     	2.8505e-05
0.65    	0.45    	2.854e-05
0.65    	0.5     	2.858e-05
0.65    	0.55    	2.8611e-05
0.65    	0.6     	2.8594e-05
0.65    	0.65    	2.8622e-05
0.65    	0.7     	2.8632e-05
0.7     	0       	-1.1635e-09
0.7     	0.05    	9.6474e-06
0.7     	0.1     	1.81e-05
0.7     	0.15    	2.4723e-05
0.7     	0.2     	2.9067e-05
0.7     	0.25    	3.1246e-05
0.7     	0.3     	3.2108e-05
0.7     	0.35    	3.2384e-05
0.7     	0.4     	3.2483e-05
0.7     	0.45    	3.2533e-05
0.7     	0.5     	3.2563e-05
0.7     	0.55    	3.2584e-05
0.7     	0.6     	3.2625e-05
0.7     	0.65    	3.2658e-05
0.7     	0.7     	3.266e-05
