vg      	vd      	ids     
0       	0       	3.2524e-13
0       	0.05    	3.2412e-11
0       	0.1     	3.7058e-11
0       	0.15    	3.777e-11
0       	0.2     	3.7903e-11
0       	0.25    	3.7948e-11
0       	0.3     	3.7978e-11
0       	0.35    	3.8004e-11
0       	0.4     	3.8028e-11
0       	0.45    	3.805e-11
0       	0.5     	3.8071e-11
0       	0.55    	3.809e-11
0       	0.6     	3.8108e-11
0       	0.65    	3.8125e-11
0       	0.7     	3.8141e-11
0.05    	0       	2.2313e-12
0.05    	0.05    	2.2195e-10
0.05    	0.1     	2.5441e-10
0.05    	0.15    	2.5931e-10
0.05    	0.2     	2.6026e-10
0.05    	0.25    	2.6059e-10
0.05    	0.3     	2.6082e-10
0.05    	0.35    	2.6102e-10
0.05    	0.4     	2.6119e-10
0.05    	0.45    	2.6136e-10
0.05    	0.5     	2.6151e-10
0.05    	0.55    	2.6165e-10
0.05    	0.6     	2.6178e-10
0.05    	0.65    	2.619e-10
0.05    	0.7     	2.6202e-10
0.1     	0       	1.55e-11
0.1     	0.05    	1.5092e-09
0.1     	0.1     	1.7317e-09
0.1     	0.15    	1.7663e-09
0.1     	0.2     	1.773e-09
0.1     	0.25    	1.7755e-09
0.1     	0.3     	1.7772e-09
0.1     	0.35    	1.7787e-09
0.1     	0.4     	1.78e-09
0.1     	0.45    	1.7812e-09
0.1     	0.5     	1.7823e-09
0.1     	0.55    	1.7833e-09
0.1     	0.6     	1.7843e-09
0.1     	0.65    	1.7852e-09
0.1     	0.7     	1.786e-09
0.15    	0       	1.0663e-10
0.15    	0.05    	1.0206e-08
0.15    	0.1     	1.1736e-08
0.15    	0.15    	1.1976e-08
0.15    	0.2     	1.2025e-08
0.15    	0.25    	1.2044e-08
0.15    	0.3     	1.2057e-08
0.15    	0.35    	1.2068e-08
0.15    	0.4     	1.2078e-08
0.15    	0.45    	1.2087e-08
0.15    	0.5     	1.2095e-08
0.15    	0.55    	1.2102e-08
0.15    	0.6     	1.2109e-08
0.15    	0.65    	1.2115e-08
0.15    	0.7     	1.2121e-08
0.2     	0       	6.4105e-10
0.2     	0.05    	6.3855e-08
0.2     	0.1     	7.4174e-08
0.2     	0.15    	7.5835e-08
0.2     	0.2     	7.6184e-08
0.2     	0.25    	7.632e-08
0.2     	0.3     	7.6412e-08
0.2     	0.35    	7.6488e-08
0.2     	0.4     	7.6555e-08
0.2     	0.45    	7.6614e-08
0.2     	0.5     	7.6667e-08
0.2     	0.55    	7.6716e-08
0.2     	0.6     	7.6761e-08
0.2     	0.65    	7.6803e-08
0.2     	0.7     	7.6842e-08
0.25    	0       	2.5692e-09
0.25    	0.05    	3.0048e-07
0.25    	0.1     	3.6442e-07
0.25    	0.15    	3.756e-07
0.25    	0.2     	3.7789e-07
0.25    	0.25    	3.7869e-07
0.25    	0.3     	3.7918e-07
0.25    	0.35    	3.7957e-07
0.25    	0.4     	3.799e-07
0.25    	0.45    	3.8019e-07
0.25    	0.5     	3.8045e-07
0.25    	0.55    	3.8068e-07
0.25    	0.6     	3.8089e-07
0.25    	0.65    	3.8109e-07
0.25    	0.7     	3.8127e-07
0.3     	0       	5.569e-09
0.3     	0.05    	8.1792e-07
0.3     	0.1     	1.1049e-06
0.3     	0.15    	1.1683e-06
0.3     	0.2     	1.1811e-06
0.3     	0.25    	1.1847e-06
0.3     	0.3     	1.1864e-06
0.3     	0.35    	1.1877e-06
0.3     	0.4     	1.1887e-06
0.3     	0.45    	1.1895e-06
0.3     	0.5     	1.1903e-06
0.3     	0.55    	1.1909e-06
0.3     	0.6     	1.1916e-06
0.3     	0.65    	1.1921e-06
0.3     	0.7     	1.1926e-06
0.35    	0       	8.1366e-09
0.35    	0.05    	1.3808e-06
0.35    	0.1     	2.1424e-06
0.35    	0.15    	2.3962e-06
0.35    	0.2     	2.46e-06
0.35    	0.25    	2.4745e-06
0.35    	0.3     	2.4795e-06
0.35    	0.35    	2.4823e-06
0.35    	0.4     	2.4843e-06
0.35    	0.45    	2.4862e-06
0.35    	0.5     	2.4876e-06
0.35    	0.55    	2.4888e-06
0.35    	0.6     	2.4898e-06
0.35    	0.65    	2.4908e-06
0.35    	0.7     	2.4918e-06
0.4     	0       	1.0073e-08
0.4     	0.05    	1.8124e-06
0.4     	0.1     	3.1171e-06
0.4     	0.15    	3.7766e-06
0.4     	0.2     	3.9968e-06
0.4     	0.25    	4.0571e-06
0.4     	0.3     	4.0728e-06
0.4     	0.35    	4.0789e-06
0.4     	0.4     	4.0829e-06
0.4     	0.45    	4.0855e-06
0.4     	0.5     	4.0876e-06
0.4     	0.55    	4.0894e-06
0.4     	0.6     	4.0912e-06
0.4     	0.65    	4.0926e-06
0.4     	0.7     	4.0938e-06
0.45    	0       	1.1579e-08
0.45    	0.05    	2.1203e-06
0.45    	0.1     	3.8515e-06
0.45    	0.15    	4.9989e-06
0.45    	0.2     	5.5465e-06
0.45    	0.25    	5.7488e-06
0.45    	0.3     	5.8068e-06
0.45    	0.35    	5.8234e-06
0.45    	0.4     	5.8309e-06
0.45    	0.45    	5.835e-06
0.45    	0.5     	5.838e-06
0.45    	0.55    	5.8407e-06
0.45    	0.6     	5.8427e-06
0.45    	0.65    	5.8445e-06
0.45    	0.7     	5.8462e-06
0.5     	0       	1.28e-08
0.5     	0.05    	2.3434e-06
0.5     	0.1     	4.3657e-06
0.5     	0.15    	5.9147e-06
0.5     	0.2     	6.871e-06
0.5     	0.25    	7.3709e-06
0.5     	0.3     	7.5456e-06
0.5     	0.35    	7.5997e-06
0.5     	0.4     	7.6168e-06
0.5     	0.45    	7.6248e-06
0.5     	0.5     	7.6292e-06
0.5     	0.55    	7.6324e-06
0.5     	0.6     	7.6351e-06
0.5     	0.65    	7.6373e-06
0.5     	0.7     	7.6391e-06
0.55    	0       	1.3823e-08
0.55    	0.05    	2.509e-06
0.55    	0.1     	4.7312e-06
0.55    	0.15    	6.5547e-06
0.55    	0.2     	7.8561e-06
0.55    	0.25    	8.6744e-06
0.55    	0.3     	9.1213e-06
0.55    	0.35    	9.2932e-06
0.55    	0.4     	9.3478e-06
0.55    	0.45    	9.3664e-06
0.55    	0.5     	9.3752e-06
0.55    	0.55    	9.38e-06
0.55    	0.6     	9.3835e-06
0.55    	0.65    	9.3861e-06
0.55    	0.7     	9.3882e-06
0.6     	0       	1.468e-08
0.6     	0.05    	2.6329e-06
0.6     	0.1     	5.0004e-06
0.6     	0.15    	7.0052e-06
0.6     	0.2     	8.542e-06
0.6     	0.25    	9.6256e-06
0.6     	0.3     	1.0359e-05
0.6     	0.35    	1.0748e-05
0.6     	0.4     	1.0917e-05
0.6     	0.45    	1.0977e-05
0.6     	0.5     	1.1e-05 
0.6     	0.55    	1.101e-05
0.6     	0.6     	1.1016e-05
0.6     	0.65    	1.1019e-05
0.6     	0.7     	1.1022e-05
0.65    	0       	1.5439e-08
0.65    	0.05    	2.734e-06
0.65    	0.1     	5.2051e-06
0.65    	0.15    	7.334e-06
0.65    	0.2     	9.0206e-06
0.65    	0.25    	1.0277e-05
0.65    	0.3     	1.1216e-05
0.65    	0.35    	1.1825e-05
0.65    	0.4     	1.2178e-05
0.65    	0.45    	1.2359e-05
0.65    	0.5     	1.243e-05
0.65    	0.55    	1.246e-05
0.65    	0.6     	1.2473e-05
0.65    	0.65    	1.248e-05
0.65    	0.7     	1.2484e-05
0.7     	0       	1.6074e-08
0.7     	0.05    	2.803e-06
0.7     	0.1     	5.3616e-06
0.7     	0.15    	7.5813e-06
0.7     	0.2     	9.3711e-06
0.7     	0.25    	1.0733e-05
0.7     	0.3     	1.1795e-05
0.7     	0.35    	1.2545e-05
0.7     	0.4     	1.3053e-05
0.7     	0.45    	1.3376e-05
0.7     	0.5     	1.3568e-05
0.7     	0.55    	1.3663e-05
0.7     	0.6     	1.3707e-05
0.7     	0.65    	1.3728e-05
0.7     	0.7     	1.3739e-05
