vg      	vd      	ids     
0       	0       	4.0014e-15
0       	0.05    	3.3984e-11
0       	0.1     	3.8971e-11
0       	0.15    	3.9725e-11
0       	0.2     	3.9862e-11
0       	0.25    	3.9907e-11
0       	0.3     	3.9936e-11
0       	0.35    	3.9961e-11
0       	0.4     	3.9984e-11
0       	0.45    	4.0005e-11
0       	0.5     	4.0024e-11
0       	0.55    	4.0043e-11
0       	0.6     	4.006e-11
0       	0.65    	4.0076e-11
0       	0.7     	4.0092e-11
0.05    	0       	-1.4214e-14
0.05    	0.05    	2.3538e-10
0.05    	0.1     	2.6964e-10
0.05    	0.15    	2.7487e-10
0.05    	0.2     	2.7585e-10
0.05    	0.25    	2.7618e-10
0.05    	0.3     	2.764e-10
0.05    	0.35    	2.7659e-10
0.05    	0.4     	2.7676e-10
0.05    	0.45    	2.7692e-10
0.05    	0.5     	2.7706e-10
0.05    	0.55    	2.772e-10
0.05    	0.6     	2.7732e-10
0.05    	0.65    	2.7744e-10
0.05    	0.7     	2.7756e-10
0.1     	0       	-4.5818e-16
0.1     	0.05    	1.6104e-09
0.1     	0.1     	1.8485e-09
0.1     	0.15    	1.8848e-09
0.1     	0.2     	1.8917e-09
0.1     	0.25    	1.8942e-09
0.1     	0.3     	1.8959e-09
0.1     	0.35    	1.8973e-09
0.1     	0.4     	1.8986e-09
0.1     	0.45    	1.8998e-09
0.1     	0.5     	1.9008e-09
0.1     	0.55    	1.9018e-09
0.1     	0.6     	1.9028e-09
0.1     	0.65    	1.9036e-09
0.1     	0.7     	1.9044e-09
0.15    	0       	-8.2367e-13
0.15    	0.05    	1.0887e-08
0.15    	0.1     	1.2518e-08
0.15    	0.15    	1.2773e-08
0.15    	0.2     	1.2823e-08
0.15    	0.25    	1.2842e-08
0.15    	0.3     	1.2854e-08
0.15    	0.35    	1.2865e-08
0.15    	0.4     	1.2874e-08
0.15    	0.45    	1.2883e-08
0.15    	0.5     	1.2891e-08
0.15    	0.55    	1.2898e-08
0.15    	0.6     	1.2905e-08
0.15    	0.65    	1.2911e-08
0.15    	0.7     	1.2917e-08
0.2     	0       	-7.5546e-12
0.2     	0.05    	6.7759e-08
0.2     	0.1     	7.8851e-08
0.2     	0.15    	8.0621e-08
0.2     	0.2     	8.0978e-08
0.2     	0.25    	8.1112e-08
0.2     	0.3     	8.12e-08
0.2     	0.35    	8.1272e-08
0.2     	0.4     	8.1336e-08
0.2     	0.45    	8.1393e-08
0.2     	0.5     	8.1443e-08
0.2     	0.55    	8.1488e-08
0.2     	0.6     	8.1531e-08
0.2     	0.65    	8.1571e-08
0.2     	0.7     	8.1609e-08
0.25    	0       	-1.1315e-11
0.25    	0.05    	3.0669e-07
0.25    	0.1     	3.7603e-07
0.25    	0.15    	3.8816e-07
0.25    	0.2     	3.9054e-07
0.25    	0.25    	3.9131e-07
0.25    	0.3     	3.9176e-07
0.25    	0.35    	3.9211e-07
0.25    	0.4     	3.9238e-07
0.25    	0.45    	3.9267e-07
0.25    	0.5     	3.9291e-07
0.25    	0.55    	3.9312e-07
0.25    	0.6     	3.9332e-07
0.25    	0.65    	3.9349e-07
0.25    	0.7     	3.9366e-07
0.3     	0       	3.8363e-12
0.3     	0.05    	7.6272e-07
0.3     	0.1     	1.0711e-06
0.3     	0.15    	1.1449e-06
0.3     	0.2     	1.1597e-06
0.3     	0.25    	1.1637e-06
0.3     	0.3     	1.1653e-06
0.3     	0.35    	1.1663e-06
0.3     	0.4     	1.1671e-06
0.3     	0.45    	1.1678e-06
0.3     	0.5     	1.1685e-06
0.3     	0.55    	1.1691e-06
0.3     	0.6     	1.1695e-06
0.3     	0.65    	1.17e-06
0.3     	0.7     	1.1704e-06
0.35    	0       	2.4054e-11
0.35    	0.05    	1.1633e-06
0.35    	0.1     	1.9043e-06
0.35    	0.15    	2.2128e-06
0.35    	0.2     	2.2953e-06
0.35    	0.25    	2.3134e-06
0.35    	0.3     	2.3187e-06
0.35    	0.35    	2.3214e-06
0.35    	0.4     	2.323e-06
0.35    	0.45    	2.3243e-06
0.35    	0.5     	2.3255e-06
0.35    	0.55    	2.3264e-06
0.35    	0.6     	2.3272e-06
0.35    	0.65    	2.3279e-06
0.35    	0.7     	2.3287e-06
0.4     	0       	4.1646e-11
0.4     	0.05    	1.4067e-06
0.4     	0.1     	2.5162e-06
0.4     	0.15    	3.2068e-06
0.4     	0.2     	3.5179e-06
0.4     	0.25    	3.6078e-06
0.4     	0.3     	3.6303e-06
0.4     	0.35    	3.6378e-06
0.4     	0.4     	3.6411e-06
0.4     	0.45    	3.6431e-06
0.4     	0.5     	3.6449e-06
0.4     	0.55    	3.6462e-06
0.4     	0.6     	3.6474e-06
0.4     	0.65    	3.6483e-06
0.4     	0.7     	3.6492e-06
0.45    	0       	5.0917e-11
0.45    	0.05    	1.5442e-06
0.45    	0.1     	2.8751e-06
0.45    	0.15    	3.8668e-06
0.45    	0.2     	4.4793e-06
0.45    	0.25    	4.7929e-06
0.45    	0.3     	4.9018e-06
0.45    	0.35    	4.9322e-06
0.45    	0.4     	4.9418e-06
0.45    	0.45    	4.9464e-06
0.45    	0.5     	4.9489e-06
0.45    	0.55    	4.9508e-06
0.45    	0.6     	4.9522e-06
0.45    	0.65    	4.9535e-06
0.45    	0.7     	4.9545e-06
0.5     	0       	6.3146e-11
0.5     	0.05    	1.5918e-06
0.5     	0.1     	3.046e-06
0.5     	0.15    	4.2184e-06
0.5     	0.2     	5.0533e-06
0.5     	0.25    	5.6132e-06
0.5     	0.3     	5.9221e-06
0.5     	0.35    	6.0444e-06
0.5     	0.4     	6.086e-06
0.5     	0.45    	6.101e-06
0.5     	0.5     	6.1071e-06
0.5     	0.55    	6.1106e-06
0.5     	0.6     	6.1127e-06
0.5     	0.65    	6.1143e-06
0.5     	0.7     	6.1155e-06
0.55    	0       	6.7927e-11
0.55    	0.05    	1.6139e-06
0.55    	0.1     	3.1014e-06
0.55    	0.15    	4.3688e-06
0.55    	0.2     	5.3252e-06
0.55    	0.25    	6.0254e-06
0.55    	0.3     	6.4893e-06
0.55    	0.35    	6.7808e-06
0.55    	0.4     	6.9224e-06
0.55    	0.45    	6.985e-06
0.55    	0.5     	7.0096e-06
0.55    	0.55    	7.0203e-06
0.55    	0.6     	7.0255e-06
0.55    	0.65    	7.0284e-06
0.55    	0.7     	7.0302e-06
0.6     	0       	7.2015e-11
0.6     	0.05    	1.6297e-06
0.6     	0.1     	3.1373e-06
0.6     	0.15    	4.4321e-06
0.6     	0.2     	5.4513e-06
0.6     	0.25    	6.2442e-06
0.6     	0.3     	6.7914e-06
0.6     	0.35    	7.1637e-06
0.6     	0.4     	7.4185e-06
0.6     	0.45    	7.563e-06
0.6     	0.5     	7.644e-06
0.6     	0.55    	7.681e-06
0.6     	0.6     	7.6983e-06
0.6     	0.65    	7.7061e-06
0.6     	0.7     	7.709e-06
0.65    	0       	7.2299e-11
0.65    	0.05    	1.6457e-06
0.65    	0.1     	3.1643e-06
0.65    	0.15    	4.4833e-06
0.65    	0.2     	5.5273e-06
0.65    	0.25    	6.3521e-06
0.65    	0.3     	6.9607e-06
0.65    	0.35    	7.3965e-06
0.65    	0.4     	7.6936e-06
0.65    	0.45    	7.8971e-06
0.65    	0.5     	8.0309e-06
0.65    	0.55    	8.1076e-06
0.65    	0.6     	8.1471e-06
0.65    	0.65    	8.1614e-06
0.65    	0.7     	8.1659e-06
0.7     	0       	6.7052e-11
0.7     	0.05    	1.6597e-06
0.7     	0.1     	3.1935e-06
0.7     	0.15    	4.5288e-06
0.7     	0.2     	5.5937e-06
0.7     	0.25    	6.4387e-06
0.7     	0.3     	7.035e-06
0.7     	0.35    	7.5332e-06
0.7     	0.4     	7.8731e-06
0.7     	0.45    	8.1056e-06
0.7     	0.5     	8.2646e-06
0.7     	0.55    	8.355e-06
0.7     	0.6     	8.3915e-06
0.7     	0.65    	8.4068e-06
0.7     	0.7     	8.4138e-06
