vg      	vd      	ids     
0       	0       	1.0821e-13
0       	0.05    	2.5738e-11
0       	0.1     	2.9602e-11
0       	0.15    	3.0295e-11
0       	0.2     	3.0514e-11
0       	0.25    	3.0655e-11
0       	0.3     	3.0775e-11
0       	0.35    	3.0887e-11
0       	0.4     	3.0992e-11
0       	0.45    	3.1091e-11
0       	0.5     	3.1185e-11
0       	0.55    	3.1274e-11
0       	0.6     	3.1359e-11
0       	0.65    	3.1439e-11
0       	0.7     	3.1516e-11
0.05    	0       	7.5575e-13
0.05    	0.05    	1.7074e-10
0.05    	0.1     	1.9716e-10
0.05    	0.15    	2.0192e-10
0.05    	0.2     	2.0344e-10
0.05    	0.25    	2.0442e-10
0.05    	0.3     	2.0525e-10
0.05    	0.35    	2.06e-10
0.05    	0.4     	2.0671e-10
0.05    	0.45    	2.0737e-10
0.05    	0.5     	2.08e-10
0.05    	0.55    	2.0859e-10
0.05    	0.6     	2.0916e-10
0.05    	0.65    	2.0969e-10
0.05    	0.7     	2.102e-10
0.1     	0       	5.836e-12
0.1     	0.05    	1.1108e-09
0.1     	0.1     	1.2863e-09
0.1     	0.15    	1.3188e-09
0.1     	0.2     	1.3292e-09
0.1     	0.25    	1.3358e-09
0.1     	0.3     	1.3414e-09
0.1     	0.35    	1.3464e-09
0.1     	0.4     	1.3511e-09
0.1     	0.45    	1.3554e-09
0.1     	0.5     	1.3594e-09
0.1     	0.55    	1.3633e-09
0.1     	0.6     	1.3669e-09
0.1     	0.65    	1.3704e-09
0.1     	0.7     	1.3737e-09
0.15    	0       	3.802e-11
0.15    	0.05    	7.1284e-09
0.15    	0.1     	8.2721e-09
0.15    	0.15    	8.4885e-09
0.15    	0.2     	8.5579e-09
0.15    	0.25    	8.6013e-09
0.15    	0.3     	8.6377e-09
0.15    	0.35    	8.6703e-09
0.15    	0.4     	8.6999e-09
0.15    	0.45    	8.7271e-09
0.15    	0.5     	8.7525e-09
0.15    	0.55    	8.7764e-09
0.15    	0.6     	8.7989e-09
0.15    	0.65    	8.8203e-09
0.15    	0.7     	8.8406e-09
0.2     	0       	2.0524e-10
0.2     	0.05    	4.2991e-08
0.2     	0.1     	5.0344e-08
0.2     	0.15    	5.1744e-08
0.2     	0.2     	5.2176e-08
0.2     	0.25    	5.2434e-08
0.2     	0.3     	5.2645e-08
0.2     	0.35    	5.2832e-08
0.2     	0.4     	5.3e-08 
0.2     	0.45    	5.3152e-08
0.2     	0.5     	5.3293e-08
0.2     	0.55    	5.3423e-08
0.2     	0.6     	5.3546e-08
0.2     	0.65    	5.3661e-08
0.2     	0.7     	5.3771e-08
0.25    	0       	8.9228e-10
0.25    	0.05    	2.0511e-07
0.25    	0.1     	2.4822e-07
0.25    	0.15    	2.5654e-07
0.25    	0.2     	2.588e-07
0.25    	0.25    	2.5996e-07
0.25    	0.3     	2.6084e-07
0.25    	0.35    	2.616e-07
0.25    	0.4     	2.6227e-07
0.25    	0.45    	2.6287e-07
0.25    	0.5     	2.6342e-07
0.25    	0.55    	2.6392e-07
0.25    	0.6     	2.6438e-07
0.25    	0.65    	2.6481e-07
0.25    	0.7     	2.6522e-07
0.3     	0       	2.0991e-09
0.3     	0.05    	6.0178e-07
0.3     	0.1     	7.8477e-07
0.3     	0.15    	8.2373e-07
0.3     	0.2     	8.33e-07
0.3     	0.25    	8.3667e-07
0.3     	0.3     	8.3906e-07
0.3     	0.35    	8.41e-07
0.3     	0.4     	8.4268e-07
0.3     	0.45    	8.4415e-07
0.3     	0.5     	8.4547e-07
0.3     	0.55    	8.4666e-07
0.3     	0.6     	8.4774e-07
0.3     	0.65    	8.4874e-07
0.3     	0.7     	8.4967e-07
0.35    	0       	3.5487e-09
0.35    	0.05    	1.1303e-06
0.35    	0.1     	1.6229e-06
0.35    	0.15    	1.7523e-06
0.35    	0.2     	1.7826e-06
0.35    	0.25    	1.7922e-06
0.35    	0.3     	1.7973e-06
0.35    	0.35    	1.8011e-06
0.35    	0.4     	1.8041e-06
0.35    	0.45    	1.8068e-06
0.35    	0.5     	1.8092e-06
0.35    	0.55    	1.8112e-06
0.35    	0.6     	1.8131e-06
0.35    	0.65    	1.8148e-06
0.35    	0.7     	1.8164e-06
0.4     	0       	4.8059e-09
0.4     	0.05    	1.6466e-06
0.4     	0.1     	2.5805e-06
0.4     	0.15    	2.897e-06
0.4     	0.2     	2.9778e-06
0.4     	0.25    	3.001e-06
0.4     	0.3     	3.0109e-06
0.4     	0.35    	3.0171e-06
0.4     	0.4     	3.0227e-06
0.4     	0.45    	3.0268e-06
0.4     	0.5     	3.0302e-06
0.4     	0.55    	3.0333e-06
0.4     	0.6     	3.036e-06
0.4     	0.65    	3.0384e-06
0.4     	0.7     	3.0406e-06
0.45    	0       	5.8896e-09
0.45    	0.05    	2.1144e-06
0.45    	0.1     	3.5239e-06
0.45    	0.15    	4.1325e-06
0.45    	0.2     	4.3157e-06
0.45    	0.25    	4.3701e-06
0.45    	0.3     	4.3874e-06
0.45    	0.35    	4.4015e-06
0.45    	0.4     	4.405e-06
0.45    	0.45    	4.4098e-06
0.45    	0.5     	4.4146e-06
0.45    	0.55    	4.4184e-06
0.45    	0.6     	4.4225e-06
0.45    	0.65    	4.4257e-06
0.45    	0.7     	4.4285e-06
0.5     	0       	6.8069e-09
0.5     	0.05    	2.525e-06
0.5     	0.1     	4.3742e-06
0.5     	0.15    	5.384e-06
0.5     	0.2     	5.7365e-06
0.5     	0.25    	5.8371e-06
0.5     	0.3     	5.8756e-06
0.5     	0.35    	5.8841e-06
0.5     	0.4     	5.8968e-06
0.5     	0.45    	5.8998e-06
0.5     	0.5     	5.9087e-06
0.5     	0.55    	5.9103e-06
0.5     	0.6     	5.9175e-06
0.5     	0.65    	5.9181e-06
0.5     	0.7     	5.9244e-06
0.55    	0       	7.5746e-09
0.55    	0.05    	2.8752e-06
0.55    	0.1     	5.1346e-06
0.55    	0.15    	6.5482e-06
0.55    	0.2     	7.1712e-06
0.55    	0.25    	7.3644e-06
0.55    	0.3     	7.4232e-06
0.55    	0.35    	7.4443e-06
0.55    	0.4     	7.4556e-06
0.55    	0.45    	7.4635e-06
0.55    	0.5     	7.4698e-06
0.55    	0.55    	7.475e-06
0.55    	0.6     	7.4795e-06
0.55    	0.65    	7.4842e-06
0.55    	0.7     	7.4883e-06
0.6     	0       	8.1972e-09
0.6     	0.05    	3.1728e-06
0.6     	0.1     	5.7913e-06
0.6     	0.15    	7.6041e-06
0.6     	0.2     	8.5527e-06
0.6     	0.25    	8.8952e-06
0.6     	0.3     	9.0044e-06
0.6     	0.35    	9.0432e-06
0.6     	0.4     	9.0482e-06
0.6     	0.45    	9.0574e-06
0.6     	0.5     	9.0805e-06
0.6     	0.55    	9.0821e-06
0.6     	0.6     	9.0848e-06
0.6     	0.65    	9.088e-06
0.6     	0.7     	9.0985e-06
0.65    	0       	8.7419e-09
0.65    	0.05    	3.4227e-06
0.65    	0.1     	6.347e-06
0.65    	0.15    	8.5186e-06
0.65    	0.2     	9.8252e-06
0.65    	0.25    	1.0368e-05
0.65    	0.3     	1.0582e-05
0.65    	0.35    	1.0654e-05
0.65    	0.4     	1.0685e-05
0.65    	0.45    	1.0701e-05
0.65    	0.5     	1.071e-05
0.65    	0.55    	1.0718e-05
0.65    	0.6     	1.0724e-05
0.65    	0.65    	1.0721e-05
0.65    	0.7     	1.0724e-05
0.7     	0       	9.1998e-09
0.7     	0.05    	3.6318e-06
0.7     	0.1     	6.8143e-06
0.7     	0.15    	9.3085e-06
0.7     	0.2     	1.0993e-05
0.7     	0.25    	1.1816e-05
0.7     	0.3     	1.2154e-05
0.7     	0.35    	1.2285e-05
0.7     	0.4     	1.2327e-05
0.7     	0.45    	1.2343e-05
0.7     	0.5     	1.2346e-05
0.7     	0.55    	1.2366e-05
0.7     	0.6     	1.2362e-05
0.7     	0.65    	1.238e-05
0.7     	0.7     	1.2372e-05
