vg      	vd      	ids     
0       	0       	7.6282e-14
0       	0.05    	7.5991e-11
0       	0.1     	8.9359e-11
0       	0.15    	9.3318e-11
0       	0.2     	9.5769e-11
0       	0.25    	9.7897e-11
0       	0.3     	9.9875e-11
0       	0.35    	1.0171e-10
0       	0.4     	1.034e-10
0       	0.45    	1.0492e-10
0       	0.5     	1.063e-10
0       	0.55    	1.0755e-10
0       	0.6     	1.0872e-10
0       	0.65    	1.0983e-10
0       	0.7     	1.1089e-10
0.05    	0       	5.1232e-13
0.05    	0.05    	4.9011e-10
0.05    	0.1     	5.7841e-10
0.05    	0.15    	6.05e-10
0.05    	0.2     	6.2144e-10
0.05    	0.25    	6.3533e-10
0.05    	0.3     	6.4769e-10
0.05    	0.35    	6.5861e-10
0.05    	0.4     	6.683e-10
0.05    	0.45    	6.7706e-10
0.05    	0.5     	6.8518e-10
0.05    	0.55    	6.9284e-10
0.05    	0.6     	7.0014e-10
0.05    	0.65    	7.0711e-10
0.05    	0.7     	7.139e-10
0.1     	0       	3.1632e-12
0.1     	0.05    	3.1294e-09
0.1     	0.1     	3.7039e-09
0.1     	0.15    	3.8796e-09
0.1     	0.2     	3.984e-09
0.1     	0.25    	4.0662e-09
0.1     	0.3     	4.1359e-09
0.1     	0.35    	4.1974e-09
0.1     	0.4     	4.2538e-09
0.1     	0.45    	4.3065e-09
0.1     	0.5     	4.3566e-09
0.1     	0.55    	4.4046e-09
0.1     	0.6     	4.4509e-09
0.1     	0.65    	4.4957e-09
0.1     	0.7     	4.5387e-09
0.15    	0       	1.8953e-11
0.15    	0.05    	1.9061e-08
0.15    	0.1     	2.2702e-08
0.15    	0.15    	2.3759e-08
0.15    	0.2     	2.4326e-08
0.15    	0.25    	2.4762e-08
0.15    	0.3     	2.5144e-08
0.15    	0.35    	2.5495e-08
0.15    	0.4     	2.5824e-08
0.15    	0.45    	2.6136e-08
0.15    	0.5     	2.6435e-08
0.15    	0.55    	2.6722e-08
0.15    	0.6     	2.6999e-08
0.15    	0.65    	2.7266e-08
0.15    	0.7     	2.7526e-08
0.2     	0       	8.5342e-11
0.2     	0.05    	9.8787e-08
0.2     	0.1     	1.1968e-07
0.2     	0.15    	1.2514e-07
0.2     	0.2     	1.2781e-07
0.2     	0.25    	1.2985e-07
0.2     	0.3     	1.3164e-07
0.2     	0.35    	1.3329e-07
0.2     	0.4     	1.3481e-07
0.2     	0.45    	1.3625e-07
0.2     	0.5     	1.3759e-07
0.2     	0.55    	1.3886e-07
0.2     	0.6     	1.4006e-07
0.2     	0.65    	1.4119e-07
0.2     	0.7     	1.4226e-07
0.25    	0       	2.4072e-10
0.25    	0.05    	3.3837e-07
0.25    	0.1     	4.3563e-07
0.25    	0.15    	4.5971e-07
0.25    	0.2     	4.6944e-07
0.25    	0.25    	4.7498e-07
0.25    	0.3     	4.7935e-07
0.25    	0.35    	4.8307e-07
0.25    	0.4     	4.8632e-07
0.25    	0.45    	4.8922e-07
0.25    	0.5     	4.9187e-07
0.25    	0.55    	4.943e-07
0.25    	0.6     	4.9657e-07
0.25    	0.65    	4.9891e-07
0.25    	0.7     	5.0093e-07
0.3     	0       	4.1399e-10
0.3     	0.05    	6.862e-07
0.3     	0.1     	9.9913e-07
0.3     	0.15    	1.0903e-06
0.3     	0.2     	1.1146e-06
0.3     	0.25    	1.1249e-06
0.3     	0.3     	1.1317e-06
0.3     	0.35    	1.1378e-06
0.3     	0.4     	1.1425e-06
0.3     	0.45    	1.1467e-06
0.3     	0.5     	1.1505e-06
0.3     	0.55    	1.154e-06
0.3     	0.6     	1.1572e-06
0.3     	0.65    	1.1606e-06
0.3     	0.7     	1.1634e-06
0.35    	0       	5.5201e-10
0.35    	0.05    	9.7778e-07
0.35    	0.1     	1.6063e-06
0.35    	0.15    	1.8757e-06
0.35    	0.2     	1.9559e-06
0.35    	0.25    	1.9804e-06
0.35    	0.3     	1.9907e-06
0.35    	0.35    	1.9976e-06
0.35    	0.4     	2.0032e-06
0.35    	0.45    	2.0084e-06
0.35    	0.5     	2.0125e-06
0.35    	0.55    	2.0162e-06
0.35    	0.6     	2.0195e-06
0.35    	0.65    	2.0229e-06
0.35    	0.7     	2.0258e-06
0.4     	0       	6.6288e-10
0.4     	0.05    	1.174e-06
0.4     	0.1     	2.0801e-06
0.4     	0.15    	2.6193e-06
0.4     	0.2     	2.851e-06
0.4     	0.25    	2.9189e-06
0.4     	0.3     	2.94e-06
0.4     	0.35    	2.9508e-06
0.4     	0.4     	2.9574e-06
0.4     	0.45    	2.9625e-06
0.4     	0.5     	2.9672e-06
0.4     	0.55    	2.971e-06
0.4     	0.6     	2.9743e-06
0.4     	0.65    	2.9776e-06
0.4     	0.7     	2.9804e-06
0.45    	0       	7.5556e-10
0.45    	0.05    	1.3035e-06
0.45    	0.1     	2.4001e-06
0.45    	0.15    	3.1832e-06
0.45    	0.2     	3.645e-06
0.45    	0.25    	3.8364e-06
0.45    	0.3     	3.8963e-06
0.45    	0.35    	3.9161e-06
0.45    	0.4     	3.9261e-06
0.45    	0.45    	3.9321e-06
0.45    	0.5     	3.9369e-06
0.45    	0.55    	3.9406e-06
0.45    	0.6     	3.9437e-06
0.45    	0.65    	3.9467e-06
0.45    	0.7     	3.9492e-06
0.5     	0       	8.3573e-10
0.5     	0.05    	1.3937e-06
0.5     	0.1     	2.6149e-06
0.5     	0.15    	3.5651e-06
0.5     	0.2     	4.2041e-06
0.5     	0.25    	4.6097e-06
0.5     	0.3     	4.7761e-06
0.5     	0.35    	4.8335e-06
0.5     	0.4     	4.8546e-06
0.5     	0.45    	4.8643e-06
0.5     	0.5     	4.8698e-06
0.5     	0.55    	4.8738e-06
0.5     	0.6     	4.8771e-06
0.5     	0.65    	4.8797e-06
0.5     	0.7     	4.8821e-06
0.55    	0       	9.0694e-10
0.55    	0.05    	1.4607e-06
0.55    	0.1     	2.7659e-06
0.55    	0.15    	3.823e-06
0.55    	0.2     	4.5905e-06
0.55    	0.25    	5.1375e-06
0.55    	0.3     	5.4741e-06
0.55    	0.35    	5.6285e-06
0.55    	0.4     	5.6919e-06
0.55    	0.45    	5.7157e-06
0.55    	0.5     	5.7263e-06
0.55    	0.55    	5.732e-06
0.55    	0.6     	5.7359e-06
0.55    	0.65    	5.7386e-06
0.55    	0.7     	5.7407e-06
0.6     	0       	9.6992e-10
0.6     	0.05    	1.5118e-06
0.6     	0.1     	2.8766e-06
0.6     	0.15    	4.0034e-06
0.6     	0.2     	4.8505e-06
0.6     	0.25    	5.4917e-06
0.6     	0.3     	5.9244e-06
0.6     	0.35    	6.2095e-06
0.6     	0.4     	6.364e-06
0.6     	0.45    	6.435e-06
0.6     	0.5     	6.4666e-06
0.6     	0.55    	6.4801e-06
0.6     	0.6     	6.4871e-06
0.6     	0.65    	6.4907e-06
0.6     	0.7     	6.4924e-06
0.65    	0       	1.0231e-09
0.65    	0.05    	1.5506e-06
0.65    	0.1     	2.957e-06
0.65    	0.15    	4.1318e-06
0.65    	0.2     	5.0286e-06
0.65    	0.25    	5.7244e-06
0.65    	0.3     	6.2181e-06
0.65    	0.35    	6.5762e-06
0.65    	0.4     	6.799e-06
0.65    	0.45    	6.9444e-06
0.65    	0.5     	7.0213e-06
0.65    	0.55    	7.0618e-06
0.65    	0.6     	7.0791e-06
0.65    	0.65    	7.0849e-06
0.65    	0.7     	7.0871e-06
0.7     	0       	1.0721e-09
0.7     	0.05    	1.5768e-06
0.7     	0.1     	3.0134e-06
0.7     	0.15    	4.222e-06
0.7     	0.2     	5.1521e-06
0.7     	0.25    	5.8803e-06
0.7     	0.3     	6.4071e-06
0.7     	0.35    	6.7838e-06
0.7     	0.4     	7.049e-06
0.7     	0.45    	7.2301e-06
0.7     	0.5     	7.3375e-06
0.7     	0.55    	7.3874e-06
0.7     	0.6     	7.4042e-06
0.7     	0.65    	7.4102e-06
0.7     	0.7     	7.4132e-06
