vg      	vd      	ids     
0       	0       	-1.458e-15
0       	0.05    	2.6825e-11
0       	0.1     	3.0768e-11
0       	0.15    	3.1356e-11
0       	0.2     	3.1462e-11
0       	0.25    	3.1496e-11
0       	0.3     	3.1517e-11
0       	0.35    	3.1536e-11
0       	0.4     	3.1552e-11
0       	0.45    	3.1568e-11
0       	0.5     	3.1582e-11
0       	0.55    	3.1596e-11
0       	0.6     	3.1609e-11
0       	0.65    	3.1621e-11
0       	0.7     	3.1632e-11
0.05    	0       	-2.8587e-14
0.05    	0.05    	1.8355e-10
0.05    	0.1     	2.1066e-10
0.05    	0.15    	2.1479e-10
0.05    	0.2     	2.1554e-10
0.05    	0.25    	2.1579e-10
0.05    	0.3     	2.1595e-10
0.05    	0.35    	2.1609e-10
0.05    	0.4     	2.1621e-10
0.05    	0.45    	2.1633e-10
0.05    	0.5     	2.1643e-10
0.05    	0.55    	2.1653e-10
0.05    	0.6     	2.1662e-10
0.05    	0.65    	2.1671e-10
0.05    	0.7     	2.1679e-10
0.1     	0       	-5.3521e-13
0.1     	0.05    	1.2481e-09
0.1     	0.1     	1.4338e-09
0.1     	0.15    	1.4624e-09
0.1     	0.2     	1.4678e-09
0.1     	0.25    	1.4696e-09
0.1     	0.3     	1.4709e-09
0.1     	0.35    	1.4719e-09
0.1     	0.4     	1.4728e-09
0.1     	0.45    	1.4737e-09
0.1     	0.5     	1.4745e-09
0.1     	0.55    	1.4752e-09
0.1     	0.6     	1.4758e-09
0.1     	0.65    	1.4765e-09
0.1     	0.7     	1.4771e-09
0.15    	0       	-8.1773e-12
0.15    	0.05    	8.4466e-09
0.15    	0.1     	9.7114e-09
0.15    	0.15    	9.9092e-09
0.15    	0.2     	9.948e-09
0.15    	0.25    	9.962e-09
0.15    	0.3     	9.9714e-09
0.15    	0.35    	9.9792e-09
0.15    	0.4     	9.9861e-09
0.15    	0.45    	9.9923e-09
0.15    	0.5     	9.998e-09
0.15    	0.55    	1.0003e-08
0.15    	0.6     	1.0008e-08
0.15    	0.65    	1.0013e-08
0.15    	0.7     	1.0017e-08
0.2     	0       	-3.078e-11
0.2     	0.05    	5.3317e-08
0.2     	0.1     	6.1908e-08
0.2     	0.15    	6.327e-08
0.2     	0.2     	6.3544e-08
0.2     	0.25    	6.3645e-08
0.2     	0.3     	6.3712e-08
0.2     	0.35    	6.3768e-08
0.2     	0.4     	6.3816e-08
0.2     	0.45    	6.3859e-08
0.2     	0.5     	6.3897e-08
0.2     	0.55    	6.3933e-08
0.2     	0.6     	6.3965e-08
0.2     	0.65    	6.3996e-08
0.2     	0.7     	6.4024e-08
0.25    	0       	-2.3504e-11
0.25    	0.05    	2.6437e-07
0.25    	0.1     	3.184e-07
0.25    	0.15    	3.2767e-07
0.25    	0.2     	3.2951e-07
0.25    	0.25    	3.3013e-07
0.25    	0.3     	3.3051e-07
0.25    	0.35    	3.3081e-07
0.25    	0.4     	3.3107e-07
0.25    	0.45    	3.3129e-07
0.25    	0.5     	3.3149e-07
0.25    	0.55    	3.3168e-07
0.25    	0.6     	3.3184e-07
0.25    	0.65    	3.3199e-07
0.25    	0.7     	3.3214e-07
0.3     	0       	8.9103e-11
0.3     	0.05    	7.8137e-07
0.3     	0.1     	1.038e-06
0.3     	0.15    	1.0922e-06
0.3     	0.2     	1.1029e-06
0.3     	0.25    	1.1059e-06
0.3     	0.3     	1.1073e-06
0.3     	0.35    	1.1083e-06
0.3     	0.4     	1.1091e-06
0.3     	0.45    	1.1098e-06
0.3     	0.5     	1.1105e-06
0.3     	0.55    	1.111e-06
0.3     	0.6     	1.1115e-06
0.3     	0.65    	1.112e-06
0.3     	0.7     	1.1124e-06
0.35    	0       	2.2062e-10
0.35    	0.05    	1.3974e-06
0.35    	0.1     	2.1316e-06
0.35    	0.15    	2.3611e-06
0.35    	0.2     	2.4146e-06
0.35    	0.25    	2.4274e-06
0.35    	0.3     	2.4323e-06
0.35    	0.35    	2.4347e-06
0.35    	0.4     	2.4364e-06
0.35    	0.45    	2.4378e-06
0.35    	0.5     	2.439e-06
0.35    	0.55    	2.4403e-06
0.35    	0.6     	2.4412e-06
0.35    	0.65    	2.4421e-06
0.35    	0.7     	2.4429e-06
0.4     	0       	3.6498e-10
0.4     	0.05    	1.8869e-06
0.4     	0.1     	3.2157e-06
0.4     	0.15    	3.8503e-06
0.4     	0.2     	4.0509e-06
0.4     	0.25    	4.1016e-06
0.4     	0.3     	4.1162e-06
0.4     	0.35    	4.1215e-06
0.4     	0.4     	4.1245e-06
0.4     	0.45    	4.1269e-06
0.4     	0.5     	4.129e-06
0.4     	0.55    	4.1306e-06
0.4     	0.6     	4.1321e-06
0.4     	0.65    	4.1333e-06
0.4     	0.7     	4.1346e-06
0.45    	0       	4.8183e-10
0.45    	0.05    	2.2363e-06
0.45    	0.1     	4.0336e-06
0.45    	0.15    	5.2178e-06
0.45    	0.2     	5.748e-06
0.45    	0.25    	5.9287e-06
0.45    	0.3     	5.9785e-06
0.45    	0.35    	5.9925e-06
0.45    	0.4     	5.9984e-06
0.45    	0.45    	6.0023e-06
0.45    	0.5     	6.005e-06
0.45    	0.55    	6.0072e-06
0.45    	0.6     	6.009e-06
0.45    	0.65    	6.0108e-06
0.45    	0.7     	6.0123e-06
0.5     	0       	5.7516e-10
0.5     	0.05    	2.4849e-06
0.5     	0.1     	4.63e-06
0.5     	0.15    	6.2527e-06
0.5     	0.2     	7.2319e-06
0.5     	0.25    	7.6958e-06
0.5     	0.3     	7.8601e-06
0.5     	0.35    	7.9084e-06
0.5     	0.4     	7.9239e-06
0.5     	0.45    	7.9302e-06
0.5     	0.5     	7.934e-06
0.5     	0.55    	7.937e-06
0.5     	0.6     	7.9393e-06
0.5     	0.65    	7.9413e-06
0.5     	0.7     	7.9431e-06
0.55    	0       	6.3149e-10
0.55    	0.05    	2.6596e-06
0.55    	0.1     	5.0252e-06
0.55    	0.15    	6.9589e-06
0.55    	0.2     	8.3317e-06
0.55    	0.25    	9.1638e-06
0.55    	0.3     	9.5889e-06
0.55    	0.35    	9.7367e-06
0.55    	0.4     	9.784e-06
0.55    	0.45    	9.7995e-06
0.55    	0.5     	9.8068e-06
0.55    	0.55    	9.8108e-06
0.55    	0.6     	9.8139e-06
0.55    	0.65    	9.8162e-06
0.55    	0.7     	9.8181e-06
0.6     	0       	6.6993e-10
0.6     	0.05    	2.77e-06
0.6     	0.1     	5.2895e-06
0.6     	0.15    	7.4265e-06
0.6     	0.2     	9.0631e-06
0.6     	0.25    	1.0199e-05
0.6     	0.3     	1.0943e-05
0.6     	0.35    	1.1316e-05
0.6     	0.4     	1.146e-05
0.6     	0.45    	1.1511e-05
0.6     	0.5     	1.1529e-05
0.6     	0.55    	1.1536e-05
0.6     	0.6     	1.1541e-05
0.6     	0.65    	1.1544e-05
0.6     	0.7     	1.1546e-05
0.65    	0       	6.9964e-10
0.65    	0.05    	2.8077e-06
0.65    	0.1     	5.4174e-06
0.65    	0.15    	7.692e-06
0.65    	0.2     	9.5181e-06
0.65    	0.25    	1.0857e-05
0.65    	0.3     	1.1842e-05
0.65    	0.35    	1.2466e-05
0.65    	0.4     	1.2807e-05
0.65    	0.45    	1.2961e-05
0.65    	0.5     	1.3018e-05
0.65    	0.55    	1.304e-05
0.65    	0.6     	1.3049e-05
0.65    	0.65    	1.3054e-05
0.65    	0.7     	1.3057e-05
0.7     	0       	6.9034e-10
0.7     	0.05    	2.8093e-06
0.7     	0.1     	5.4471e-06
0.7     	0.15    	7.8021e-06
0.7     	0.2     	9.7511e-06
0.7     	0.25    	1.1197e-05
0.7     	0.3     	1.2344e-05
0.7     	0.35    	1.3109e-05
0.7     	0.4     	1.369e-05
0.7     	0.45    	1.4014e-05
0.7     	0.5     	1.4188e-05
0.7     	0.55    	1.426e-05
0.7     	0.6     	1.4287e-05
0.7     	0.65    	1.43e-05
0.7     	0.7     	1.4307e-05
