vg      	vd      	ids     
0       	0       	2.612e-14
0       	0.05    	3.8009e-09
0       	0.1     	4.5021e-09
0       	0.15    	4.7027e-09
0       	0.2     	4.8154e-09
0       	0.25    	4.9053e-09
0       	0.3     	4.9848e-09
0       	0.35    	5.0577e-09
0       	0.4     	5.1263e-09
0       	0.45    	5.1915e-09
0       	0.5     	5.254e-09
0       	0.55    	5.3143e-09
0       	0.6     	5.3725e-09
0       	0.65    	5.4291e-09
0       	0.7     	5.4844e-09
0.05    	0       	4.1678e-12
0.05    	0.05    	2.2813e-08
0.05    	0.1     	2.708e-08
0.05    	0.15    	2.8265e-08
0.05    	0.2     	2.8892e-08
0.05    	0.25    	2.9387e-08
0.05    	0.3     	2.9834e-08
0.05    	0.35    	3.0255e-08
0.05    	0.4     	3.0656e-08
0.05    	0.45    	3.1042e-08
0.05    	0.5     	3.1414e-08
0.05    	0.55    	3.1772e-08
0.05    	0.6     	3.2118e-08
0.05    	0.65    	3.2452e-08
0.05    	0.7     	3.2776e-08
0.1     	0       	2.1483e-11
0.1     	0.05    	1.2823e-07
0.1     	0.1     	1.5333e-07
0.1     	0.15    	1.5984e-07
0.1     	0.2     	1.6308e-07
0.1     	0.25    	1.6561e-07
0.1     	0.3     	1.6791e-07
0.1     	0.35    	1.7005e-07
0.1     	0.4     	1.7211e-07
0.1     	0.45    	1.7405e-07
0.1     	0.5     	1.7589e-07
0.1     	0.55    	1.776e-07
0.1     	0.6     	1.7921e-07
0.1     	0.65    	1.8069e-07
0.1     	0.7     	1.8208e-07
0.15    	0       	1.2278e-11
0.15    	0.05    	5.7307e-07
0.15    	0.1     	7.0296e-07
0.15    	0.15    	7.3404e-07
0.15    	0.2     	7.4665e-07
0.15    	0.25    	7.5527e-07
0.15    	0.3     	7.6252e-07
0.15    	0.35    	7.6901e-07
0.15    	0.4     	7.7496e-07
0.15    	0.45    	7.8047e-07
0.15    	0.5     	7.8563e-07
0.15    	0.55    	7.9048e-07
0.15    	0.6     	7.9506e-07
0.15    	0.65    	7.9939e-07
0.15    	0.7     	8.0352e-07
0.2     	0       	-1.565e-10
0.2     	0.05    	1.6785e-06
0.2     	0.1     	2.1688e-06
0.2     	0.15    	2.2812e-06
0.2     	0.2     	2.3155e-06
0.2     	0.25    	2.3339e-06
0.2     	0.3     	2.3479e-06
0.2     	0.35    	2.36e-06
0.2     	0.4     	2.371e-06
0.2     	0.45    	2.381e-06
0.2     	0.5     	2.3903e-06
0.2     	0.55    	2.399e-06
0.2     	0.6     	2.407e-06
0.2     	0.65    	2.4146e-06
0.2     	0.7     	2.4216e-06
0.25    	0       	-6.4384e-10
0.25    	0.05    	3.3488e-06
0.25    	0.1     	4.6153e-06
0.25    	0.15    	4.9303e-06
0.25    	0.2     	5.0135e-06
0.25    	0.25    	5.0477e-06
0.25    	0.3     	5.0699e-06
0.25    	0.35    	5.0876e-06
0.25    	0.4     	5.1053e-06
0.25    	0.45    	5.1192e-06
0.25    	0.5     	5.1317e-06
0.25    	0.55    	5.1432e-06
0.25    	0.6     	5.1539e-06
0.25    	0.65    	5.1638e-06
0.25    	0.7     	5.173e-06
0.3     	0       	-1.2984e-09
0.3     	0.05    	5.2858e-06
0.3     	0.1     	7.7634e-06
0.3     	0.15    	8.4832e-06
0.3     	0.2     	8.6662e-06
0.3     	0.25    	8.7279e-06
0.3     	0.3     	8.7609e-06
0.3     	0.35    	8.7851e-06
0.3     	0.4     	8.8052e-06
0.3     	0.45    	8.8251e-06
0.3     	0.5     	8.841e-06
0.3     	0.55    	8.8552e-06
0.3     	0.6     	8.8681e-06
0.3     	0.65    	8.88e-06
0.3     	0.7     	8.8909e-06
0.35    	0       	-1.912e-09
0.35    	0.05    	7.2666e-06
0.35    	0.1     	1.1315e-05
0.35    	0.15    	1.2697e-05
0.35    	0.2     	1.3077e-05
0.35    	0.25    	1.3188e-05
0.35    	0.3     	1.3238e-05
0.35    	0.35    	1.327e-05
0.35    	0.4     	1.3295e-05
0.35    	0.45    	1.3317e-05
0.35    	0.5     	1.3336e-05
0.35    	0.55    	1.3353e-05
0.35    	0.6     	1.337e-05
0.35    	0.65    	1.3385e-05
0.35    	0.7     	1.3398e-05
0.4     	0       	-2.3495e-09
0.4     	0.05    	9.1512e-06
0.4     	0.1     	1.5012e-05
0.4     	0.15    	1.7365e-05
0.4     	0.2     	1.8076e-05
0.4     	0.25    	1.8277e-05
0.4     	0.3     	1.836e-05
0.4     	0.35    	1.8405e-05
0.4     	0.4     	1.8436e-05
0.4     	0.45    	1.8462e-05
0.4     	0.5     	1.8485e-05
0.4     	0.55    	1.8505e-05
0.4     	0.6     	1.8523e-05
0.4     	0.65    	1.8539e-05
0.4     	0.7     	1.8554e-05
0.45    	0       	-2.5879e-09
0.45    	0.05    	1.0874e-05
0.45    	0.1     	1.8599e-05
0.45    	0.15    	2.2257e-05
0.45    	0.2     	2.3527e-05
0.45    	0.25    	2.3902e-05
0.45    	0.3     	2.4026e-05
0.45    	0.35    	2.4086e-05
0.45    	0.4     	2.4126e-05
0.45    	0.45    	2.4158e-05
0.45    	0.5     	2.4185e-05
0.45    	0.55    	2.4208e-05
0.45    	0.6     	2.4231e-05
0.45    	0.65    	2.425e-05
0.45    	0.7     	2.4267e-05
0.5     	0       	-2.6734e-09
0.5     	0.05    	1.2419e-05
0.5     	0.1     	2.1954e-05
0.5     	0.15    	2.7208e-05
0.5     	0.2     	2.9288e-05
0.5     	0.25    	2.9936e-05
0.5     	0.3     	3.0156e-05
0.5     	0.35    	3.0231e-05
0.5     	0.4     	3.0287e-05
0.5     	0.45    	3.0326e-05
0.5     	0.5     	3.0356e-05
0.5     	0.55    	3.0381e-05
0.5     	0.6     	3.0404e-05
0.5     	0.65    	3.0446e-05
0.5     	0.7     	3.0456e-05
0.55    	0       	-2.8625e-09
0.55    	0.05    	1.3794e-05
0.55    	0.1     	2.4843e-05
0.55    	0.15    	3.1971e-05
0.55    	0.2     	3.5161e-05
0.55    	0.25    	3.6304e-05
0.55    	0.3     	3.6639e-05
0.55    	0.35    	3.6817e-05
0.55    	0.4     	3.6867e-05
0.55    	0.45    	3.6903e-05
0.55    	0.5     	3.6964e-05
0.55    	0.55    	3.6979e-05
0.55    	0.6     	3.6995e-05
0.55    	0.65    	3.7038e-05
0.55    	0.7     	3.7048e-05
0.6     	0       	-2.8757e-09
0.6     	0.05    	1.509e-05
0.6     	0.1     	2.7656e-05
0.6     	0.15    	3.6327e-05
0.6     	0.2     	4.0951e-05
0.6     	0.25    	4.286e-05
0.6     	0.3     	4.3489e-05
0.6     	0.35    	4.3727e-05
0.6     	0.4     	4.3788e-05
0.6     	0.45    	4.3859e-05
0.6     	0.5     	4.388e-05
0.6     	0.55    	4.3928e-05
0.6     	0.6     	4.3968e-05
0.6     	0.65    	4.3975e-05
0.6     	0.7     	4.4006e-05
0.65    	0       	-2.7703e-09
0.65    	0.05    	1.6098e-05
0.65    	0.1     	2.9948e-05
0.65    	0.15    	4.0445e-05
0.65    	0.2     	4.6562e-05
0.65    	0.25    	4.9362e-05
0.65    	0.3     	5.051e-05
0.65    	0.35    	5.089e-05
0.65    	0.4     	5.0989e-05
0.65    	0.45    	5.11e-05
0.65    	0.5     	5.1127e-05
0.65    	0.55    	5.1169e-05
0.65    	0.6     	5.1207e-05
0.65    	0.65    	5.1239e-05
0.65    	0.7     	5.1264e-05
0.7     	0       	-2.5819e-09
0.7     	0.05    	1.7061e-05
0.7     	0.1     	3.199e-05
0.7     	0.15    	4.397e-05
0.7     	0.2     	5.1611e-05
0.7     	0.25    	5.5835e-05
0.7     	0.3     	5.7591e-05
0.7     	0.35    	5.8215e-05
0.7     	0.4     	5.8446e-05
0.7     	0.45    	5.8548e-05
0.7     	0.5     	5.8604e-05
0.7     	0.55    	5.8644e-05
0.7     	0.6     	5.8678e-05
0.7     	0.65    	5.8707e-05
0.7     	0.7     	5.8731e-05
