vg      	vd      	ids     
0       	0       	6.288e-12
0       	0.05    	1.2581e-09
0       	0.1     	1.4955e-09
0       	0.15    	1.5691e-09
0       	0.2     	1.6156e-09
0       	0.25    	1.6549e-09
0       	0.3     	1.6889e-09
0       	0.35    	1.7184e-09
0       	0.4     	1.7445e-09
0       	0.45    	1.7684e-09
0       	0.5     	1.791e-09
0       	0.55    	1.8127e-09
0       	0.6     	1.8336e-09
0       	0.65    	1.8539e-09
0       	0.7     	1.8737e-09
0.05    	0       	4.1848e-11
0.05    	0.05    	7.6545e-09
0.05    	0.1     	9.1197e-09
0.05    	0.15    	9.5773e-09
0.05    	0.2     	9.8493e-09
0.05    	0.25    	1.0063e-08
0.05    	0.3     	1.0246e-08
0.05    	0.35    	1.041e-08
0.05    	0.4     	1.0562e-08
0.05    	0.45    	1.0704e-08
0.05    	0.5     	1.084e-08
0.05    	0.55    	1.0971e-08
0.05    	0.6     	1.1099e-08
0.05    	0.65    	1.1223e-08
0.05    	0.7     	1.1344e-08
0.1     	0       	2.5748e-10
0.1     	0.05    	4.471e-08
0.1     	0.1     	5.349e-08
0.1     	0.15    	5.6062e-08
0.1     	0.2     	5.7441e-08
0.1     	0.25    	5.8527e-08
0.1     	0.3     	5.9503e-08
0.1     	0.35    	6.0417e-08
0.1     	0.4     	6.1281e-08
0.1     	0.45    	6.2102e-08
0.1     	0.5     	6.2886e-08
0.1     	0.55    	6.3639e-08
0.1     	0.6     	6.4368e-08
0.1     	0.65    	6.5078e-08
0.1     	0.7     	6.5769e-08
0.15    	0       	1.2709e-09
0.15    	0.05    	2.2679e-07
0.15    	0.1     	2.7479e-07
0.15    	0.15    	2.8744e-07
0.15    	0.2     	2.9367e-07
0.15    	0.25    	2.9855e-07
0.15    	0.3     	3.0298e-07
0.15    	0.35    	3.0714e-07
0.15    	0.4     	3.1103e-07
0.15    	0.45    	3.1468e-07
0.15    	0.5     	3.1807e-07
0.15    	0.55    	3.2122e-07
0.15    	0.6     	3.2415e-07
0.15    	0.65    	3.2685e-07
0.15    	0.7     	3.2937e-07
0.2     	0       	4.0803e-09
0.2     	0.05    	8.0692e-07
0.2     	0.1     	1.0175e-06
0.2     	0.15    	1.0689e-06
0.2     	0.2     	1.0887e-06
0.2     	0.25    	1.1015e-06
0.2     	0.3     	1.112e-06
0.2     	0.35    	1.1211e-06
0.2     	0.4     	1.1294e-06
0.2     	0.45    	1.1374e-06
0.2     	0.5     	1.1442e-06
0.2     	0.55    	1.1505e-06
0.2     	0.6     	1.1565e-06
0.2     	0.65    	1.1621e-06
0.2     	0.7     	1.167e-06
0.25    	0       	8.3781e-09
0.25    	0.05    	1.8402e-06
0.25    	0.1     	2.4776e-06
0.25    	0.15    	2.6361e-06
0.25    	0.2     	2.6834e-06
0.25    	0.25    	2.7067e-06
0.25    	0.3     	2.7236e-06
0.25    	0.35    	2.738e-06
0.25    	0.4     	2.7528e-06
0.25    	0.45    	2.7645e-06
0.25    	0.5     	2.7751e-06
0.25    	0.55    	2.7848e-06
0.25    	0.6     	2.7938e-06
0.25    	0.65    	2.8022e-06
0.25    	0.7     	2.81e-06
0.3     	0       	1.3393e-08
0.3     	0.05    	3.0274e-06
0.3     	0.1     	4.4488e-06
0.3     	0.15    	4.8497e-06
0.3     	0.2     	4.9571e-06
0.3     	0.25    	4.9973e-06
0.3     	0.3     	5.0241e-06
0.3     	0.35    	5.0426e-06
0.3     	0.4     	5.0582e-06
0.3     	0.45    	5.0722e-06
0.3     	0.5     	5.0848e-06
0.3     	0.55    	5.0962e-06
0.3     	0.6     	5.1067e-06
0.3     	0.65    	5.1164e-06
0.3     	0.7     	5.1254e-06
0.35    	0       	1.8529e-08
0.35    	0.05    	4.2119e-06
0.35    	0.1     	6.6475e-06
0.35    	0.15    	7.471e-06
0.35    	0.2     	7.706e-06
0.35    	0.25    	7.7781e-06
0.35    	0.3     	7.8121e-06
0.35    	0.35    	7.8353e-06
0.35    	0.4     	7.8565e-06
0.35    	0.45    	7.873e-06
0.35    	0.5     	7.8873e-06
0.35    	0.55    	7.9002e-06
0.35    	0.6     	7.9119e-06
0.35    	0.65    	7.9226e-06
0.35    	0.7     	7.9325e-06
0.4     	0       	2.3546e-08
0.4     	0.05    	5.2915e-06
0.4     	0.1     	8.8105e-06
0.4     	0.15    	1.0313e-05
0.4     	0.2     	1.0772e-05
0.4     	0.25    	1.091e-05
0.4     	0.3     	1.0962e-05
0.4     	0.35    	1.0991e-05
0.4     	0.4     	1.1013e-05
0.4     	0.45    	1.1032e-05
0.4     	0.5     	1.1048e-05
0.4     	0.55    	1.1062e-05
0.4     	0.6     	1.1075e-05
0.4     	0.65    	1.1088e-05
0.4     	0.7     	1.1099e-05
0.45    	0       	2.8308e-08
0.45    	0.05    	6.2424e-06
0.45    	0.1     	1.0798e-05
0.45    	0.15    	1.3207e-05
0.45    	0.2     	1.4044e-05
0.45    	0.25    	1.4289e-05
0.45    	0.3     	1.4371e-05
0.45    	0.35    	1.4416e-05
0.45    	0.4     	1.4442e-05
0.45    	0.45    	1.4464e-05
0.45    	0.5     	1.448e-05
0.45    	0.55    	1.4497e-05
0.45    	0.6     	1.4509e-05
0.45    	0.65    	1.4523e-05
0.45    	0.7     	1.4533e-05
0.5     	0       	3.2675e-08
0.5     	0.05    	7.0924e-06
0.5     	0.1     	1.2611e-05
0.5     	0.15    	1.601e-05
0.5     	0.2     	1.7412e-05
0.5     	0.25    	1.7829e-05
0.5     	0.3     	1.7979e-05
0.5     	0.35    	1.8028e-05
0.5     	0.4     	1.8074e-05
0.5     	0.45    	1.8098e-05
0.5     	0.5     	1.8115e-05
0.5     	0.55    	1.812e-05
0.5     	0.6     	1.813e-05
0.5     	0.65    	1.8156e-05
0.5     	0.7     	1.8162e-05
0.55    	0       	3.67e-08
0.55    	0.05    	7.7944e-06
0.55    	0.1     	1.4178e-05
0.55    	0.15    	1.8522e-05
0.55    	0.2     	2.0662e-05
0.55    	0.25    	2.1486e-05
0.55    	0.3     	2.172e-05
0.55    	0.35    	2.1802e-05
0.55    	0.4     	2.1829e-05
0.55    	0.45    	2.1867e-05
0.55    	0.5     	2.1893e-05
0.55    	0.55    	2.1898e-05
0.55    	0.6     	2.1919e-05
0.55    	0.65    	2.1937e-05
0.55    	0.7     	2.1937e-05
0.6     	0       	4.0458e-08
0.6     	0.05    	8.3939e-06
0.6     	0.1     	1.5513e-05
0.6     	0.15    	2.0788e-05
0.6     	0.2     	2.3832e-05
0.6     	0.25    	2.5077e-05
0.6     	0.3     	2.5547e-05
0.6     	0.35    	2.5688e-05
0.6     	0.4     	2.5746e-05
0.6     	0.45    	2.5778e-05
0.6     	0.5     	2.5801e-05
0.6     	0.55    	2.5819e-05
0.6     	0.6     	2.5835e-05
0.6     	0.65    	2.5848e-05
0.6     	0.7     	2.586e-05
0.65    	0       	4.4052e-08
0.65    	0.05    	8.9164e-06
0.65    	0.1     	1.6681e-05
0.65    	0.15    	2.2762e-05
0.65    	0.2     	2.6727e-05
0.65    	0.25    	2.8682e-05
0.65    	0.3     	2.942e-05
0.65    	0.35    	2.9687e-05
0.65    	0.4     	2.9762e-05
0.65    	0.45    	2.9798e-05
0.65    	0.5     	2.9824e-05
0.65    	0.55    	2.9841e-05
0.65    	0.6     	2.9857e-05
0.65    	0.65    	2.9885e-05
0.65    	0.7     	2.9892e-05
0.7     	0       	4.7549e-08
0.7     	0.05    	9.3736e-06
0.7     	0.1     	1.7696e-05
0.7     	0.15    	2.4478e-05
0.7     	0.2     	2.9292e-05
0.7     	0.25    	3.204e-05
0.7     	0.3     	3.3253e-05
0.7     	0.35    	3.3655e-05
0.7     	0.4     	3.3821e-05
0.7     	0.45    	3.39e-05
0.7     	0.5     	3.393e-05
0.7     	0.55    	3.3959e-05
0.7     	0.6     	3.3973e-05
0.7     	0.65    	3.3993e-05
0.7     	0.7     	3.4002e-05
