vg      	vd      	ids     
0       	0       	-8.8891e-12
0       	0.05    	8.7389e-10
0       	0.1     	1.0289e-09
0       	0.15    	1.0678e-09
0       	0.2     	1.0873e-09
0       	0.25    	1.1028e-09
0       	0.3     	1.1167e-09
0       	0.35    	1.1296e-09
0       	0.4     	1.1418e-09
0       	0.45    	1.1533e-09
0       	0.5     	1.1643e-09
0       	0.55    	1.1748e-09
0       	0.6     	1.185e-09
0       	0.65    	1.1949e-09
0       	0.7     	1.2044e-09
0.05    	0       	-3.0196e-11
0.05    	0.05    	5.3948e-09
0.05    	0.1     	6.3589e-09
0.05    	0.15    	6.599e-09
0.05    	0.2     	6.7163e-09
0.05    	0.25    	6.8075e-09
0.05    	0.3     	6.8896e-09
0.05    	0.35    	6.9664e-09
0.05    	0.4     	7.0393e-09
0.05    	0.45    	7.1092e-09
0.05    	0.5     	7.1763e-09
0.05    	0.55    	7.2409e-09
0.05    	0.6     	7.3031e-09
0.05    	0.65    	7.3632e-09
0.05    	0.7     	7.4214e-09
0.1     	0       	-1.1629e-10
0.1     	0.05    	3.2347e-08
0.1     	0.1     	3.8241e-08
0.1     	0.15    	3.968e-08
0.1     	0.2     	4.0349e-08
0.1     	0.25    	4.086e-08
0.1     	0.3     	4.1318e-08
0.1     	0.35    	4.175e-08
0.1     	0.4     	4.2161e-08
0.1     	0.45    	4.2555e-08
0.1     	0.5     	4.2931e-08
0.1     	0.55    	4.3291e-08
0.1     	0.6     	4.3634e-08
0.1     	0.65    	4.396e-08
0.1     	0.7     	4.4269e-08
0.15    	0       	-5.4458e-10
0.15    	0.05    	1.7018e-07
0.15    	0.1     	2.0441e-07
0.15    	0.15    	2.1231e-07
0.15    	0.2     	2.1556e-07
0.15    	0.25    	2.1785e-07
0.15    	0.3     	2.1984e-07
0.15    	0.35    	2.2165e-07
0.15    	0.4     	2.2334e-07
0.15    	0.45    	2.2492e-07
0.15    	0.5     	2.264e-07
0.15    	0.55    	2.2779e-07
0.15    	0.6     	2.291e-07
0.15    	0.65    	2.3034e-07
0.15    	0.7     	2.3152e-07
0.2     	0       	-1.5991e-09
0.2     	0.05    	6.2283e-07
0.2     	0.1     	7.8187e-07
0.2     	0.15    	8.1675e-07
0.2     	0.2     	8.2785e-07
0.2     	0.25    	8.3421e-07
0.2     	0.3     	8.3926e-07
0.2     	0.35    	8.4373e-07
0.2     	0.4     	8.4781e-07
0.2     	0.45    	8.5161e-07
0.2     	0.5     	8.5515e-07
0.2     	0.55    	8.5849e-07
0.2     	0.6     	8.6162e-07
0.2     	0.65    	8.6458e-07
0.2     	0.7     	8.6737e-07
0.25    	0       	-2.8888e-09
0.25    	0.05    	1.4327e-06
0.25    	0.1     	1.9228e-06
0.25    	0.15    	2.0369e-06
0.25    	0.2     	2.0671e-06
0.25    	0.25    	2.0804e-06
0.25    	0.3     	2.0895e-06
0.25    	0.35    	2.097e-06
0.25    	0.4     	2.1036e-06
0.25    	0.45    	2.1097e-06
0.25    	0.5     	2.1153e-06
0.25    	0.55    	2.1204e-06
0.25    	0.6     	2.1253e-06
0.25    	0.65    	2.1298e-06
0.25    	0.7     	2.134e-06
0.3     	0       	-3.7262e-09
0.3     	0.05    	2.3991e-06
0.3     	0.1     	3.452e-06
0.3     	0.15    	3.733e-06
0.3     	0.2     	3.8074e-06
0.3     	0.25    	3.8327e-06
0.3     	0.3     	3.847e-06
0.3     	0.35    	3.8579e-06
0.3     	0.4     	3.8672e-06
0.3     	0.45    	3.8754e-06
0.3     	0.5     	3.8829e-06
0.3     	0.55    	3.8897e-06
0.3     	0.6     	3.8961e-06
0.3     	0.65    	3.9019e-06
0.3     	0.7     	3.9074e-06
0.35    	0       	-4.2413e-09
0.35    	0.05    	3.3727e-06
0.35    	0.1     	5.1637e-06
0.35    	0.15    	5.731e-06
0.35    	0.2     	5.8777e-06
0.35    	0.25    	5.9268e-06
0.35    	0.3     	5.9488e-06
0.35    	0.35    	5.9621e-06
0.35    	0.4     	5.9756e-06
0.35    	0.45    	5.9864e-06
0.35    	0.5     	5.9957e-06
0.35    	0.55    	6.0042e-06
0.35    	0.6     	6.012e-06
0.35    	0.65    	6.0191e-06
0.35    	0.7     	6.0258e-06
0.4     	0       	-4.4442e-09
0.4     	0.05    	4.2932e-06
0.4     	0.1     	6.9227e-06
0.4     	0.15    	7.8986e-06
0.4     	0.2     	8.1767e-06
0.4     	0.25    	8.2564e-06
0.4     	0.3     	8.2895e-06
0.4     	0.35    	8.3099e-06
0.4     	0.4     	8.3255e-06
0.4     	0.45    	8.3385e-06
0.4     	0.5     	8.35e-06
0.4     	0.55    	8.3602e-06
0.4     	0.6     	8.3707e-06
0.4     	0.65    	8.3794e-06
0.4     	0.7     	8.3872e-06
0.45    	0       	-4.4648e-09
0.45    	0.05    	5.1413e-06
0.45    	0.1     	8.6445e-06
0.45    	0.15    	1.0144e-05
0.45    	0.2     	1.0623e-05
0.45    	0.25    	1.0764e-05
0.45    	0.3     	1.0813e-05
0.45    	0.35    	1.084e-05
0.45    	0.4     	1.0859e-05
0.45    	0.45    	1.0875e-05
0.45    	0.5     	1.0888e-05
0.45    	0.55    	1.09e-05
0.45    	0.6     	1.0911e-05
0.45    	0.65    	1.0921e-05
0.45    	0.7     	1.093e-05
0.5     	0       	-4.4078e-09
0.5     	0.05    	5.9132e-06
0.5     	0.1     	1.0276e-05
0.5     	0.15    	1.2419e-05
0.5     	0.2     	1.3171e-05
0.5     	0.25    	1.3398e-05
0.5     	0.3     	1.3477e-05
0.5     	0.35    	1.3513e-05
0.5     	0.4     	1.3537e-05
0.5     	0.45    	1.3555e-05
0.5     	0.5     	1.3578e-05
0.5     	0.55    	1.3585e-05
0.5     	0.6     	1.3595e-05
0.5     	0.65    	1.3606e-05
0.5     	0.7     	1.3616e-05
0.55    	0       	-4.2922e-09
0.55    	0.05    	6.6118e-06
0.55    	0.1     	1.172e-05
0.55    	0.15    	1.4654e-05
0.55    	0.2     	1.577e-05
0.55    	0.25    	1.6156e-05
0.55    	0.3     	1.625e-05
0.55    	0.35    	1.6295e-05
0.55    	0.4     	1.6338e-05
0.55    	0.45    	1.6349e-05
0.55    	0.5     	1.6363e-05
0.55    	0.55    	1.6388e-05
0.55    	0.6     	1.6395e-05
0.55    	0.65    	1.6403e-05
0.55    	0.7     	1.6422e-05
0.6     	0       	-4.1929e-09
0.6     	0.05    	7.2662e-06
0.6     	0.1     	1.3156e-05
0.6     	0.15    	1.6781e-05
0.6     	0.2     	1.8362e-05
0.6     	0.25    	1.8958e-05
0.6     	0.3     	1.9105e-05
0.6     	0.35    	1.9184e-05
0.6     	0.4     	1.9207e-05
0.6     	0.45    	1.924e-05
0.6     	0.5     	1.925e-05
0.6     	0.55    	1.9275e-05
0.6     	0.6     	1.9295e-05
0.6     	0.65    	1.9299e-05
0.6     	0.7     	1.9315e-05
0.65    	0       	-4.1176e-09
0.65    	0.05    	7.8618e-06
0.65    	0.1     	1.4351e-05
0.65    	0.15    	1.877e-05
0.65    	0.2     	2.098e-05
0.65    	0.25    	2.1771e-05
0.65    	0.3     	2.2033e-05
0.65    	0.35    	2.2133e-05
0.65    	0.4     	2.218e-05
0.65    	0.45    	2.2212e-05
0.65    	0.5     	2.2234e-05
0.65    	0.55    	2.2252e-05
0.65    	0.6     	2.2268e-05
0.65    	0.65    	2.2268e-05
0.65    	0.7     	2.2282e-05
0.7     	0       	-4.0624e-09
0.7     	0.05    	8.3573e-06
0.7     	0.1     	1.5466e-05
0.7     	0.15    	2.0591e-05
0.7     	0.2     	2.3409e-05
0.7     	0.25    	2.461e-05
0.7     	0.3     	2.5011e-05
0.7     	0.35    	2.5145e-05
0.7     	0.4     	2.5202e-05
0.7     	0.45    	2.5236e-05
0.7     	0.5     	2.5261e-05
0.7     	0.55    	2.5281e-05
0.7     	0.6     	2.5297e-05
0.7     	0.65    	2.5312e-05
0.7     	0.7     	2.5333e-05
