vg      	vd      	ids     
0       	0       	7.9003e-12
0       	0.05    	1.8698e-09
0       	0.1     	2.3074e-09
0       	0.15    	2.5002e-09
0       	0.2     	2.6362e-09
0       	0.25    	2.7571e-09
0       	0.3     	2.8754e-09
0       	0.35    	2.9944e-09
0       	0.4     	3.1148e-09
0       	0.45    	3.2366e-09
0       	0.5     	3.3597e-09
0       	0.55    	3.4839e-09
0       	0.6     	3.6089e-09
0       	0.65    	3.7343e-09
0       	0.7     	3.8597e-09
0.05    	0       	4.3432e-11
0.05    	0.05    	1.0381e-08
0.05    	0.1     	1.2826e-08
0.05    	0.15    	1.3825e-08
0.05    	0.2     	1.4533e-08
0.05    	0.25    	1.5188e-08
0.05    	0.3     	1.5838e-08
0.05    	0.35    	1.6492e-08
0.05    	0.4     	1.7154e-08
0.05    	0.45    	1.7821e-08
0.05    	0.5     	1.8491e-08
0.05    	0.55    	1.9156e-08
0.05    	0.6     	1.9803e-08
0.05    	0.65    	2.0411e-08
0.05    	0.7     	2.0969e-08
0.1     	0       	2.0624e-10
0.1     	0.05    	5.3927e-08
0.1     	0.1     	6.6686e-08
0.1     	0.15    	7.1616e-08
0.1     	0.2     	7.5152e-08
0.1     	0.25    	7.8418e-08
0.1     	0.3     	8.1605e-08
0.1     	0.35    	8.4724e-08
0.1     	0.4     	8.7703e-08
0.1     	0.45    	9.0448e-08
0.1     	0.5     	9.2964e-08
0.1     	0.55    	9.5335e-08
0.1     	0.6     	9.7628e-08
0.1     	0.65    	9.9874e-08
0.1     	0.7     	1.0209e-07
0.15    	0       	7.5118e-10
0.15    	0.05    	2.305e-07
0.15    	0.1     	2.8896e-07
0.15    	0.15    	3.0967e-07
0.15    	0.2     	3.2267e-07
0.15    	0.25    	3.3314e-07
0.15    	0.3     	3.4227e-07
0.15    	0.35    	3.5074e-07
0.15    	0.4     	3.5882e-07
0.15    	0.45    	3.667e-07
0.15    	0.5     	3.7444e-07
0.15    	0.55    	3.8206e-07
0.15    	0.6     	3.8955e-07
0.15    	0.65    	3.9689e-07
0.15    	0.7     	4.0405e-07
0.2     	0       	1.8944e-09
0.2     	0.05    	6.7611e-07
0.2     	0.1     	8.7941e-07
0.2     	0.15    	9.3782e-07
0.2     	0.2     	9.6593e-07
0.2     	0.25    	9.8685e-07
0.2     	0.3     	1.0053e-06
0.2     	0.35    	1.0222e-06
0.2     	0.4     	1.0381e-06
0.2     	0.45    	1.0528e-06
0.2     	0.5     	1.0665e-06
0.2     	0.55    	1.0793e-06
0.2     	0.6     	1.0914e-06
0.2     	0.65    	1.1029e-06
0.2     	0.7     	1.1139e-06
0.25    	0       	3.456e-09
0.25    	0.05    	1.3641e-06
0.25    	0.1     	1.8595e-06
0.25    	0.15    	1.9963e-06
0.25    	0.2     	2.0469e-06
0.25    	0.25    	2.0778e-06
0.25    	0.3     	2.1024e-06
0.25    	0.35    	2.124e-06
0.25    	0.4     	2.1438e-06
0.25    	0.45    	2.1624e-06
0.25    	0.5     	2.1799e-06
0.25    	0.55    	2.1967e-06
0.25    	0.6     	2.2128e-06
0.25    	0.65    	2.2283e-06
0.25    	0.7     	2.2432e-06
0.3     	0       	5.1788e-09
0.3     	0.05    	2.1476e-06
0.3     	0.1     	3.0878e-06
0.3     	0.15    	3.358e-06
0.3     	0.2     	3.4418e-06
0.3     	0.25    	3.4834e-06
0.3     	0.3     	3.5137e-06
0.3     	0.35    	3.5394e-06
0.3     	0.4     	3.5625e-06
0.3     	0.45    	3.5839e-06
0.3     	0.5     	3.6039e-06
0.3     	0.55    	3.6228e-06
0.3     	0.6     	3.6406e-06
0.3     	0.65    	3.6575e-06
0.3     	0.7     	3.6736e-06
0.35    	0       	6.9404e-09
0.35    	0.05    	2.9288e-06
0.35    	0.1     	4.4345e-06
0.35    	0.15    	4.8995e-06
0.35    	0.2     	5.0417e-06
0.35    	0.25    	5.0982e-06
0.35    	0.3     	5.1341e-06
0.35    	0.35    	5.1628e-06
0.35    	0.4     	5.188e-06
0.35    	0.45    	5.2109e-06
0.35    	0.5     	5.232e-06
0.35    	0.55    	5.2518e-06
0.35    	0.6     	5.2704e-06
0.35    	0.65    	5.2881e-06
0.35    	0.7     	5.3049e-06
0.4     	0       	8.648e-09
0.4     	0.05    	3.6665e-06
0.4     	0.1     	5.8041e-06
0.4     	0.15    	6.5493e-06
0.4     	0.2     	6.7711e-06
0.4     	0.25    	6.8548e-06
0.4     	0.3     	6.8981e-06
0.4     	0.35    	6.9301e-06
0.4     	0.4     	6.9573e-06
0.4     	0.45    	6.9816e-06
0.4     	0.5     	7.0039e-06
0.4     	0.55    	7.0246e-06
0.4     	0.6     	7.044e-06
0.4     	0.65    	7.0624e-06
0.4     	0.7     	7.0798e-06
0.45    	0       	1.0265e-08
0.45    	0.05    	4.3474e-06
0.45    	0.1     	7.1531e-06
0.45    	0.15    	8.255e-06
0.45    	0.2     	8.5998e-06
0.45    	0.25    	8.7089e-06
0.45    	0.3     	8.7618e-06
0.45    	0.35    	8.7982e-06
0.45    	0.4     	8.8278e-06
0.45    	0.45    	8.8538e-06
0.45    	0.5     	8.8773e-06
0.45    	0.55    	8.8989e-06
0.45    	0.6     	8.9212e-06
0.45    	0.65    	8.9388e-06
0.45    	0.7     	8.9579e-06
0.5     	0       	1.1756e-08
0.5     	0.05    	4.9696e-06
0.5     	0.1     	8.4446e-06
0.5     	0.15    	9.9773e-06
0.5     	0.2     	1.0483e-05
0.5     	0.25    	1.0643e-05
0.5     	0.3     	1.0709e-05
0.5     	0.35    	1.0751e-05
0.5     	0.4     	1.0782e-05
0.5     	0.45    	1.081e-05
0.5     	0.5     	1.0834e-05
0.5     	0.55    	1.0856e-05
0.5     	0.6     	1.0877e-05
0.5     	0.65    	1.0896e-05
0.5     	0.7     	1.0914e-05
0.55    	0       	1.3114e-08
0.55    	0.05    	5.5357e-06
0.55    	0.1     	9.6579e-06
0.55    	0.15    	1.1676e-05
0.55    	0.2     	1.2401e-05
0.55    	0.25    	1.2626e-05
0.55    	0.3     	1.2712e-05
0.55    	0.35    	1.2759e-05
0.55    	0.4     	1.2794e-05
0.55    	0.45    	1.2823e-05
0.55    	0.5     	1.2849e-05
0.55    	0.55    	1.2872e-05
0.55    	0.6     	1.2893e-05
0.55    	0.65    	1.2912e-05
0.55    	0.7     	1.293e-05
0.6     	0       	1.4327e-08
0.6     	0.05    	6.0499e-06
0.6     	0.1     	1.0716e-05
0.6     	0.15    	1.3338e-05
0.6     	0.2     	1.4339e-05
0.6     	0.25    	1.4653e-05
0.6     	0.3     	1.4789e-05
0.6     	0.35    	1.4825e-05
0.6     	0.4     	1.4866e-05
0.6     	0.45    	1.489e-05
0.6     	0.5     	1.4931e-05
0.6     	0.55    	1.4945e-05
0.6     	0.6     	1.4968e-05
0.6     	0.65    	1.4982e-05
0.6     	0.7     	1.5e-05 
0.65    	0       	1.5415e-08
0.65    	0.05    	6.5277e-06
0.65    	0.1     	1.1806e-05
0.65    	0.15    	1.4939e-05
0.65    	0.2     	1.6252e-05
0.65    	0.25    	1.6699e-05
0.65    	0.3     	1.6867e-05
0.65    	0.35    	1.6931e-05
0.65    	0.4     	1.6981e-05
0.65    	0.45    	1.7009e-05
0.65    	0.5     	1.7019e-05
0.65    	0.55    	1.7057e-05
0.65    	0.6     	1.7084e-05
0.65    	0.65    	1.71e-05
0.65    	0.7     	1.7121e-05
0.7     	0       	1.6385e-08
0.7     	0.05    	6.9789e-06
0.7     	0.1     	1.2679e-05
0.7     	0.15    	1.6459e-05
0.7     	0.2     	1.8181e-05
0.7     	0.25    	1.8751e-05
0.7     	0.3     	1.8984e-05
0.7     	0.35    	1.9045e-05
0.7     	0.4     	1.91e-05
0.7     	0.45    	1.9143e-05
0.7     	0.5     	1.9175e-05
0.7     	0.55    	1.9189e-05
0.7     	0.6     	1.9219e-05
0.7     	0.65    	1.9226e-05
0.7     	0.7     	1.9249e-05
