vg      	vd      	ids     
0       	0       	4.4577e-11
0       	0.05    	1.9407e-08
0       	0.1     	2.405e-08
0       	0.15    	2.6099e-08
0       	0.2     	2.7439e-08
0       	0.25    	2.855e-08
0       	0.3     	2.9581e-08
0       	0.35    	3.0545e-08
0       	0.4     	3.1485e-08
0       	0.45    	3.2387e-08
0       	0.5     	3.3263e-08
0       	0.55    	3.4115e-08
0       	0.6     	3.4948e-08
0       	0.65    	3.5762e-08
0       	0.7     	3.6558e-08
0.05    	0       	2.3104e-10
0.05    	0.05    	1.0083e-07
0.05    	0.1     	1.2568e-07
0.05    	0.15    	1.3511e-07
0.05    	0.2     	1.415e-07
0.05    	0.25    	1.4711e-07
0.05    	0.3     	1.5233e-07
0.05    	0.35    	1.5728e-07
0.05    	0.4     	1.6201e-07
0.05    	0.45    	1.6655e-07
0.05    	0.5     	1.7091e-07
0.05    	0.55    	1.7511e-07
0.05    	0.6     	1.7916e-07
0.05    	0.65    	1.8304e-07
0.05    	0.7     	1.8675e-07
0.1     	0       	8.8267e-10
0.1     	0.05    	4.1597e-07
0.1     	0.1     	5.255e-07
0.1     	0.15    	5.6451e-07
0.1     	0.2     	5.8929e-07
0.1     	0.25    	6.0998e-07
0.1     	0.3     	6.2835e-07
0.1     	0.35    	6.4461e-07
0.1     	0.4     	6.5869e-07
0.1     	0.45    	6.7089e-07
0.1     	0.5     	6.8258e-07
0.1     	0.55    	6.9241e-07
0.1     	0.6     	7.0155e-07
0.1     	0.65    	7.1018e-07
0.1     	0.7     	7.1839e-07
0.15    	0       	2.1443e-09
0.15    	0.05    	1.1626e-06
0.15    	0.1     	1.5471e-06
0.15    	0.15    	1.6656e-06
0.15    	0.2     	1.721e-06
0.15    	0.25    	1.7584e-06
0.15    	0.3     	1.7886e-06
0.15    	0.35    	1.8176e-06
0.15    	0.4     	1.8413e-06
0.15    	0.45    	1.8631e-06
0.15    	0.5     	1.8833e-06
0.15    	0.55    	1.9022e-06
0.15    	0.6     	1.92e-06
0.15    	0.65    	1.9369e-06
0.15    	0.7     	1.9529e-06
0.2     	0       	3.6218e-09
0.2     	0.05    	2.2266e-06
0.2     	0.1     	3.1968e-06
0.2     	0.15    	3.4994e-06
0.2     	0.2     	3.6027e-06
0.2     	0.25    	3.667e-06
0.2     	0.3     	3.7115e-06
0.2     	0.35    	3.7494e-06
0.2     	0.4     	3.7828e-06
0.2     	0.45    	3.8127e-06
0.2     	0.5     	3.8395e-06
0.2     	0.55    	3.8664e-06
0.2     	0.6     	3.8885e-06
0.2     	0.65    	3.9087e-06
0.2     	0.7     	3.9273e-06
0.25    	0       	5.0059e-09
0.25    	0.05    	3.3073e-06
0.25    	0.1     	5.1668e-06
0.25    	0.15    	5.8718e-06
0.25    	0.2     	6.0873e-06
0.25    	0.25    	6.174e-06
0.25    	0.3     	6.2288e-06
0.25    	0.35    	6.2715e-06
0.25    	0.4     	6.311e-06
0.25    	0.45    	6.3421e-06
0.25    	0.5     	6.3694e-06
0.25    	0.55    	6.3941e-06
0.25    	0.6     	6.4165e-06
0.25    	0.65    	6.4392e-06
0.25    	0.7     	6.4585e-06
0.3     	0       	6.2434e-09
0.3     	0.05    	4.2299e-06
0.3     	0.1     	7.101e-06
0.3     	0.15    	8.4918e-06
0.3     	0.2     	8.9418e-06
0.3     	0.25    	9.0971e-06
0.3     	0.3     	9.1682e-06
0.3     	0.35    	9.2213e-06
0.3     	0.4     	9.2602e-06
0.3     	0.45    	9.2932e-06
0.3     	0.5     	9.3224e-06
0.3     	0.55    	9.351e-06
0.3     	0.6     	9.3749e-06
0.3     	0.65    	9.3966e-06
0.3     	0.7     	9.4167e-06
0.35    	0       	7.3624e-09
0.35    	0.05    	4.9625e-06
0.35    	0.1     	8.7657e-06
0.35    	0.15    	1.1061e-05
0.35    	0.2     	1.1995e-05
0.35    	0.25    	1.2293e-05
0.35    	0.3     	1.2401e-05
0.35    	0.35    	1.2466e-05
0.35    	0.4     	1.2509e-05
0.35    	0.45    	1.2544e-05
0.35    	0.5     	1.2576e-05
0.35    	0.55    	1.2603e-05
0.35    	0.6     	1.2626e-05
0.35    	0.65    	1.2649e-05
0.35    	0.7     	1.2668e-05
0.4     	0       	8.3992e-09
0.4     	0.05    	5.5361e-06
0.4     	0.1     	1.01e-05
0.4     	0.15    	1.3311e-05
0.4     	0.2     	1.4969e-05
0.4     	0.25    	1.5584e-05
0.4     	0.3     	1.5795e-05
0.4     	0.35    	1.5886e-05
0.4     	0.4     	1.5935e-05
0.4     	0.45    	1.5974e-05
0.4     	0.5     	1.6003e-05
0.4     	0.55    	1.6028e-05
0.4     	0.6     	1.6051e-05
0.4     	0.65    	1.607e-05
0.4     	0.7     	1.6089e-05
0.45    	0       	9.3749e-09
0.45    	0.05    	5.9915e-06
0.45    	0.1     	1.1149e-05
0.45    	0.15    	1.5125e-05
0.45    	0.2     	1.7532e-05
0.45    	0.25    	1.8785e-05
0.45    	0.3     	1.9216e-05
0.45    	0.35    	1.9373e-05
0.45    	0.4     	1.9445e-05
0.45    	0.45    	1.9486e-05
0.45    	0.5     	1.9518e-05
0.45    	0.55    	1.9543e-05
0.45    	0.6     	1.9563e-05
0.45    	0.65    	1.9582e-05
0.45    	0.7     	1.9598e-05
0.5     	0       	1.0304e-08
0.5     	0.05    	6.3621e-06
0.5     	0.1     	1.1982e-05
0.5     	0.15    	1.6543e-05
0.5     	0.2     	1.9635e-05
0.5     	0.25    	2.1544e-05
0.5     	0.3     	2.2476e-05
0.5     	0.35    	2.2806e-05
0.5     	0.4     	2.2935e-05
0.5     	0.45    	2.2997e-05
0.5     	0.5     	2.3034e-05
0.5     	0.55    	2.306e-05
0.5     	0.6     	2.3082e-05
0.5     	0.65    	2.3099e-05
0.5     	0.7     	2.3114e-05
0.55    	0       	1.1198e-08
0.55    	0.05    	6.7312e-06
0.55    	0.1     	1.2655e-05
0.55    	0.15    	1.7655e-05
0.55    	0.2     	2.1264e-05
0.55    	0.25    	2.377e-05
0.55    	0.3     	2.5288e-05
0.55    	0.35    	2.5985e-05
0.55    	0.4     	2.6275e-05
0.55    	0.45    	2.639e-05
0.55    	0.5     	2.6445e-05
0.55    	0.55    	2.6478e-05
0.55    	0.6     	2.6501e-05
0.55    	0.65    	2.6519e-05
0.55    	0.7     	2.6533e-05
0.6     	0       	1.2044e-08
0.6     	0.05    	6.993e-06
0.6     	0.1     	1.3202e-05
0.6     	0.15    	1.8533e-05
0.6     	0.2     	2.2515e-05
0.6     	0.25    	2.5452e-05
0.6     	0.3     	2.7396e-05
0.6     	0.35    	2.8617e-05
0.6     	0.4     	2.9238e-05
0.6     	0.45    	2.9508e-05
0.6     	0.5     	2.9623e-05
0.6     	0.55    	2.968e-05
0.6     	0.6     	2.9711e-05
0.6     	0.65    	2.9732e-05
0.6     	0.7     	2.9746e-05
0.65    	0       	1.2809e-08
0.65    	0.05    	7.1998e-06
0.65    	0.1     	1.3643e-05
0.65    	0.15    	1.9224e-05
0.65    	0.2     	2.3476e-05
0.65    	0.25    	2.6708e-05
0.65    	0.3     	2.8976e-05
0.65    	0.35    	3.0571e-05
0.65    	0.4     	3.1522e-05
0.65    	0.45    	3.2096e-05
0.65    	0.5     	3.2392e-05
0.65    	0.55    	3.2523e-05
0.65    	0.6     	3.2593e-05
0.65    	0.65    	3.2626e-05
0.65    	0.7     	3.2642e-05
0.7     	0       	1.3481e-08
0.7     	0.05    	7.2825e-06
0.7     	0.1     	1.3983e-05
0.7     	0.15    	1.9771e-05
0.7     	0.2     	2.422e-05
0.7     	0.25    	2.7657e-05
0.7     	0.3     	3.0137e-05
0.7     	0.35    	3.1889e-05
0.7     	0.4     	3.3159e-05
0.7     	0.45    	3.396e-05
0.7     	0.5     	3.4452e-05
0.7     	0.55    	3.4744e-05
0.7     	0.6     	3.4895e-05
0.7     	0.65    	3.4952e-05
0.7     	0.7     	3.4973e-05
