vg      	vd      	ids     
0       	0       	-1.051e-13
0       	0.05    	3.4219e-11
0       	0.1     	3.9475e-11
0       	0.15    	4.0431e-11
0       	0.2     	4.0742e-11
0       	0.25    	4.0947e-11
0       	0.3     	4.1126e-11
0       	0.35    	4.1292e-11
0       	0.4     	4.1448e-11
0       	0.45    	4.1594e-11
0       	0.5     	4.1732e-11
0       	0.55    	4.1862e-11
0       	0.6     	4.1986e-11
0       	0.65    	4.2104e-11
0       	0.7     	4.2217e-11
0.05    	0       	-7.3002e-13
0.05    	0.05    	2.2957e-10
0.05    	0.1     	2.652e-10
0.05    	0.15    	2.7173e-10
0.05    	0.2     	2.7387e-10
0.05    	0.25    	2.7526e-10
0.05    	0.3     	2.7647e-10
0.05    	0.35    	2.7759e-10
0.05    	0.4     	2.7863e-10
0.05    	0.45    	2.7961e-10
0.05    	0.5     	2.8052e-10
0.05    	0.55    	2.8138e-10
0.05    	0.6     	2.8219e-10
0.05    	0.65    	2.8296e-10
0.05    	0.7     	2.837e-10
0.1     	0       	-5.2563e-12
0.1     	0.05    	1.5442e-09
0.1     	0.1     	1.7864e-09
0.1     	0.15    	1.831e-09
0.1     	0.2     	1.8457e-09
0.1     	0.25    	1.8553e-09
0.1     	0.3     	1.8634e-09
0.1     	0.35    	1.8708e-09
0.1     	0.4     	1.8777e-09
0.1     	0.45    	1.8842e-09
0.1     	0.5     	1.8902e-09
0.1     	0.55    	1.8958e-09
0.1     	0.6     	1.9011e-09
0.1     	0.65    	1.9061e-09
0.1     	0.7     	1.9109e-09
0.15    	0       	-2.3593e-11
0.15    	0.05    	1.0042e-08
0.15    	0.1     	1.1654e-08
0.15    	0.15    	1.1957e-08
0.15    	0.2     	1.2055e-08
0.15    	0.25    	1.2117e-08
0.15    	0.3     	1.2169e-08
0.15    	0.35    	1.2215e-08
0.15    	0.4     	1.2258e-08
0.15    	0.45    	1.2298e-08
0.15    	0.5     	1.2336e-08
0.15    	0.55    	1.2371e-08
0.15    	0.6     	1.2404e-08
0.15    	0.65    	1.2435e-08
0.15    	0.7     	1.2464e-08
0.2     	0       	-8.5671e-11
0.2     	0.05    	6.0013e-08
0.2     	0.1     	7.0426e-08
0.2     	0.15    	7.2383e-08
0.2     	0.2     	7.2982e-08
0.2     	0.25    	7.3336e-08
0.2     	0.3     	7.3622e-08
0.2     	0.35    	7.3874e-08
0.2     	0.4     	7.4103e-08
0.2     	0.45    	7.4315e-08
0.2     	0.5     	7.4511e-08
0.2     	0.55    	7.4695e-08
0.2     	0.6     	7.4866e-08
0.2     	0.65    	7.5028e-08
0.2     	0.7     	7.518e-08
0.25    	0       	-2.1912e-10
0.25    	0.05    	2.6829e-07
0.25    	0.1     	3.2801e-07
0.25    	0.15    	3.3941e-07
0.25    	0.2     	3.4235e-07
0.25    	0.25    	3.4378e-07
0.25    	0.3     	3.4484e-07
0.25    	0.35    	3.4574e-07
0.25    	0.4     	3.4653e-07
0.25    	0.45    	3.4724e-07
0.25    	0.5     	3.479e-07
0.25    	0.55    	3.4851e-07
0.25    	0.6     	3.4907e-07
0.25    	0.65    	3.496e-07
0.25    	0.7     	3.5009e-07
0.3     	0       	-3.7302e-10
0.3     	0.05    	7.0977e-07
0.3     	0.1     	9.5074e-07
0.3     	0.15    	1.0038e-06
0.3     	0.2     	1.0158e-06
0.3     	0.25    	1.0201e-06
0.3     	0.3     	1.0227e-06
0.3     	0.35    	1.0248e-06
0.3     	0.4     	1.0265e-06
0.3     	0.45    	1.0281e-06
0.3     	0.5     	1.0294e-06
0.3     	0.55    	1.0307e-06
0.3     	0.6     	1.0318e-06
0.3     	0.65    	1.0329e-06
0.3     	0.7     	1.0338e-06
0.35    	0       	-4.8698e-10
0.35    	0.05    	1.2114e-06
0.35    	0.1     	1.8229e-06
0.35    	0.15    	2.0034e-06
0.35    	0.2     	2.0479e-06
0.35    	0.25    	2.06e-06
0.35    	0.3     	2.0654e-06
0.35    	0.35    	2.0691e-06
0.35    	0.4     	2.072e-06
0.35    	0.45    	2.0745e-06
0.35    	0.5     	2.0767e-06
0.35    	0.55    	2.0787e-06
0.35    	0.6     	2.0807e-06
0.35    	0.65    	2.0824e-06
0.35    	0.7     	2.0838e-06
0.4     	0       	-5.6288e-10
0.4     	0.05    	1.6275e-06
0.4     	0.1     	2.695e-06
0.4     	0.15    	3.1541e-06
0.4     	0.2     	3.2821e-06
0.4     	0.25    	3.317e-06
0.4     	0.3     	3.3286e-06
0.4     	0.35    	3.3347e-06
0.4     	0.4     	3.3391e-06
0.4     	0.45    	3.3427e-06
0.4     	0.5     	3.3458e-06
0.4     	0.55    	3.3488e-06
0.4     	0.6     	3.3513e-06
0.4     	0.65    	3.3534e-06
0.4     	0.7     	3.3554e-06
0.45    	0       	-6.1037e-10
0.45    	0.05    	1.9415e-06
0.45    	0.1     	3.4326e-06
0.45    	0.15    	4.2821e-06
0.45    	0.2     	4.5933e-06
0.45    	0.25    	4.6834e-06
0.45    	0.3     	4.7109e-06
0.45    	0.35    	4.7216e-06
0.45    	0.4     	4.7279e-06
0.45    	0.45    	4.7328e-06
0.45    	0.5     	4.7368e-06
0.45    	0.55    	4.7406e-06
0.45    	0.6     	4.7437e-06
0.45    	0.65    	4.7463e-06
0.45    	0.7     	4.7487e-06
0.5     	0       	-6.3558e-10
0.5     	0.05    	2.1896e-06
0.5     	0.1     	4.0001e-06
0.5     	0.15    	5.2575e-06
0.5     	0.2     	5.8527e-06
0.5     	0.25    	6.0801e-06
0.5     	0.3     	6.1425e-06
0.5     	0.35    	6.1645e-06
0.5     	0.4     	6.1747e-06
0.5     	0.45    	6.1811e-06
0.5     	0.5     	6.1861e-06
0.5     	0.55    	6.1907e-06
0.5     	0.6     	6.1944e-06
0.5     	0.65    	6.1975e-06
0.5     	0.7     	6.2006e-06
0.55    	0       	-6.4702e-10
0.55    	0.05    	2.3688e-06
0.55    	0.1     	4.4255e-06
0.55    	0.15    	6.0225e-06
0.55    	0.2     	6.9571e-06
0.55    	0.25    	7.4141e-06
0.55    	0.3     	7.5658e-06
0.55    	0.35    	7.6142e-06
0.55    	0.4     	7.6316e-06
0.55    	0.45    	7.6407e-06
0.55    	0.5     	7.647e-06
0.55    	0.55    	7.6524e-06
0.55    	0.6     	7.6567e-06
0.55    	0.65    	7.6606e-06
0.55    	0.7     	7.6638e-06
0.6     	0       	-6.5456e-10
0.6     	0.05    	2.5137e-06
0.6     	0.1     	4.7477e-06
0.6     	0.15    	6.5912e-06
0.6     	0.2     	7.8646e-06
0.6     	0.25    	8.5858e-06
0.6     	0.3     	8.905e-06
0.6     	0.35    	9.0187e-06
0.6     	0.4     	9.0573e-06
0.6     	0.45    	9.0725e-06
0.6     	0.5     	9.0816e-06
0.6     	0.55    	9.0877e-06
0.6     	0.6     	9.0928e-06
0.6     	0.65    	9.0968e-06
0.6     	0.7     	9.1003e-06
0.65    	0       	-6.6507e-10
0.65    	0.05    	2.6229e-06
0.65    	0.1     	5.0059e-06
0.65    	0.15    	7.0057e-06
0.65    	0.2     	8.5198e-06
0.65    	0.25    	9.4701e-06
0.65    	0.3     	1.0064e-05
0.65    	0.35    	1.032e-05
0.65    	0.4     	1.0408e-05
0.65    	0.45    	1.0439e-05
0.65    	0.5     	1.0453e-05
0.65    	0.55    	1.0461e-05
0.65    	0.6     	1.0467e-05
0.65    	0.65    	1.0471e-05
0.65    	0.7     	1.0475e-05
0.7     	0       	-6.7574e-10
0.7     	0.05    	2.6982e-06
0.7     	0.1     	5.1747e-06
0.7     	0.15    	7.3045e-06
0.7     	0.2     	8.9829e-06
0.7     	0.25    	1.0126e-05
0.7     	0.3     	1.0953e-05
0.7     	0.35    	1.1414e-05
0.7     	0.4     	1.162e-05
0.7     	0.45    	1.1694e-05
0.7     	0.5     	1.1722e-05
0.7     	0.55    	1.1735e-05
0.7     	0.6     	1.1743e-05
0.7     	0.65    	1.1748e-05
0.7     	0.7     	1.1752e-05
