vg      	vd      	ids     
0       	0       	7.033e-11
0       	0.05    	5.2344e-09
0       	0.1     	6.3146e-09
0       	0.15    	6.7066e-09
0       	0.2     	6.9594e-09
0       	0.25    	7.169e-09
0       	0.3     	7.3626e-09
0       	0.35    	7.5489e-09
0       	0.4     	7.7282e-09
0       	0.45    	7.9065e-09
0       	0.5     	8.0817e-09
0       	0.55    	8.2557e-09
0       	0.6     	8.4243e-09
0       	0.65    	8.59e-09
0       	0.7     	8.7532e-09
0.05    	0       	4.0917e-10
0.05    	0.05    	3.0186e-08
0.05    	0.1     	3.647e-08
0.05    	0.15    	3.8606e-08
0.05    	0.2     	3.9933e-08
0.05    	0.25    	4.1076e-08
0.05    	0.3     	4.216e-08
0.05    	0.35    	4.3217e-08
0.05    	0.4     	4.4253e-08
0.05    	0.45    	4.5256e-08
0.05    	0.5     	4.6252e-08
0.05    	0.55    	4.7225e-08
0.05    	0.6     	4.8181e-08
0.05    	0.65    	4.9092e-08
0.05    	0.7     	4.9965e-08
0.1     	0       	2.075e-09
0.1     	0.05    	1.5884e-07
0.1     	0.1     	1.9314e-07
0.1     	0.15    	2.039e-07
0.1     	0.2     	2.1042e-07
0.1     	0.25    	2.1601e-07
0.1     	0.3     	2.2125e-07
0.1     	0.35    	2.2622e-07
0.1     	0.4     	2.309e-07
0.1     	0.45    	2.352e-07
0.1     	0.5     	2.3916e-07
0.1     	0.55    	2.428e-07
0.1     	0.6     	2.4618e-07
0.1     	0.65    	2.4937e-07
0.1     	0.7     	2.524e-07
0.15    	0       	7.4858e-09
0.15    	0.05    	6.4331e-07
0.15    	0.1     	8.018e-07
0.15    	0.15    	8.4595e-07
0.15    	0.2     	8.6772e-07
0.15    	0.25    	8.8378e-07
0.15    	0.3     	8.9752e-07
0.15    	0.35    	9.0997e-07
0.15    	0.4     	9.2159e-07
0.15    	0.45    	9.3307e-07
0.15    	0.5     	9.4359e-07
0.15    	0.55    	9.5368e-07
0.15    	0.6     	9.6335e-07
0.15    	0.65    	9.7212e-07
0.15    	0.7     	9.8099e-07
0.2     	0       	1.7098e-08
0.2     	0.05    	1.7227e-06
0.2     	0.1     	2.2459e-06
0.2     	0.15    	2.3765e-06
0.2     	0.2     	2.4255e-06
0.2     	0.25    	2.4561e-06
0.2     	0.3     	2.4809e-06
0.2     	0.35    	2.5028e-06
0.2     	0.4     	2.5227e-06
0.2     	0.45    	2.5436e-06
0.2     	0.5     	2.5606e-06
0.2     	0.55    	2.5764e-06
0.2     	0.6     	2.5911e-06
0.2     	0.65    	2.6049e-06
0.2     	0.7     	2.618e-06
0.25    	0       	2.8647e-08
0.25    	0.05    	3.2545e-06
0.25    	0.1     	4.4901e-06
0.25    	0.15    	4.8173e-06
0.25    	0.2     	4.9201e-06
0.25    	0.25    	4.9667e-06
0.25    	0.3     	4.9998e-06
0.25    	0.35    	5.0278e-06
0.25    	0.4     	5.0527e-06
0.25    	0.45    	5.0754e-06
0.25    	0.5     	5.0965e-06
0.25    	0.55    	5.1162e-06
0.25    	0.6     	5.1346e-06
0.25    	0.65    	5.152e-06
0.25    	0.7     	5.1683e-06
0.3     	0       	4.0332e-08
0.3     	0.05    	4.9708e-06
0.3     	0.1     	7.2683e-06
0.3     	0.15    	7.9517e-06
0.3     	0.2     	8.1357e-06
0.3     	0.25    	8.2135e-06
0.3     	0.3     	8.2571e-06
0.3     	0.35    	8.2909e-06
0.3     	0.4     	8.3201e-06
0.3     	0.45    	8.3463e-06
0.3     	0.5     	8.3703e-06
0.3     	0.55    	8.3923e-06
0.3     	0.6     	8.4128e-06
0.3     	0.65    	8.432e-06
0.3     	0.7     	8.4499e-06
0.35    	0       	5.1387e-08
0.35    	0.05    	6.6891e-06
0.35    	0.1     	1.0332e-05
0.35    	0.15    	1.1566e-05
0.35    	0.2     	1.1913e-05
0.35    	0.25    	1.2025e-05
0.35    	0.3     	1.2083e-05
0.35    	0.35    	1.2124e-05
0.35    	0.4     	1.2158e-05
0.35    	0.45    	1.2191e-05
0.35    	0.5     	1.2219e-05
0.35    	0.55    	1.2243e-05
0.35    	0.6     	1.2265e-05
0.35    	0.65    	1.2286e-05
0.35    	0.7     	1.2305e-05
0.4     	0       	6.1588e-08
0.4     	0.05    	8.3064e-06
0.4     	0.1     	1.3479e-05
0.4     	0.15    	1.5495e-05
0.4     	0.2     	1.6098e-05
0.4     	0.25    	1.6289e-05
0.4     	0.3     	1.6368e-05
0.4     	0.35    	1.6418e-05
0.4     	0.4     	1.6456e-05
0.4     	0.45    	1.6489e-05
0.4     	0.5     	1.6519e-05
0.4     	0.55    	1.6545e-05
0.4     	0.6     	1.6569e-05
0.4     	0.65    	1.6593e-05
0.4     	0.7     	1.6614e-05
0.45    	0       	7.0932e-08
0.45    	0.05    	9.7782e-06
0.45    	0.1     	1.6527e-05
0.45    	0.15    	1.9583e-05
0.45    	0.2     	2.0603e-05
0.45    	0.25    	2.0899e-05
0.45    	0.3     	2.1011e-05
0.45    	0.35    	2.1079e-05
0.45    	0.4     	2.1121e-05
0.45    	0.45    	2.116e-05
0.45    	0.5     	2.1193e-05
0.45    	0.55    	2.1222e-05
0.45    	0.6     	2.1247e-05
0.45    	0.65    	2.127e-05
0.45    	0.7     	2.1292e-05
0.5     	0       	7.9503e-08
0.5     	0.05    	1.1098e-05
0.5     	0.1     	1.9378e-05
0.5     	0.15    	2.3659e-05
0.5     	0.2     	2.5292e-05
0.5     	0.25    	2.5791e-05
0.5     	0.3     	2.5959e-05
0.5     	0.35    	2.6039e-05
0.5     	0.4     	2.6092e-05
0.5     	0.45    	2.6134e-05
0.5     	0.5     	2.6169e-05
0.5     	0.55    	2.6199e-05
0.5     	0.6     	2.6227e-05
0.5     	0.65    	2.6252e-05
0.5     	0.7     	2.6276e-05
0.55    	0       	8.7561e-08
0.55    	0.05    	1.2275e-05
0.55    	0.1     	2.1971e-05
0.55    	0.15    	2.7638e-05
0.55    	0.2     	3.0048e-05
0.55    	0.25    	3.0849e-05
0.55    	0.3     	3.1107e-05
0.55    	0.35    	3.1215e-05
0.55    	0.4     	3.1278e-05
0.55    	0.45    	3.1362e-05
0.55    	0.5     	3.1385e-05
0.55    	0.55    	3.1421e-05
0.55    	0.6     	3.1444e-05
0.55    	0.65    	3.1476e-05
0.55    	0.7     	3.1492e-05
0.6     	0       	9.4584e-08
0.6     	0.05    	1.3323e-05
0.6     	0.1     	2.4127e-05
0.6     	0.15    	3.1356e-05
0.6     	0.2     	3.4758e-05
0.6     	0.25    	3.6033e-05
0.6     	0.3     	3.6435e-05
0.6     	0.35    	3.6643e-05
0.6     	0.4     	3.6695e-05
0.6     	0.45    	3.6732e-05
0.6     	0.5     	3.6806e-05
0.6     	0.55    	3.6826e-05
0.6     	0.6     	3.6844e-05
0.6     	0.65    	3.6894e-05
0.6     	0.7     	3.6932e-05
0.65    	0       	1.0105e-07
0.65    	0.05    	1.4335e-05
0.65    	0.1     	2.633e-05
0.65    	0.15    	3.4715e-05
0.65    	0.2     	3.9329e-05
0.65    	0.25    	4.125e-05
0.65    	0.3     	4.1921e-05
0.65    	0.35    	4.2193e-05
0.65    	0.4     	4.2295e-05
0.65    	0.45    	4.2329e-05
0.65    	0.5     	4.2391e-05
0.65    	0.55    	4.2442e-05
0.65    	0.6     	4.2496e-05
0.65    	0.65    	4.249e-05
0.65    	0.7     	4.2524e-05
0.7     	0       	1.0708e-07
0.7     	0.05    	1.5075e-05
0.7     	0.1     	2.8012e-05
0.7     	0.15    	3.7961e-05
0.7     	0.2     	4.3706e-05
0.7     	0.25    	4.6469e-05
0.7     	0.3     	4.7534e-05
0.7     	0.35    	4.7895e-05
0.7     	0.4     	4.8036e-05
0.7     	0.45    	4.8108e-05
0.7     	0.5     	4.8163e-05
0.7     	0.55    	4.8203e-05
0.7     	0.6     	4.8234e-05
0.7     	0.65    	4.8261e-05
0.7     	0.7     	4.8284e-05
