vg      	vd      	ids     
0       	0       	1.5768e-13
0       	0.05    	4.2184e-11
0       	0.1     	4.8707e-11
0       	0.15    	5.0006e-11
0       	0.2     	5.0509e-11
0       	0.25    	5.0871e-11
0       	0.3     	5.1193e-11
0       	0.35    	5.149e-11
0       	0.4     	5.1769e-11
0       	0.45    	5.2031e-11
0       	0.5     	5.2278e-11
0       	0.55    	5.2514e-11
0       	0.6     	5.2739e-11
0       	0.65    	5.2954e-11
0       	0.7     	5.316e-11
0.05    	0       	9.451e-13
0.05    	0.05    	2.8208e-10
0.05    	0.1     	3.2646e-10
0.05    	0.15    	3.3534e-10
0.05    	0.2     	3.388e-10
0.05    	0.25    	3.4129e-10
0.05    	0.3     	3.4347e-10
0.05    	0.35    	3.4549e-10
0.05    	0.4     	3.4736e-10
0.05    	0.45    	3.4912e-10
0.05    	0.5     	3.5077e-10
0.05    	0.55    	3.5234e-10
0.05    	0.6     	3.5383e-10
0.05    	0.65    	3.5525e-10
0.05    	0.7     	3.5662e-10
0.1     	0       	6.124e-12
0.1     	0.05    	1.8706e-09
0.1     	0.1     	2.1681e-09
0.1     	0.15    	2.2288e-09
0.1     	0.2     	2.2524e-09
0.1     	0.25    	2.2692e-09
0.1     	0.3     	2.2838e-09
0.1     	0.35    	2.2971e-09
0.1     	0.4     	2.3095e-09
0.1     	0.45    	2.321e-09
0.1     	0.5     	2.3318e-09
0.1     	0.55    	2.3419e-09
0.1     	0.6     	2.3515e-09
0.1     	0.65    	2.3607e-09
0.1     	0.7     	2.3694e-09
0.15    	0       	3.7523e-11
0.15    	0.05    	1.1989e-08
0.15    	0.1     	1.3962e-08
0.15    	0.15    	1.4366e-08
0.15    	0.2     	1.452e-08
0.15    	0.25    	1.4627e-08
0.15    	0.3     	1.4718e-08
0.15    	0.35    	1.48e-08
0.15    	0.4     	1.4876e-08
0.15    	0.45    	1.4945e-08
0.15    	0.5     	1.501e-08
0.15    	0.55    	1.5071e-08
0.15    	0.6     	1.5128e-08
0.15    	0.65    	1.5181e-08
0.15    	0.7     	1.5232e-08
0.2     	0       	1.8107e-10
0.2     	0.05    	6.7494e-08
0.2     	0.1     	7.9936e-08
0.2     	0.15    	8.2431e-08
0.2     	0.2     	8.3298e-08
0.2     	0.25    	8.3851e-08
0.2     	0.3     	8.4305e-08
0.2     	0.35    	8.4705e-08
0.2     	0.4     	8.5066e-08
0.2     	0.45    	8.5395e-08
0.2     	0.5     	8.5699e-08
0.2     	0.55    	8.5981e-08
0.2     	0.6     	8.6244e-08
0.2     	0.65    	8.649e-08
0.2     	0.7     	8.6722e-08
0.25    	0       	5.2691e-10
0.25    	0.05    	2.5774e-07
0.25    	0.1     	3.2113e-07
0.25    	0.15    	3.3401e-07
0.25    	0.2     	3.3765e-07
0.25    	0.25    	3.3955e-07
0.25    	0.3     	3.4098e-07
0.25    	0.35    	3.4218e-07
0.25    	0.4     	3.4325e-07
0.25    	0.45    	3.4419e-07
0.25    	0.5     	3.4506e-07
0.25    	0.55    	3.4585e-07
0.25    	0.6     	3.4657e-07
0.25    	0.65    	3.4725e-07
0.25    	0.7     	3.4788e-07
0.3     	0       	1.0211e-09
0.3     	0.05    	5.8648e-07
0.3     	0.1     	7.9617e-07
0.3     	0.15    	8.4466e-07
0.3     	0.2     	8.5682e-07
0.3     	0.25    	8.6174e-07
0.3     	0.3     	8.6489e-07
0.3     	0.35    	8.6739e-07
0.3     	0.4     	8.6951e-07
0.3     	0.45    	8.7135e-07
0.3     	0.5     	8.7299e-07
0.3     	0.55    	8.7447e-07
0.3     	0.6     	8.7604e-07
0.3     	0.65    	8.7728e-07
0.3     	0.7     	8.7841e-07
0.35    	0       	1.4379e-09
0.35    	0.05    	9.3672e-07
0.35    	0.1     	1.3982e-06
0.35    	0.15    	1.5351e-06
0.35    	0.2     	1.5689e-06
0.35    	0.25    	1.5798e-06
0.35    	0.3     	1.5856e-06
0.35    	0.35    	1.5897e-06
0.35    	0.4     	1.5935e-06
0.35    	0.45    	1.5964e-06
0.35    	0.5     	1.5988e-06
0.35    	0.55    	1.601e-06
0.35    	0.6     	1.6029e-06
0.35    	0.65    	1.6047e-06
0.35    	0.7     	1.6063e-06
0.4     	0       	1.7762e-09
0.4     	0.05    	1.2387e-06
0.4     	0.1     	2.0084e-06
0.4     	0.15    	2.3029e-06
0.4     	0.2     	2.387e-06
0.4     	0.25    	2.4104e-06
0.4     	0.3     	2.4203e-06
0.4     	0.35    	2.4265e-06
0.4     	0.4     	2.4318e-06
0.4     	0.45    	2.4358e-06
0.4     	0.5     	2.4391e-06
0.4     	0.55    	2.4419e-06
0.4     	0.6     	2.4445e-06
0.4     	0.65    	2.4468e-06
0.4     	0.7     	2.4489e-06
0.45    	0       	2.0515e-09
0.45    	0.05    	1.4824e-06
0.45    	0.1     	2.5495e-06
0.45    	0.15    	3.0757e-06
0.45    	0.2     	3.2513e-06
0.45    	0.25    	3.3031e-06
0.45    	0.3     	3.3204e-06
0.45    	0.35    	3.3294e-06
0.45    	0.4     	3.3357e-06
0.45    	0.45    	3.3414e-06
0.45    	0.5     	3.3457e-06
0.45    	0.55    	3.3493e-06
0.45    	0.6     	3.3524e-06
0.45    	0.65    	3.3553e-06
0.45    	0.7     	3.3578e-06
0.5     	0       	2.2783e-09
0.5     	0.05    	1.6776e-06
0.5     	0.1     	3.0059e-06
0.5     	0.15    	3.7996e-06
0.5     	0.2     	4.1195e-06
0.5     	0.25    	4.2261e-06
0.5     	0.3     	4.2571e-06
0.5     	0.35    	4.2706e-06
0.5     	0.4     	4.279e-06
0.5     	0.45    	4.2853e-06
0.5     	0.5     	4.2904e-06
0.5     	0.55    	4.2952e-06
0.5     	0.6     	4.2991e-06
0.5     	0.65    	4.3025e-06
0.5     	0.7     	4.3054e-06
0.55    	0       	2.4684e-09
0.55    	0.05    	1.8361e-06
0.55    	0.1     	3.3772e-06
0.55    	0.15    	4.4383e-06
0.55    	0.2     	4.9515e-06
0.55    	0.25    	5.1493e-06
0.55    	0.3     	5.2075e-06
0.55    	0.35    	5.2309e-06
0.55    	0.4     	5.2425e-06
0.55    	0.45    	5.2503e-06
0.55    	0.5     	5.2565e-06
0.55    	0.55    	5.2616e-06
0.55    	0.6     	5.2663e-06
0.55    	0.65    	5.2703e-06
0.55    	0.7     	5.2737e-06
0.6     	0       	2.6306e-09
0.6     	0.05    	1.9718e-06
0.6     	0.1     	3.678e-06
0.6     	0.15    	4.9757e-06
0.6     	0.2     	5.7102e-06
0.6     	0.25    	6.0447e-06
0.6     	0.3     	6.1565e-06
0.6     	0.35    	6.1938e-06
0.6     	0.4     	6.2116e-06
0.6     	0.45    	6.2218e-06
0.6     	0.5     	6.2291e-06
0.6     	0.55    	6.235e-06
0.6     	0.6     	6.2399e-06
0.6     	0.65    	6.2445e-06
0.6     	0.7     	6.2484e-06
0.65    	0       	2.7712e-09
0.65    	0.05    	2.0834e-06
0.65    	0.1     	3.9216e-06
0.65    	0.15    	5.3969e-06
0.65    	0.2     	6.3706e-06
0.65    	0.25    	6.8661e-06
0.65    	0.3     	7.078e-06
0.65    	0.35    	7.1484e-06
0.65    	0.4     	7.1746e-06
0.65    	0.45    	7.189e-06
0.65    	0.5     	7.1981e-06
0.65    	0.55    	7.2049e-06
0.65    	0.6     	7.2104e-06
0.65    	0.65    	7.2152e-06
0.65    	0.7     	7.2196e-06
0.7     	0       	2.8948e-09
0.7     	0.05    	2.1676e-06
0.7     	0.1     	4.1217e-06
0.7     	0.15    	5.7446e-06
0.7     	0.2     	6.9226e-06
0.7     	0.25    	7.6049e-06
0.7     	0.3     	7.9491e-06
0.7     	0.35    	8.0761e-06
0.7     	0.4     	8.1235e-06
0.7     	0.45    	8.1434e-06
0.7     	0.5     	8.1556e-06
0.7     	0.55    	8.1637e-06
0.7     	0.6     	8.17e-06
0.7     	0.65    	8.1752e-06
0.7     	0.7     	8.18e-06
