vg      	vd      	ids     
0       	0       	4.1524e-10
0       	0.05    	4.759e-08
0       	0.1     	6.7237e-08
0       	0.15    	7.9299e-08
0       	0.2     	9.0099e-08
0       	0.25    	1.0152e-07
0       	0.3     	1.1389e-07
0       	0.35    	1.2731e-07
0       	0.4     	1.4187e-07
0       	0.45    	1.5759e-07
0       	0.5     	1.7443e-07
0       	0.55    	1.9171e-07
0       	0.6     	2.0753e-07
0       	0.65    	2.2203e-07
0       	0.7     	2.3591e-07
0.05    	0       	1.5841e-09
0.05    	0.05    	1.8091e-07
0.05    	0.1     	2.505e-07
0.05    	0.15    	2.9129e-07
0.05    	0.2     	3.2917e-07
0.05    	0.25    	3.685e-07
0.05    	0.3     	4.1016e-07
0.05    	0.35    	4.5413e-07
0.05    	0.4     	4.9817e-07
0.05    	0.45    	5.3765e-07
0.05    	0.5     	5.7343e-07
0.05    	0.55    	6.0809e-07
0.05    	0.6     	6.4308e-07
0.05    	0.65    	6.7865e-07
0.05    	0.7     	7.1493e-07
0.1     	0       	4.9564e-09
0.1     	0.05    	5.8273e-07
0.1     	0.1     	7.954e-07
0.1     	0.15    	9.1674e-07
0.1     	0.2     	1.022e-06
0.1     	0.25    	1.1235e-06
0.1     	0.3     	1.2142e-06
0.1     	0.35    	1.2924e-06
0.1     	0.4     	1.3651e-06
0.1     	0.45    	1.4372e-06
0.1     	0.5     	1.5098e-06
0.1     	0.55    	1.583e-06
0.1     	0.6     	1.6567e-06
0.1     	0.65    	1.731e-06
0.1     	0.7     	1.8055e-06
0.15    	0       	1.2019e-08
0.15    	0.05    	1.4728e-06
0.15    	0.1     	2.0264e-06
0.15    	0.15    	2.302e-06
0.15    	0.2     	2.4915e-06
0.15    	0.25    	2.6366e-06
0.15    	0.3     	2.766e-06
0.15    	0.35    	2.891e-06
0.15    	0.4     	3.0141e-06
0.15    	0.45    	3.136e-06
0.15    	0.5     	3.2571e-06
0.15    	0.55    	3.3771e-06
0.15    	0.6     	3.4954e-06
0.15    	0.65    	3.6105e-06
0.15    	0.7     	3.7291e-06
0.2     	0       	2.2903e-08
0.2     	0.05    	2.9352e-06
0.2     	0.1     	4.1035e-06
0.2     	0.15    	4.567e-06
0.2     	0.2     	4.8204e-06
0.2     	0.25    	5.0386e-06
0.2     	0.3     	5.2244e-06
0.2     	0.35    	5.4017e-06
0.2     	0.4     	5.5726e-06
0.2     	0.45    	5.7365e-06
0.2     	0.5     	5.8913e-06
0.2     	0.55    	6.0371e-06
0.2     	0.6     	6.1737e-06
0.2     	0.65    	6.2996e-06
0.2     	0.7     	6.4251e-06
0.25    	0       	3.6044e-08
0.25    	0.05    	4.8496e-06
0.25    	0.1     	6.9299e-06
0.25    	0.15    	7.6778e-06
0.25    	0.2     	8.0329e-06
0.25    	0.25    	8.2958e-06
0.25    	0.3     	8.5256e-06
0.25    	0.35    	8.7542e-06
0.25    	0.4     	8.945e-06
0.25    	0.45    	9.1171e-06
0.25    	0.5     	9.2718e-06
0.25    	0.55    	9.4132e-06
0.25    	0.6     	9.5462e-06
0.25    	0.65    	9.6735e-06
0.25    	0.7     	9.7967e-06
0.3     	0       	5.0766e-08
0.3     	0.05    	7.0107e-06
0.3     	0.1     	1.0335e-05
0.3     	0.15    	1.1493e-05
0.3     	0.2     	1.2007e-05
0.3     	0.25    	1.2317e-05
0.3     	0.3     	1.2564e-05
0.3     	0.35    	1.2772e-05
0.3     	0.4     	1.2955e-05
0.3     	0.45    	1.3139e-05
0.3     	0.5     	1.3298e-05
0.3     	0.55    	1.3448e-05
0.3     	0.6     	1.3594e-05
0.3     	0.65    	1.3735e-05
0.3     	0.7     	1.3872e-05
0.35    	0       	6.5836e-08
0.35    	0.05    	9.2306e-06
0.35    	0.1     	1.4134e-05
0.35    	0.15    	1.5927e-05
0.35    	0.2     	1.6572e-05
0.35    	0.25    	1.6947e-05
0.35    	0.3     	1.7195e-05
0.35    	0.35    	1.7403e-05
0.35    	0.4     	1.7592e-05
0.35    	0.45    	1.7769e-05
0.35    	0.5     	1.7938e-05
0.35    	0.55    	1.8101e-05
0.35    	0.6     	1.8258e-05
0.35    	0.65    	1.8426e-05
0.35    	0.7     	1.8575e-05
0.4     	0       	8.0611e-08
0.4     	0.05    	1.1377e-05
0.4     	0.1     	1.8125e-05
0.4     	0.15    	2.0763e-05
0.4     	0.2     	2.1684e-05
0.4     	0.25    	2.2087e-05
0.4     	0.3     	2.2356e-05
0.4     	0.35    	2.2578e-05
0.4     	0.4     	2.2779e-05
0.4     	0.45    	2.2986e-05
0.4     	0.5     	2.3166e-05
0.4     	0.55    	2.3337e-05
0.4     	0.6     	2.3502e-05
0.4     	0.65    	2.3661e-05
0.4     	0.7     	2.3815e-05
0.45    	0       	9.4712e-08
0.45    	0.05    	1.3372e-05
0.45    	0.1     	2.2115e-05
0.45    	0.15    	2.5893e-05
0.45    	0.2     	2.7198e-05
0.45    	0.25    	2.771e-05
0.45    	0.3     	2.8042e-05
0.45    	0.35    	2.8282e-05
0.45    	0.4     	2.8492e-05
0.45    	0.45    	2.8686e-05
0.45    	0.5     	2.8869e-05
0.45    	0.55    	2.9044e-05
0.45    	0.6     	2.9212e-05
0.45    	0.65    	2.9373e-05
0.45    	0.7     	2.9543e-05
0.5     	0       	1.08e-07
0.5     	0.05    	1.5184e-05
0.5     	0.1     	2.5948e-05
0.5     	0.15    	3.1126e-05
0.5     	0.2     	3.3051e-05
0.5     	0.25    	3.3772e-05
0.5     	0.3     	3.4129e-05
0.5     	0.35    	3.4384e-05
0.5     	0.4     	3.4601e-05
0.5     	0.45    	3.4796e-05
0.5     	0.5     	3.4978e-05
0.5     	0.55    	3.5148e-05
0.5     	0.6     	3.5325e-05
0.5     	0.65    	3.548e-05
0.5     	0.7     	3.5623e-05
0.55    	0       	1.2107e-07
0.55    	0.05    	1.6815e-05
0.55    	0.1     	2.9518e-05
0.55    	0.15    	3.637e-05
0.55    	0.2     	3.9116e-05
0.55    	0.25    	4.0106e-05
0.55    	0.3     	4.054e-05
0.55    	0.35    	4.0815e-05
0.55    	0.4     	4.1034e-05
0.55    	0.45    	4.1245e-05
0.55    	0.5     	4.1423e-05
0.55    	0.55    	4.1584e-05
0.55    	0.6     	4.1734e-05
0.55    	0.65    	4.1876e-05
0.55    	0.7     	4.2008e-05
0.6     	0       	1.3259e-07
0.6     	0.05    	1.8282e-05
0.6     	0.1     	3.2777e-05
0.6     	0.15    	4.1429e-05
0.6     	0.2     	4.526e-05
0.6     	0.25    	4.6661e-05
0.6     	0.3     	4.7246e-05
0.6     	0.35    	4.7558e-05
0.6     	0.4     	4.7783e-05
0.6     	0.45    	4.7973e-05
0.6     	0.5     	4.8142e-05
0.6     	0.55    	4.8297e-05
0.6     	0.6     	4.8441e-05
0.6     	0.65    	4.8575e-05
0.6     	0.7     	4.8701e-05
0.65    	0       	1.4336e-07
0.65    	0.05    	1.9605e-05
0.65    	0.1     	3.5729e-05
0.65    	0.15    	4.614e-05
0.65    	0.2     	5.133e-05
0.65    	0.25    	5.3372e-05
0.65    	0.3     	5.4163e-05
0.65    	0.35    	5.4538e-05
0.65    	0.4     	5.4782e-05
0.65    	0.45    	5.4975e-05
0.65    	0.5     	5.5143e-05
0.65    	0.55    	5.5294e-05
0.65    	0.6     	5.5434e-05
0.65    	0.65    	5.5576e-05
0.65    	0.7     	5.5701e-05
0.7     	0       	1.5351e-07
0.7     	0.05    	2.0805e-05
0.7     	0.1     	3.8404e-05
0.7     	0.15    	5.0616e-05
0.7     	0.2     	5.7316e-05
0.7     	0.25    	6.0176e-05
0.7     	0.3     	6.1272e-05
0.7     	0.35    	6.1752e-05
0.7     	0.4     	6.2025e-05
0.7     	0.45    	6.2229e-05
0.7     	0.5     	6.2397e-05
0.7     	0.55    	6.2561e-05
0.7     	0.6     	6.2703e-05
0.7     	0.65    	6.2832e-05
0.7     	0.7     	6.2953e-05
