vg      	vd      	ids     
0       	0       	8.7487e-11
0       	0.05    	1.6478e-08
0       	0.1     	2.0861e-08
0       	0.15    	2.2919e-08
0       	0.2     	2.4453e-08
0       	0.25    	2.5904e-08
0       	0.3     	2.7349e-08
0       	0.35    	2.8803e-08
0       	0.4     	3.0269e-08
0       	0.45    	3.1748e-08
0       	0.5     	3.3241e-08
0       	0.55    	3.4747e-08
0       	0.6     	3.6261e-08
0       	0.65    	3.7763e-08
0       	0.7     	3.9214e-08
0.05    	0       	4.8175e-10
0.05    	0.05    	8.2315e-08
0.05    	0.1     	1.0392e-07
0.05    	0.15    	1.1338e-07
0.05    	0.2     	1.2074e-07
0.05    	0.25    	1.2775e-07
0.05    	0.3     	1.3469e-07
0.05    	0.35    	1.4159e-07
0.05    	0.4     	1.4834e-07
0.05    	0.45    	1.5473e-07
0.05    	0.5     	1.6046e-07
0.05    	0.55    	1.6561e-07
0.05    	0.6     	1.7045e-07
0.05    	0.65    	1.7515e-07
0.05    	0.7     	1.7977e-07
0.1     	0       	1.78e-09
0.1     	0.05    	3.384e-07
0.1     	0.1     	4.3073e-07
0.1     	0.15    	4.6871e-07
0.1     	0.2     	4.9581e-07
0.1     	0.25    	5.1906e-07
0.1     	0.3     	5.3891e-07
0.1     	0.35    	5.564e-07
0.1     	0.4     	5.7272e-07
0.1     	0.45    	5.8839e-07
0.1     	0.5     	6.0362e-07
0.1     	0.55    	6.1849e-07
0.1     	0.6     	6.331e-07
0.1     	0.65    	6.4747e-07
0.1     	0.7     	6.6165e-07
0.15    	0       	4.4292e-09
0.15    	0.05    	9.8709e-07
0.15    	0.1     	1.2933e-06
0.15    	0.15    	1.396e-06
0.15    	0.2     	1.4501e-06
0.15    	0.25    	1.4918e-06
0.15    	0.3     	1.5293e-06
0.15    	0.35    	1.5644e-06
0.15    	0.4     	1.5978e-06
0.15    	0.45    	1.6295e-06
0.15    	0.5     	1.6594e-06
0.15    	0.55    	1.6875e-06
0.15    	0.6     	1.7134e-06
0.15    	0.65    	1.7374e-06
0.15    	0.7     	1.7622e-06
0.2     	0       	7.73e-09
0.2     	0.05    	2.0189e-06
0.2     	0.1     	2.7604e-06
0.2     	0.15    	2.9904e-06
0.2     	0.2     	3.0852e-06
0.2     	0.25    	3.1491e-06
0.2     	0.3     	3.2019e-06
0.2     	0.35    	3.2481e-06
0.2     	0.4     	3.2894e-06
0.2     	0.45    	3.327e-06
0.2     	0.5     	3.3658e-06
0.2     	0.55    	3.3983e-06
0.2     	0.6     	3.4289e-06
0.2     	0.65    	3.4581e-06
0.2     	0.7     	3.4863e-06
0.25    	0       	1.0941e-08
0.25    	0.05    	3.2208e-06
0.25    	0.1     	4.6525e-06
0.25    	0.15    	5.115e-06
0.25    	0.2     	5.267e-06
0.25    	0.25    	5.3484e-06
0.25    	0.3     	5.4093e-06
0.25    	0.35    	5.4615e-06
0.25    	0.4     	5.5088e-06
0.25    	0.45    	5.5577e-06
0.25    	0.5     	5.5987e-06
0.25    	0.55    	5.6369e-06
0.25    	0.6     	5.6732e-06
0.25    	0.65    	5.7076e-06
0.25    	0.7     	5.7405e-06
0.3     	0       	1.3744e-08
0.3     	0.05    	4.4127e-06
0.3     	0.1     	6.7522e-06
0.3     	0.15    	7.5834e-06
0.3     	0.2     	7.8435e-06
0.3     	0.25    	7.9519e-06
0.3     	0.3     	8.0236e-06
0.3     	0.35    	8.0823e-06
0.3     	0.4     	8.1343e-06
0.3     	0.45    	8.187e-06
0.3     	0.5     	8.2308e-06
0.3     	0.55    	8.2708e-06
0.3     	0.6     	8.3081e-06
0.3     	0.65    	8.343e-06
0.3     	0.7     	8.3758e-06
0.35    	0       	1.614e-08
0.35    	0.05    	5.498e-06
0.35    	0.1     	8.8748e-06
0.35    	0.15    	1.0261e-05
0.35    	0.2     	1.0689e-05
0.35    	0.25    	1.0853e-05
0.35    	0.3     	1.0938e-05
0.35    	0.35    	1.1002e-05
0.35    	0.4     	1.1056e-05
0.35    	0.45    	1.1104e-05
0.35    	0.5     	1.1152e-05
0.35    	0.55    	1.1193e-05
0.35    	0.6     	1.123e-05
0.35    	0.65    	1.1264e-05
0.35    	0.7     	1.1296e-05
0.4     	0       	1.8187e-08
0.4     	0.05    	6.4417e-06
0.4     	0.1     	1.0883e-05
0.4     	0.15    	1.3015e-05
0.4     	0.2     	1.3736e-05
0.4     	0.25    	1.3964e-05
0.4     	0.3     	1.4078e-05
0.4     	0.35    	1.4149e-05
0.4     	0.4     	1.4206e-05
0.4     	0.45    	1.4255e-05
0.4     	0.5     	1.43e-05
0.4     	0.55    	1.4341e-05
0.4     	0.6     	1.4382e-05
0.4     	0.65    	1.4418e-05
0.4     	0.7     	1.4451e-05
0.45    	0       	1.9953e-08
0.45    	0.05    	7.2446e-06
0.45    	0.1     	1.2694e-05
0.45    	0.15    	1.5719e-05
0.45    	0.2     	1.6874e-05
0.45    	0.25    	1.7243e-05
0.45    	0.3     	1.7385e-05
0.45    	0.35    	1.7468e-05
0.45    	0.4     	1.7535e-05
0.45    	0.45    	1.7588e-05
0.45    	0.5     	1.7634e-05
0.45    	0.55    	1.7676e-05
0.45    	0.6     	1.7714e-05
0.45    	0.65    	1.775e-05
0.45    	0.7     	1.7783e-05
0.5     	0       	2.1495e-08
0.5     	0.05    	7.9238e-06
0.5     	0.1     	1.4275e-05
0.5     	0.15    	1.8205e-05
0.5     	0.2     	2.002e-05
0.5     	0.25    	2.0611e-05
0.5     	0.3     	2.0825e-05
0.5     	0.35    	2.0927e-05
0.5     	0.4     	2.0994e-05
0.5     	0.45    	2.1049e-05
0.5     	0.5     	2.11e-05
0.5     	0.55    	2.1143e-05
0.5     	0.6     	2.1181e-05
0.5     	0.65    	2.1216e-05
0.5     	0.7     	2.1248e-05
0.55    	0       	2.2854e-08
0.55    	0.05    	8.5001e-06
0.55    	0.1     	1.5627e-05
0.55    	0.15    	2.0488e-05
0.55    	0.2     	2.3043e-05
0.55    	0.25    	2.4007e-05
0.55    	0.3     	2.4332e-05
0.55    	0.35    	2.4465e-05
0.55    	0.4     	2.4549e-05
0.55    	0.45    	2.4608e-05
0.55    	0.5     	2.4656e-05
0.55    	0.55    	2.4698e-05
0.55    	0.6     	2.4735e-05
0.55    	0.65    	2.4772e-05
0.55    	0.7     	2.4804e-05
0.6     	0       	2.4056e-08
0.6     	0.05    	8.9922e-06
0.6     	0.1     	1.6773e-05
0.6     	0.15    	2.249e-05
0.6     	0.2     	2.5892e-05
0.6     	0.25    	2.7363e-05
0.6     	0.3     	2.7873e-05
0.6     	0.35    	2.8071e-05
0.6     	0.4     	2.8167e-05
0.6     	0.45    	2.8236e-05
0.6     	0.5     	2.8287e-05
0.6     	0.55    	2.8329e-05
0.6     	0.6     	2.8366e-05
0.6     	0.65    	2.84e-05
0.6     	0.7     	2.843e-05
0.65    	0       	2.5121e-08
0.65    	0.05    	9.4161e-06
0.65    	0.1     	1.7746e-05
0.65    	0.15    	2.4214e-05
0.65    	0.2     	2.8469e-05
0.65    	0.25    	3.0592e-05
0.65    	0.3     	3.1416e-05
0.65    	0.35    	3.1701e-05
0.65    	0.4     	3.1834e-05
0.65    	0.45    	3.1909e-05
0.65    	0.5     	3.1963e-05
0.65    	0.55    	3.2007e-05
0.65    	0.6     	3.2048e-05
0.65    	0.65    	3.2083e-05
0.65    	0.7     	3.2114e-05
0.7     	0       	2.6068e-08
0.7     	0.05    	9.7849e-06
0.7     	0.1     	1.8575e-05
0.7     	0.15    	2.5682e-05
0.7     	0.2     	3.061e-05
0.7     	0.25    	3.3541e-05
0.7     	0.3     	3.4839e-05
0.7     	0.35    	3.5326e-05
0.7     	0.4     	3.5509e-05
0.7     	0.45    	3.5607e-05
0.7     	0.5     	3.5669e-05
0.7     	0.55    	3.5717e-05
0.7     	0.6     	3.5756e-05
0.7     	0.65    	3.5793e-05
0.7     	0.7     	3.5825e-05
