vg      	vd      	ids     
0       	0       	6.8745e-14
0       	0.05    	5.1357e-11
0       	0.1     	5.9441e-11
0       	0.15    	6.1095e-11
0       	0.2     	6.1776e-11
0       	0.25    	6.2278e-11
0       	0.3     	6.2724e-11
0       	0.35    	6.3136e-11
0       	0.4     	6.3521e-11
0       	0.45    	6.3884e-11
0       	0.5     	6.4227e-11
0       	0.55    	6.4553e-11
0       	0.6     	6.4864e-11
0       	0.65    	6.5162e-11
0       	0.7     	6.5448e-11
0.05    	0       	4.8237e-13
0.05    	0.05    	3.4335e-10
0.05    	0.1     	3.9791e-10
0.05    	0.15    	4.0931e-10
0.05    	0.2     	4.14e-10
0.05    	0.25    	4.1744e-10
0.05    	0.3     	4.2047e-10
0.05    	0.35    	4.2324e-10
0.05    	0.4     	4.2582e-10
0.05    	0.45    	4.2824e-10
0.05    	0.5     	4.3053e-10
0.05    	0.55    	4.3269e-10
0.05    	0.6     	4.3475e-10
0.05    	0.65    	4.3672e-10
0.05    	0.7     	4.3861e-10
0.1     	0       	2.6668e-12
0.1     	0.05    	2.2938e-09
0.1     	0.1     	2.6599e-09
0.1     	0.15    	2.7375e-09
0.1     	0.2     	2.7697e-09
0.1     	0.25    	2.793e-09
0.1     	0.3     	2.8132e-09
0.1     	0.35    	2.8316e-09
0.1     	0.4     	2.8487e-09
0.1     	0.45    	2.8645e-09
0.1     	0.5     	2.8794e-09
0.1     	0.55    	2.8935e-09
0.1     	0.6     	2.9068e-09
0.1     	0.65    	2.9195e-09
0.1     	0.7     	2.9316e-09
0.15    	0       	1.4761e-11
0.15    	0.05    	1.4648e-08
0.15    	0.1     	1.7087e-08
0.15    	0.15    	1.7603e-08
0.15    	0.2     	1.7811e-08
0.15    	0.25    	1.7957e-08
0.15    	0.3     	1.8081e-08
0.15    	0.35    	1.8193e-08
0.15    	0.4     	1.8295e-08
0.15    	0.45    	1.8389e-08
0.15    	0.5     	1.8477e-08
0.15    	0.55    	1.8559e-08
0.15    	0.6     	1.8636e-08
0.15    	0.65    	1.8709e-08
0.15    	0.7     	1.8778e-08
0.2     	0       	6.4431e-11
0.2     	0.05    	7.9305e-08
0.2     	0.1     	9.4531e-08
0.2     	0.15    	9.7663e-08
0.2     	0.2     	9.8769e-08
0.2     	0.25    	9.9474e-08
0.2     	0.3     	1.0005e-07
0.2     	0.35    	1.0055e-07
0.2     	0.4     	1.01e-07
0.2     	0.45    	1.0141e-07
0.2     	0.5     	1.0179e-07
0.2     	0.55    	1.0214e-07
0.2     	0.6     	1.0246e-07
0.2     	0.65    	1.0277e-07
0.2     	0.7     	1.0306e-07
0.25    	0       	1.7407e-10
0.25    	0.05    	2.7442e-07
0.25    	0.1     	3.4892e-07
0.25    	0.15    	3.6479e-07
0.25    	0.2     	3.6926e-07
0.25    	0.25    	3.7179e-07
0.25    	0.3     	3.7339e-07
0.25    	0.35    	3.7472e-07
0.25    	0.4     	3.7588e-07
0.25    	0.45    	3.7691e-07
0.25    	0.5     	3.7784e-07
0.25    	0.55    	3.7869e-07
0.25    	0.6     	3.7947e-07
0.25    	0.65    	3.802e-07
0.25    	0.7     	3.8088e-07
0.3     	0       	2.9174e-10
0.3     	0.05    	5.5838e-07
0.3     	0.1     	7.9556e-07
0.3     	0.15    	8.5813e-07
0.3     	0.2     	8.7284e-07
0.3     	0.25    	8.7819e-07
0.3     	0.3     	8.8139e-07
0.3     	0.35    	8.8384e-07
0.3     	0.4     	8.8589e-07
0.3     	0.45    	8.8766e-07
0.3     	0.5     	8.8944e-07
0.3     	0.55    	8.9084e-07
0.3     	0.6     	8.921e-07
0.3     	0.65    	8.9325e-07
0.3     	0.7     	8.9432e-07
0.35    	0       	3.8468e-10
0.35    	0.05    	8.1306e-07
0.35    	0.1     	1.294e-06
0.35    	0.15    	1.4746e-06
0.35    	0.2     	1.5229e-06
0.35    	0.25    	1.5362e-06
0.35    	0.3     	1.5428e-06
0.35    	0.35    	1.5467e-06
0.35    	0.4     	1.5497e-06
0.35    	0.45    	1.5522e-06
0.35    	0.5     	1.5544e-06
0.35    	0.55    	1.5564e-06
0.35    	0.6     	1.5583e-06
0.35    	0.65    	1.5599e-06
0.35    	0.7     	1.5613e-06
0.4     	0       	4.5616e-10
0.4     	0.05    	1.0018e-06
0.4     	0.1     	1.7248e-06
0.4     	0.15    	2.0987e-06
0.4     	0.2     	2.2331e-06
0.4     	0.25    	2.2672e-06
0.4     	0.3     	2.28e-06
0.4     	0.35    	2.2861e-06
0.4     	0.4     	2.2904e-06
0.4     	0.45    	2.2938e-06
0.4     	0.5     	2.297e-06
0.4     	0.55    	2.2995e-06
0.4     	0.6     	2.3016e-06
0.4     	0.65    	2.3036e-06
0.4     	0.7     	2.3055e-06
0.45    	0       	5.0954e-10
0.45    	0.05    	1.136e-06
0.45    	0.1     	2.0506e-06
0.45    	0.15    	2.6385e-06
0.45    	0.2     	2.9254e-06
0.45    	0.25    	3.0165e-06
0.45    	0.3     	3.0447e-06
0.45    	0.35    	3.0553e-06
0.45    	0.4     	3.062e-06
0.45    	0.45    	3.0664e-06
0.45    	0.5     	3.07e-06
0.45    	0.55    	3.0729e-06
0.45    	0.6     	3.0757e-06
0.45    	0.65    	3.078e-06
0.45    	0.7     	3.08e-06
0.5     	0       	5.6162e-10
0.5     	0.05    	1.2325e-06
0.5     	0.1     	2.2854e-06
0.5     	0.15    	3.054e-06
0.5     	0.2     	3.5267e-06
0.5     	0.25    	3.7332e-06
0.5     	0.3     	3.7997e-06
0.5     	0.35    	3.8224e-06
0.5     	0.4     	3.8319e-06
0.5     	0.45    	3.8379e-06
0.5     	0.5     	3.8426e-06
0.5     	0.55    	3.8461e-06
0.5     	0.6     	3.8492e-06
0.5     	0.65    	3.8518e-06
0.5     	0.7     	3.854e-06
0.55    	0       	6.0261e-10
0.55    	0.05    	1.3042e-06
0.55    	0.1     	2.4552e-06
0.55    	0.15    	3.3557e-06
0.55    	0.2     	3.9917e-06
0.55    	0.25    	4.3494e-06
0.55    	0.3     	4.5047e-06
0.55    	0.35    	4.5572e-06
0.55    	0.4     	4.5767e-06
0.55    	0.45    	4.5856e-06
0.55    	0.5     	4.5916e-06
0.55    	0.55    	4.5957e-06
0.55    	0.6     	4.599e-06
0.55    	0.65    	4.602e-06
0.55    	0.7     	4.6044e-06
0.6     	0       	6.3856e-10
0.6     	0.05    	1.3595e-06
0.6     	0.1     	2.5814e-06
0.6     	0.15    	3.5735e-06
0.6     	0.2     	4.2909e-06
0.6     	0.25    	4.7993e-06
0.6     	0.3     	5.0994e-06
0.6     	0.35    	5.2248e-06
0.6     	0.4     	5.2722e-06
0.6     	0.45    	5.289e-06
0.6     	0.5     	5.2979e-06
0.6     	0.55    	5.3032e-06
0.6     	0.6     	5.3073e-06
0.6     	0.65    	5.3104e-06
0.6     	0.7     	5.3129e-06
0.65    	0       	6.7049e-10
0.65    	0.05    	1.4035e-06
0.65    	0.1     	2.6777e-06
0.65    	0.15    	3.7334e-06
0.65    	0.2     	4.5256e-06
0.65    	0.25    	5.1267e-06
0.65    	0.3     	5.5416e-06
0.65    	0.35    	5.7661e-06
0.65    	0.4     	5.8807e-06
0.65    	0.45    	5.9247e-06
0.65    	0.5     	5.9415e-06
0.65    	0.55    	5.9503e-06
0.65    	0.6     	5.9554e-06
0.65    	0.65    	5.959e-06
0.65    	0.7     	5.962e-06
0.7     	0       	6.9882e-10
0.7     	0.05    	1.4388e-06
0.7     	0.1     	2.7528e-06
0.7     	0.15    	3.8531e-06
0.7     	0.2     	4.6951e-06
0.7     	0.25    	5.3539e-06
0.7     	0.3     	5.8191e-06
0.7     	0.35    	6.1502e-06
0.7     	0.4     	6.3487e-06
0.7     	0.45    	6.4528e-06
0.7     	0.5     	6.4984e-06
0.7     	0.55    	6.5178e-06
0.7     	0.6     	6.527e-06
0.7     	0.65    	6.5323e-06
0.7     	0.7     	6.5358e-06
