vg      	vd      	ids     
0       	0       	-8.126e-13
0       	0.05    	3.7371e-09
0       	0.1     	4.4273e-09
0       	0.15    	4.6247e-09
0       	0.2     	4.7352e-09
0       	0.25    	4.8248e-09
0       	0.3     	4.9065e-09
0       	0.35    	4.9837e-09
0       	0.4     	5.058e-09
0       	0.45    	5.1301e-09
0       	0.5     	5.2002e-09
0       	0.55    	5.2687e-09
0       	0.6     	5.3354e-09
0       	0.65    	5.4006e-09
0       	0.7     	5.4642e-09
0.05    	0       	-4.6302e-12
0.05    	0.05    	2.2429e-08
0.05    	0.1     	2.6606e-08
0.05    	0.15    	2.7773e-08
0.05    	0.2     	2.8401e-08
0.05    	0.25    	2.891e-08
0.05    	0.3     	2.9378e-08
0.05    	0.35    	2.9825e-08
0.05    	0.4     	3.0257e-08
0.05    	0.45    	3.0676e-08
0.05    	0.5     	3.1083e-08
0.05    	0.55    	3.1476e-08
0.05    	0.6     	3.1855e-08
0.05    	0.65    	3.2218e-08
0.05    	0.7     	3.2564e-08
0.1     	0       	-3.4205e-11
0.1     	0.05    	1.252e-07
0.1     	0.1     	1.4982e-07
0.1     	0.15    	1.563e-07
0.1     	0.2     	1.5957e-07
0.1     	0.25    	1.6214e-07
0.1     	0.3     	1.6447e-07
0.1     	0.35    	1.6665e-07
0.1     	0.4     	1.6868e-07
0.1     	0.45    	1.7059e-07
0.1     	0.5     	1.7238e-07
0.1     	0.55    	1.7406e-07
0.1     	0.6     	1.7564e-07
0.1     	0.65    	1.7713e-07
0.1     	0.7     	1.7856e-07
0.15    	0       	-2.2026e-10
0.15    	0.05    	5.4605e-07
0.15    	0.1     	6.7153e-07
0.15    	0.15    	7.0154e-07
0.15    	0.2     	7.1367e-07
0.15    	0.25    	7.2196e-07
0.15    	0.3     	7.2899e-07
0.15    	0.35    	7.3536e-07
0.15    	0.4     	7.4128e-07
0.15    	0.45    	7.4684e-07
0.15    	0.5     	7.5211e-07
0.15    	0.55    	7.5711e-07
0.15    	0.6     	7.6186e-07
0.15    	0.65    	7.6639e-07
0.15    	0.7     	7.7069e-07
0.2     	0       	-7.7078e-10
0.2     	0.05    	1.5417e-06
0.2     	0.1     	1.996e-06
0.2     	0.15    	2.1006e-06
0.2     	0.2     	2.1329e-06
0.2     	0.25    	2.1504e-06
0.2     	0.3     	2.1639e-06
0.2     	0.35    	2.1755e-06
0.2     	0.4     	2.1861e-06
0.2     	0.45    	2.1958e-06
0.2     	0.5     	2.2048e-06
0.2     	0.55    	2.2133e-06
0.2     	0.6     	2.2213e-06
0.2     	0.65    	2.2288e-06
0.2     	0.7     	2.236e-06
0.25    	0       	-1.6919e-09
0.25    	0.05    	2.9874e-06
0.25    	0.1     	4.1102e-06
0.25    	0.15    	4.388e-06
0.25    	0.2     	4.4632e-06
0.25    	0.25    	4.4986e-06
0.25    	0.3     	4.5195e-06
0.25    	0.35    	4.5363e-06
0.25    	0.4     	4.5511e-06
0.25    	0.45    	4.5643e-06
0.25    	0.5     	4.5765e-06
0.25    	0.55    	4.5878e-06
0.25    	0.6     	4.5983e-06
0.25    	0.65    	4.6082e-06
0.25    	0.7     	4.6175e-06
0.3     	0       	-2.7766e-09
0.3     	0.05    	4.6288e-06
0.3     	0.1     	6.7507e-06
0.3     	0.15    	7.3546e-06
0.3     	0.2     	7.51e-06
0.3     	0.25    	7.5696e-06
0.3     	0.3     	7.6003e-06
0.3     	0.35    	7.623e-06
0.3     	0.4     	7.6421e-06
0.3     	0.45    	7.6589e-06
0.3     	0.5     	7.6741e-06
0.3     	0.55    	7.688e-06
0.3     	0.6     	7.7008e-06
0.3     	0.65    	7.7128e-06
0.3     	0.7     	7.7239e-06
0.35    	0       	-3.8593e-09
0.35    	0.05    	6.3e-06 
0.35    	0.1     	9.6862e-06
0.35    	0.15    	1.0792e-05
0.35    	0.2     	1.1095e-05
0.35    	0.25    	1.1188e-05
0.35    	0.3     	1.1233e-05
0.35    	0.35    	1.1263e-05
0.35    	0.4     	1.1288e-05
0.35    	0.45    	1.1309e-05
0.35    	0.5     	1.1328e-05
0.35    	0.55    	1.1346e-05
0.35    	0.6     	1.1362e-05
0.35    	0.65    	1.1376e-05
0.35    	0.7     	1.1389e-05
0.4     	0       	-4.8233e-09
0.4     	0.05    	7.904e-06
0.4     	0.1     	1.2734e-05
0.4     	0.15    	1.455e-05
0.4     	0.2     	1.5081e-05
0.4     	0.25    	1.5244e-05
0.4     	0.3     	1.5309e-05
0.4     	0.35    	1.5349e-05
0.4     	0.4     	1.5379e-05
0.4     	0.45    	1.5404e-05
0.4     	0.5     	1.5426e-05
0.4     	0.55    	1.5445e-05
0.4     	0.6     	1.5463e-05
0.4     	0.65    	1.5479e-05
0.4     	0.7     	1.5496e-05
0.45    	0       	-5.6262e-09
0.45    	0.05    	9.3907e-06
0.45    	0.1     	1.5748e-05
0.45    	0.15    	1.8496e-05
0.45    	0.2     	1.9389e-05
0.45    	0.25    	1.9642e-05
0.45    	0.3     	1.9736e-05
0.45    	0.35    	1.9788e-05
0.45    	0.4     	1.9825e-05
0.45    	0.45    	1.9855e-05
0.45    	0.5     	1.9884e-05
0.45    	0.55    	1.9907e-05
0.45    	0.6     	1.9928e-05
0.45    	0.65    	1.9946e-05
0.45    	0.7     	1.9963e-05
0.5     	0       	-6.2776e-09
0.5     	0.05    	1.0744e-05
0.5     	0.1     	1.8624e-05
0.5     	0.15    	2.2481e-05
0.5     	0.2     	2.3906e-05
0.5     	0.25    	2.4329e-05
0.5     	0.3     	2.447e-05
0.5     	0.35    	2.4537e-05
0.5     	0.4     	2.4582e-05
0.5     	0.45    	2.4617e-05
0.5     	0.5     	2.4646e-05
0.5     	0.55    	2.4672e-05
0.5     	0.6     	2.4695e-05
0.5     	0.65    	2.4715e-05
0.5     	0.7     	2.4734e-05
0.55    	0       	-6.9108e-09
0.55    	0.05    	1.1969e-05
0.55    	0.1     	2.1295e-05
0.55    	0.15    	2.6454e-05
0.55    	0.2     	2.8554e-05
0.55    	0.25    	2.9224e-05
0.55    	0.3     	2.9439e-05
0.55    	0.35    	2.9532e-05
0.55    	0.4     	2.9587e-05
0.55    	0.45    	2.9627e-05
0.55    	0.5     	2.966e-05
0.55    	0.55    	2.9711e-05
0.55    	0.6     	2.9727e-05
0.55    	0.65    	2.9749e-05
0.55    	0.7     	2.9768e-05
0.6     	0       	-7.4225e-09
0.6     	0.05    	1.3075e-05
0.6     	0.1     	2.3731e-05
0.6     	0.15    	3.0287e-05
0.6     	0.2     	3.3298e-05
0.6     	0.25    	3.4285e-05
0.6     	0.3     	3.4614e-05
0.6     	0.35    	3.4743e-05
0.6     	0.4     	3.4808e-05
0.6     	0.45    	3.489e-05
0.6     	0.5     	3.4912e-05
0.6     	0.55    	3.4934e-05
0.6     	0.6     	3.4954e-05
0.6     	0.65    	3.5006e-05
0.6     	0.7     	3.5034e-05
0.65    	0       	-7.8472e-09
0.65    	0.05    	1.4075e-05
0.65    	0.1     	2.576e-05
0.65    	0.15    	3.3862e-05
0.65    	0.2     	3.7841e-05
0.65    	0.25    	3.9415e-05
0.65    	0.3     	3.9988e-05
0.65    	0.35    	4.0144e-05
0.65    	0.4     	4.0267e-05
0.65    	0.45    	4.0299e-05
0.65    	0.5     	4.0361e-05
0.65    	0.55    	4.0378e-05
0.65    	0.6     	4.0424e-05
0.65    	0.65    	4.0468e-05
0.65    	0.7     	4.0472e-05
0.7     	0       	-8.1956e-09
0.7     	0.05    	1.5068e-05
0.7     	0.1     	2.7885e-05
0.7     	0.15    	3.7063e-05
0.7     	0.2     	4.2289e-05
0.7     	0.25    	4.4679e-05
0.7     	0.3     	4.5401e-05
0.7     	0.35    	4.5723e-05
0.7     	0.4     	4.5813e-05
0.7     	0.45    	4.5903e-05
0.7     	0.5     	4.5968e-05
0.7     	0.55    	4.6012e-05
0.7     	0.6     	4.6063e-05
0.7     	0.65    	4.6056e-05
0.7     	0.7     	4.6092e-05
