vg      	vd      	ids     
0       	0       	7.9003e-11
0       	0.05    	1.2017e-08
0       	0.1     	1.469e-08
0       	0.15    	1.5777e-08
0       	0.2     	1.649e-08
0       	0.25    	1.7086e-08
0       	0.3     	1.7638e-08
0       	0.35    	1.8167e-08
0       	0.4     	1.868e-08
0       	0.45    	1.9181e-08
0       	0.5     	1.967e-08
0       	0.55    	2.0149e-08
0       	0.6     	2.0617e-08
0       	0.65    	2.1077e-08
0       	0.7     	2.1527e-08
0.05    	0       	4.3338e-10
0.05    	0.05    	6.6305e-08
0.05    	0.1     	8.1283e-08
0.05    	0.15    	8.6736e-08
0.05    	0.2     	9.0344e-08
0.05    	0.25    	9.3527e-08
0.05    	0.3     	9.6537e-08
0.05    	0.35    	9.9427e-08
0.05    	0.4     	1.0222e-07
0.05    	0.45    	1.0492e-07
0.05    	0.5     	1.0754e-07
0.05    	0.55    	1.1008e-07
0.05    	0.6     	1.1252e-07
0.05    	0.65    	1.1484e-07
0.05    	0.7     	1.1703e-07
0.1     	0       	1.8823e-09
0.1     	0.05    	3.0879e-07
0.1     	0.1     	3.8241e-07
0.1     	0.15    	4.0726e-07
0.1     	0.2     	4.2292e-07
0.1     	0.25    	4.3625e-07
0.1     	0.3     	4.4836e-07
0.1     	0.35    	4.5924e-07
0.1     	0.4     	4.6885e-07
0.1     	0.45    	4.7732e-07
0.1     	0.5     	4.85e-07
0.1     	0.55    	4.921e-07
0.1     	0.6     	4.9879e-07
0.1     	0.65    	5.0516e-07
0.1     	0.7     	5.1126e-07
0.15    	0       	5.3374e-09
0.15    	0.05    	1.0097e-06
0.15    	0.1     	1.2954e-06
0.15    	0.15    	1.3787e-06
0.15    	0.2     	1.418e-06
0.15    	0.25    	1.4458e-06
0.15    	0.3     	1.4693e-06
0.15    	0.35    	1.4904e-06
0.15    	0.4     	1.5098e-06
0.15    	0.45    	1.528e-06
0.15    	0.5     	1.545e-06
0.15    	0.55    	1.5611e-06
0.15    	0.6     	1.5763e-06
0.15    	0.65    	1.5908e-06
0.15    	0.7     	1.6046e-06
0.2     	0       	1.0084e-08
0.2     	0.05    	2.208e-06
0.2     	0.1     	2.9967e-06
0.2     	0.15    	3.2181e-06
0.2     	0.2     	3.2953e-06
0.2     	0.25    	3.3412e-06
0.2     	0.3     	3.3775e-06
0.2     	0.35    	3.409e-06
0.2     	0.4     	3.4371e-06
0.2     	0.45    	3.4623e-06
0.2     	0.5     	3.4851e-06
0.2     	0.55    	3.506e-06
0.2     	0.6     	3.5276e-06
0.2     	0.65    	3.5454e-06
0.2     	0.7     	3.5619e-06
0.25    	0       	1.4816e-08
0.25    	0.05    	3.6279e-06
0.25    	0.1     	5.2748e-06
0.25    	0.15    	5.7781e-06
0.25    	0.2     	5.9341e-06
0.25    	0.25    	6.0008e-06
0.25    	0.3     	6.0459e-06
0.25    	0.35    	6.0829e-06
0.25    	0.4     	6.1151e-06
0.25    	0.45    	6.1475e-06
0.25    	0.5     	6.1737e-06
0.25    	0.55    	6.1976e-06
0.25    	0.6     	6.2198e-06
0.25    	0.65    	6.2405e-06
0.25    	0.7     	6.2599e-06
0.3     	0       	1.9286e-08
0.3     	0.05    	5.0194e-06
0.3     	0.1     	7.8164e-06
0.3     	0.15    	8.8451e-06
0.3     	0.2     	9.1406e-06
0.3     	0.25    	9.2428e-06
0.3     	0.3     	9.2999e-06
0.3     	0.35    	9.3428e-06
0.3     	0.4     	9.379e-06
0.3     	0.45    	9.4145e-06
0.3     	0.5     	9.4432e-06
0.3     	0.55    	9.4689e-06
0.3     	0.6     	9.4925e-06
0.3     	0.65    	9.5142e-06
0.3     	0.7     	9.5345e-06
0.35    	0       	2.334e-08
0.35    	0.05    	6.2557e-06
0.35    	0.1     	1.0342e-05
0.35    	0.15    	1.2173e-05
0.35    	0.2     	1.2739e-05
0.35    	0.25    	1.292e-05
0.35    	0.3     	1.2997e-05
0.35    	0.35    	1.3047e-05
0.35    	0.4     	1.3086e-05
0.35    	0.45    	1.312e-05
0.35    	0.5     	1.315e-05
0.35    	0.55    	1.3179e-05
0.35    	0.6     	1.3203e-05
0.35    	0.65    	1.3225e-05
0.35    	0.7     	1.3245e-05
0.4     	0       	2.7107e-08
0.4     	0.05    	7.3036e-06
0.4     	0.1     	1.2657e-05
0.4     	0.15    	1.5543e-05
0.4     	0.2     	1.6586e-05
0.4     	0.25    	1.6909e-05
0.4     	0.3     	1.7032e-05
0.4     	0.35    	1.7094e-05
0.4     	0.4     	1.7138e-05
0.4     	0.45    	1.7175e-05
0.4     	0.5     	1.7206e-05
0.4     	0.55    	1.7233e-05
0.4     	0.6     	1.726e-05
0.4     	0.65    	1.7283e-05
0.4     	0.7     	1.7304e-05
0.45    	0       	3.0456e-08
0.45    	0.05    	8.1788e-06
0.45    	0.1     	1.4668e-05
0.45    	0.15    	1.8688e-05
0.45    	0.2     	2.0514e-05
0.45    	0.25    	2.112e-05
0.45    	0.3     	2.1309e-05
0.45    	0.35    	2.1393e-05
0.45    	0.4     	2.1449e-05
0.45    	0.45    	2.149e-05
0.45    	0.5     	2.1522e-05
0.45    	0.55    	2.1551e-05
0.45    	0.6     	2.1576e-05
0.45    	0.65    	2.16e-05
0.45    	0.7     	2.1621e-05
0.5     	0       	3.3556e-08
0.5     	0.05    	8.9116e-06
0.5     	0.1     	1.6363e-05
0.5     	0.15    	2.1537e-05
0.5     	0.2     	2.4327e-05
0.5     	0.25    	2.54e-05
0.5     	0.3     	2.5746e-05
0.5     	0.35    	2.5871e-05
0.5     	0.4     	2.5936e-05
0.5     	0.45    	2.598e-05
0.5     	0.5     	2.6018e-05
0.5     	0.55    	2.6048e-05
0.5     	0.6     	2.6073e-05
0.5     	0.65    	2.6095e-05
0.5     	0.7     	2.6115e-05
0.55    	0       	3.6432e-08
0.55    	0.05    	9.5308e-06
0.55    	0.1     	1.7777e-05
0.55    	0.15    	2.399e-05
0.55    	0.2     	2.7765e-05
0.55    	0.25    	2.9587e-05
0.55    	0.3     	3.024e-05
0.55    	0.35    	3.0462e-05
0.55    	0.4     	3.0553e-05
0.55    	0.45    	3.0606e-05
0.55    	0.5     	3.0644e-05
0.55    	0.55    	3.0677e-05
0.55    	0.6     	3.0703e-05
0.55    	0.65    	3.0726e-05
0.55    	0.7     	3.0745e-05
0.6     	0       	3.9123e-08
0.6     	0.05    	1.0061e-05
0.6     	0.1     	1.8965e-05
0.6     	0.15    	2.606e-05
0.6     	0.2     	3.0851e-05
0.6     	0.25    	3.3562e-05
0.6     	0.3     	3.4695e-05
0.6     	0.35    	3.509e-05
0.6     	0.4     	3.5237e-05
0.6     	0.45    	3.5312e-05
0.6     	0.5     	3.5358e-05
0.6     	0.55    	3.5392e-05
0.6     	0.6     	3.5419e-05
0.6     	0.65    	3.5444e-05
0.6     	0.7     	3.5465e-05
0.65    	0       	4.1675e-08
0.65    	0.05    	1.0519e-05
0.65    	0.1     	1.9971e-05
0.65    	0.15    	2.7792e-05
0.65    	0.2     	3.3482e-05
0.65    	0.25    	3.7136e-05
0.65    	0.3     	3.8952e-05
0.65    	0.35    	3.9661e-05
0.65    	0.4     	3.9928e-05
0.65    	0.45    	4.0037e-05
0.65    	0.5     	4.0098e-05
0.65    	0.55    	4.0138e-05
0.65    	0.6     	4.0168e-05
0.65    	0.65    	4.0194e-05
0.65    	0.7     	4.0216e-05
0.7     	0       	4.4127e-08
0.7     	0.05    	1.0921e-05
0.7     	0.1     	2.0829e-05
0.7     	0.15    	2.9239e-05
0.7     	0.2     	3.5674e-05
0.7     	0.25    	4.0198e-05
0.7     	0.3     	4.2818e-05
0.7     	0.35    	4.4021e-05
0.7     	0.4     	4.4524e-05
0.7     	0.45    	4.4708e-05
0.7     	0.5     	4.4796e-05
0.7     	0.55    	4.4846e-05
0.7     	0.6     	4.4882e-05
0.7     	0.65    	4.4909e-05
0.7     	0.7     	4.4931e-05
