vg      	vd      	ids     
0       	0       	1.6326e-10
0       	0.05    	1.3254e-08
0       	0.1     	1.7298e-08
0       	0.15    	1.9699e-08
0       	0.2     	2.1429e-08
0       	0.25    	2.2964e-08
0       	0.3     	2.4509e-08
0       	0.35    	2.6092e-08
0       	0.4     	2.7704e-08
0       	0.45    	2.9368e-08
0       	0.5     	3.1067e-08
0       	0.55    	3.2836e-08
0       	0.6     	3.4597e-08
0       	0.65    	3.6388e-08
0       	0.7     	3.8211e-08
0.05    	0       	7.7641e-10
0.05    	0.05    	6.3074e-08
0.05    	0.1     	8.2543e-08
0.05    	0.15    	9.1928e-08
0.05    	0.2     	9.9085e-08
0.05    	0.25    	1.0602e-07
0.05    	0.3     	1.1305e-07
0.05    	0.35    	1.2024e-07
0.05    	0.4     	1.275e-07
0.05    	0.45    	1.3502e-07
0.05    	0.5     	1.4268e-07
0.05    	0.55    	1.5045e-07
0.05    	0.6     	1.5836e-07
0.05    	0.65    	1.6616e-07
0.05    	0.7     	1.7376e-07
0.1     	0       	3.0983e-09
0.1     	0.05    	2.6327e-07
0.1     	0.1     	3.4192e-07
0.1     	0.15    	3.7683e-07
0.1     	0.2     	4.0424e-07
0.1     	0.25    	4.3036e-07
0.1     	0.3     	4.5636e-07
0.1     	0.35    	4.8241e-07
0.1     	0.4     	5.082e-07
0.1     	0.45    	5.3252e-07
0.1     	0.5     	5.5373e-07
0.1     	0.55    	5.7228e-07
0.1     	0.6     	5.8935e-07
0.1     	0.65    	6.0549e-07
0.1     	0.7     	6.2136e-07
0.15    	0       	9.0783e-09
0.15    	0.05    	8.4466e-07
0.15    	0.1     	1.1085e-06
0.15    	0.15    	1.2163e-06
0.15    	0.2     	1.2912e-06
0.15    	0.25    	1.3544e-06
0.15    	0.3     	1.407e-06
0.15    	0.35    	1.4517e-06
0.15    	0.4     	1.4924e-06
0.15    	0.45    	1.5336e-06
0.15    	0.5     	1.5716e-06
0.15    	0.55    	1.6086e-06
0.15    	0.6     	1.6422e-06
0.15    	0.65    	1.6774e-06
0.15    	0.7     	1.7118e-06
0.2     	0       	1.8646e-08
0.2     	0.05    	1.9557e-06
0.2     	0.1     	2.6479e-06
0.2     	0.15    	2.8854e-06
0.2     	0.2     	3.0056e-06
0.2     	0.25    	3.0999e-06
0.2     	0.3     	3.1735e-06
0.2     	0.35    	3.2421e-06
0.2     	0.4     	3.3075e-06
0.2     	0.45    	3.3707e-06
0.2     	0.5     	3.4318e-06
0.2     	0.55    	3.4909e-06
0.2     	0.6     	3.5479e-06
0.2     	0.65    	3.6026e-06
0.2     	0.7     	3.6545e-06
0.25    	0       	3.0113e-08
0.25    	0.05    	3.4781e-06
0.25    	0.1     	4.9017e-06
0.25    	0.15    	5.3593e-06
0.25    	0.2     	5.5419e-06
0.25    	0.25    	5.6735e-06
0.25    	0.3     	5.773e-06
0.25    	0.35    	5.8629e-06
0.25    	0.4     	5.9461e-06
0.25    	0.45    	6.0233e-06
0.25    	0.5     	6.095e-06
0.25    	0.55    	6.1615e-06
0.25    	0.6     	6.223e-06
0.25    	0.65    	6.2796e-06
0.25    	0.7     	6.3316e-06
0.3     	0       	4.1837e-08
0.3     	0.05    	5.1921e-06
0.3     	0.1     	7.6701e-06
0.3     	0.15    	8.4928e-06
0.3     	0.2     	8.7753e-06
0.3     	0.25    	8.9282e-06
0.3     	0.3     	9.055e-06
0.3     	0.35    	9.1517e-06
0.3     	0.4     	9.2365e-06
0.3     	0.45    	9.3127e-06
0.3     	0.5     	9.3824e-06
0.3     	0.55    	9.447e-06
0.3     	0.6     	9.5076e-06
0.3     	0.65    	9.5649e-06
0.3     	0.7     	9.6194e-06
0.35    	0       	5.2976e-08
0.35    	0.05    	6.9205e-06
0.35    	0.1     	1.0741e-05
0.35    	0.15    	1.2097e-05
0.35    	0.2     	1.2547e-05
0.35    	0.25    	1.2737e-05
0.35    	0.3     	1.286e-05
0.35    	0.35    	1.2958e-05
0.35    	0.4     	1.3045e-05
0.35    	0.45    	1.3123e-05
0.35    	0.5     	1.3205e-05
0.35    	0.55    	1.3275e-05
0.35    	0.6     	1.334e-05
0.35    	0.65    	1.3402e-05
0.35    	0.7     	1.3461e-05
0.4     	0       	6.325e-08
0.4     	0.05    	8.552e-06
0.4     	0.1     	1.391e-05
0.4     	0.15    	1.6024e-05
0.4     	0.2     	1.6716e-05
0.4     	0.25    	1.6985e-05
0.4     	0.3     	1.7127e-05
0.4     	0.35    	1.7232e-05
0.4     	0.4     	1.7324e-05
0.4     	0.45    	1.7407e-05
0.4     	0.5     	1.7484e-05
0.4     	0.55    	1.7557e-05
0.4     	0.6     	1.7626e-05
0.4     	0.65    	1.7699e-05
0.4     	0.7     	1.7762e-05
0.45    	0       	7.2643e-08
0.45    	0.05    	1.0036e-05
0.45    	0.1     	1.697e-05
0.45    	0.15    	2.0126e-05
0.45    	0.2     	2.1202e-05
0.45    	0.25    	2.1581e-05
0.45    	0.3     	2.1755e-05
0.45    	0.35    	2.1873e-05
0.45    	0.4     	2.197e-05
0.45    	0.45    	2.2065e-05
0.45    	0.5     	2.2145e-05
0.45    	0.55    	2.2218e-05
0.45    	0.6     	2.2287e-05
0.45    	0.65    	2.235e-05
0.45    	0.7     	2.241e-05
0.5     	0       	8.1242e-08
0.5     	0.05    	1.1363e-05
0.5     	0.1     	1.9842e-05
0.5     	0.15    	2.4238e-05
0.5     	0.2     	2.5913e-05
0.5     	0.25    	2.6457e-05
0.5     	0.3     	2.669e-05
0.5     	0.35    	2.682e-05
0.5     	0.4     	2.6917e-05
0.5     	0.45    	2.6999e-05
0.5     	0.5     	2.7073e-05
0.5     	0.55    	2.714e-05
0.5     	0.6     	2.7202e-05
0.5     	0.65    	2.7259e-05
0.5     	0.7     	2.7317e-05
0.55    	0       	8.9264e-08
0.55    	0.05    	1.2544e-05
0.55    	0.1     	2.245e-05
0.55    	0.15    	2.8248e-05
0.55    	0.2     	3.0673e-05
0.55    	0.25    	3.1564e-05
0.55    	0.3     	3.1872e-05
0.55    	0.35    	3.1977e-05
0.55    	0.4     	3.207e-05
0.55    	0.45    	3.2149e-05
0.55    	0.5     	3.2219e-05
0.55    	0.55    	3.2296e-05
0.55    	0.6     	3.2348e-05
0.55    	0.65    	3.2411e-05
0.55    	0.7     	3.2451e-05
0.6     	0       	9.6258e-08
0.6     	0.05    	1.3592e-05
0.6     	0.1     	2.4651e-05
0.6     	0.15    	3.1931e-05
0.6     	0.2     	3.5421e-05
0.6     	0.25    	3.6709e-05
0.6     	0.3     	3.7143e-05
0.6     	0.35    	3.733e-05
0.6     	0.4     	3.745e-05
0.6     	0.45    	3.7536e-05
0.6     	0.5     	3.7606e-05
0.6     	0.55    	3.767e-05
0.6     	0.6     	3.7726e-05
0.6     	0.65    	3.7783e-05
0.6     	0.7     	3.7825e-05
0.65    	0       	1.027e-07
0.65    	0.05    	1.4501e-05
0.65    	0.1     	2.6818e-05
0.65    	0.15    	3.5342e-05
0.65    	0.2     	4.0025e-05
0.65    	0.25    	4.1926e-05
0.65    	0.3     	4.2595e-05
0.65    	0.35    	4.2913e-05
0.65    	0.4     	4.2992e-05
0.65    	0.45    	4.3105e-05
0.65    	0.5     	4.32e-05
0.65    	0.55    	4.3269e-05
0.65    	0.6     	4.334e-05
0.65    	0.65    	4.3361e-05
0.65    	0.7     	4.3423e-05
0.7     	0       	1.087e-07
0.7     	0.05    	1.5333e-05
0.7     	0.1     	2.8495e-05
0.7     	0.15    	3.8608e-05
0.7     	0.2     	4.4426e-05
0.7     	0.25    	4.7176e-05
0.7     	0.3     	4.8222e-05
0.7     	0.35    	4.8589e-05
0.7     	0.4     	4.8767e-05
0.7     	0.45    	4.8861e-05
0.7     	0.5     	4.8943e-05
0.7     	0.55    	4.9004e-05
0.7     	0.6     	4.9066e-05
0.7     	0.65    	4.9117e-05
0.7     	0.7     	4.9168e-05
