vg      	vd      	ids     
0       	0       	-8.5158e-14
0       	0.05    	1.6353e-09
0       	0.1     	1.878e-09
0       	0.15    	1.9174e-09
0       	0.2     	1.9265e-09
0       	0.25    	1.9309e-09
0       	0.3     	1.9342e-09
0       	0.35    	1.9371e-09
0       	0.4     	1.9397e-09
0       	0.45    	1.9421e-09
0       	0.5     	1.9443e-09
0       	0.55    	1.9464e-09
0       	0.6     	1.9484e-09
0       	0.65    	1.9502e-09
0       	0.7     	1.9519e-09
0.05    	0       	-3.3622e-14
0.05    	0.05    	1.0979e-08
0.05    	0.1     	1.2649e-08
0.05    	0.15    	1.2923e-08
0.05    	0.2     	1.2989e-08
0.05    	0.25    	1.3021e-08
0.05    	0.3     	1.3044e-08
0.05    	0.35    	1.3065e-08
0.05    	0.4     	1.3084e-08
0.05    	0.45    	1.3101e-08
0.05    	0.5     	1.3116e-08
0.05    	0.55    	1.313e-08
0.05    	0.6     	1.3144e-08
0.05    	0.65    	1.3156e-08
0.05    	0.7     	1.3168e-08
0.1     	0       	3.8611e-12
0.1     	0.05    	6.9739e-08
0.1     	0.1     	8.0987e-08
0.1     	0.15    	8.2885e-08
0.1     	0.2     	8.3345e-08
0.1     	0.25    	8.3564e-08
0.1     	0.3     	8.3725e-08
0.1     	0.35    	8.3861e-08
0.1     	0.4     	8.3981e-08
0.1     	0.45    	8.4089e-08
0.1     	0.5     	8.4187e-08
0.1     	0.55    	8.4277e-08
0.1     	0.6     	8.436e-08
0.1     	0.65    	8.4437e-08
0.1     	0.7     	8.4509e-08
0.15    	0       	3.8797e-11
0.15    	0.05    	3.4171e-07
0.15    	0.1     	4.1194e-07
0.15    	0.15    	4.245e-07
0.15    	0.2     	4.274e-07
0.15    	0.25    	4.2863e-07
0.15    	0.3     	4.2946e-07
0.15    	0.35    	4.3014e-07
0.15    	0.4     	4.3072e-07
0.15    	0.45    	4.3123e-07
0.15    	0.5     	4.3168e-07
0.15    	0.55    	4.3209e-07
0.15    	0.6     	4.3247e-07
0.15    	0.65    	4.3282e-07
0.15    	0.7     	4.3317e-07
0.2     	0       	1.5043e-10
0.2     	0.05    	9.8522e-07
0.2     	0.1     	1.309e-06
0.2     	0.15    	1.3779e-06
0.2     	0.2     	1.3928e-06
0.2     	0.25    	1.3977e-06
0.2     	0.3     	1.4005e-06
0.2     	0.35    	1.4029e-06
0.2     	0.4     	1.4046e-06
0.2     	0.45    	1.406e-06
0.2     	0.5     	1.4073e-06
0.2     	0.55    	1.4084e-06
0.2     	0.6     	1.4095e-06
0.2     	0.65    	1.4104e-06
0.2     	0.7     	1.4112e-06
0.25    	0       	3.1392e-10
0.25    	0.05    	1.7545e-06
0.25    	0.1     	2.6467e-06
0.25    	0.15    	2.9265e-06
0.25    	0.2     	2.9917e-06
0.25    	0.25    	3.0082e-06
0.25    	0.3     	3.0151e-06
0.25    	0.35    	3.0195e-06
0.25    	0.4     	3.0229e-06
0.25    	0.45    	3.0261e-06
0.25    	0.5     	3.0285e-06
0.25    	0.55    	3.0306e-06
0.25    	0.6     	3.0324e-06
0.25    	0.65    	3.0341e-06
0.25    	0.7     	3.0356e-06
0.3     	0       	4.9442e-10
0.3     	0.05    	2.3906e-06
0.3     	0.1     	3.9936e-06
0.3     	0.15    	4.753e-06
0.3     	0.2     	4.977e-06
0.3     	0.25    	5.0324e-06
0.3     	0.3     	5.05e-06
0.3     	0.35    	5.0594e-06
0.3     	0.4     	5.065e-06
0.3     	0.45    	5.0694e-06
0.3     	0.5     	5.0734e-06
0.3     	0.55    	5.0766e-06
0.3     	0.6     	5.0793e-06
0.3     	0.65    	5.0817e-06
0.3     	0.7     	5.084e-06
0.35    	0       	6.7441e-10
0.35    	0.05    	2.851e-06
0.35    	0.1     	5.072e-06
0.35    	0.15    	6.4368e-06
0.35    	0.2     	7.0648e-06
0.35    	0.25    	7.2513e-06
0.35    	0.3     	7.3044e-06
0.35    	0.35    	7.3224e-06
0.35    	0.4     	7.3326e-06
0.35    	0.45    	7.339e-06
0.35    	0.5     	7.344e-06
0.35    	0.55    	7.3485e-06
0.35    	0.6     	7.352e-06
0.35    	0.65    	7.3551e-06
0.35    	0.7     	7.358e-06
0.4     	0       	8.5073e-10
0.4     	0.05    	3.1775e-06
0.4     	0.1     	5.8506e-06
0.4     	0.15    	7.7716e-06
0.4     	0.2     	8.9426e-06
0.4     	0.25    	9.4468e-06
0.4     	0.3     	9.6058e-06
0.4     	0.35    	9.6559e-06
0.4     	0.4     	9.6745e-06
0.4     	0.45    	9.6852e-06
0.4     	0.5     	9.692e-06
0.4     	0.55    	9.6977e-06
0.4     	0.6     	9.702e-06
0.4     	0.65    	9.7056e-06
0.4     	0.7     	9.709e-06
0.45    	0       	1.024e-09
0.45    	0.05    	3.4164e-06
0.45    	0.1     	6.4057e-06
0.45    	0.15    	8.7302e-06
0.45    	0.2     	1.0387e-05
0.45    	0.25    	1.1337e-05
0.45    	0.3     	1.1767e-05
0.45    	0.35    	1.192e-05
0.45    	0.4     	1.197e-05
0.45    	0.45    	1.1989e-05
0.45    	0.5     	1.2001e-05
0.45    	0.55    	1.2008e-05
0.45    	0.6     	1.2013e-05
0.45    	0.65    	1.2017e-05
0.45    	0.7     	1.2021e-05
0.5     	0       	1.1899e-09
0.5     	0.05    	3.5946e-06
0.5     	0.1     	6.808e-06
0.5     	0.15    	9.4064e-06
0.5     	0.2     	1.1398e-05
0.5     	0.25    	1.2732e-05
0.5     	0.3     	1.352e-05
0.5     	0.35    	1.3925e-05
0.5     	0.4     	1.408e-05
0.5     	0.45    	1.4137e-05
0.5     	0.5     	1.416e-05
0.5     	0.55    	1.4173e-05
0.5     	0.6     	1.418e-05
0.5     	0.65    	1.4185e-05
0.5     	0.7     	1.4189e-05
0.55    	0       	1.3535e-09
0.55    	0.05    	3.7256e-06
0.55    	0.1     	7.1044e-06
0.55    	0.15    	9.8903e-06
0.55    	0.2     	1.2093e-05
0.55    	0.25    	1.3597e-05
0.55    	0.3     	1.4737e-05
0.55    	0.35    	1.5429e-05
0.55    	0.4     	1.5794e-05
0.55    	0.45    	1.5978e-05
0.55    	0.5     	1.6053e-05
0.55    	0.55    	1.6087e-05
0.55    	0.6     	1.6104e-05
0.55    	0.65    	1.6112e-05
0.55    	0.7     	1.6117e-05
0.6     	0       	1.5131e-09
0.6     	0.05    	3.8208e-06
0.6     	0.1     	7.3126e-06
0.6     	0.15    	1.024e-05
0.6     	0.2     	1.2589e-05
0.6     	0.25    	1.4234e-05
0.6     	0.3     	1.554e-05
0.6     	0.35    	1.6383e-05
0.6     	0.4     	1.697e-05
0.6     	0.45    	1.7319e-05
0.6     	0.5     	1.7523e-05
0.6     	0.55    	1.7627e-05
0.6     	0.6     	1.7676e-05
0.6     	0.65    	1.7696e-05
0.6     	0.7     	1.7702e-05
0.65    	0       	1.6671e-09
0.65    	0.05    	3.8984e-06
0.65    	0.1     	7.4575e-06
0.65    	0.15    	1.0476e-05
0.65    	0.2     	1.2926e-05
0.65    	0.25    	1.4676e-05
0.65    	0.3     	1.6014e-05
0.65    	0.35    	1.7018e-05
0.65    	0.4     	1.7681e-05
0.65    	0.45    	1.812e-05
0.65    	0.5     	1.8403e-05
0.65    	0.55    	1.8558e-05
0.65    	0.6     	1.8618e-05
0.65    	0.65    	1.864e-05
0.65    	0.7     	1.8654e-05
0.7     	0       	1.817e-09
0.7     	0.05    	3.9418e-06
0.7     	0.1     	7.5563e-06
0.7     	0.15    	1.0656e-05
0.7     	0.2     	1.3074e-05
0.7     	0.25    	1.4996e-05
0.7     	0.3     	1.6405e-05
0.7     	0.35    	1.7422e-05
0.7     	0.4     	1.815e-05
0.7     	0.45    	1.864e-05
0.7     	0.5     	1.8943e-05
0.7     	0.55    	1.9078e-05
0.7     	0.6     	1.9139e-05
0.7     	0.65    	1.9162e-05
0.7     	0.7     	1.9173e-05
