vg      	vd      	ids     
0       	0       	4.068e-12
0       	0.05    	1.9106e-09
0       	0.1     	2.2527e-09
0       	0.15    	2.3506e-09
0       	0.2     	2.4065e-09
0       	0.25    	2.4521e-09
0       	0.3     	2.4932e-09
0       	0.35    	2.5315e-09
0       	0.4     	2.5679e-09
0       	0.45    	2.6028e-09
0       	0.5     	2.6364e-09
0       	0.55    	2.6689e-09
0       	0.6     	2.7004e-09
0       	0.65    	2.7309e-09
0       	0.7     	2.7607e-09
0.05    	0       	2.6165e-11
0.05    	0.05    	1.1883e-08
0.05    	0.1     	1.4056e-08
0.05    	0.15    	1.4665e-08
0.05    	0.2     	1.5005e-08
0.05    	0.25    	1.5282e-08
0.05    	0.3     	1.5534e-08
0.05    	0.35    	1.5769e-08
0.05    	0.4     	1.5993e-08
0.05    	0.45    	1.6207e-08
0.05    	0.5     	1.6413e-08
0.05    	0.55    	1.661e-08
0.05    	0.6     	1.6798e-08
0.05    	0.65    	1.6978e-08
0.05    	0.7     	1.715e-08
0.1     	0       	1.4219e-10
0.1     	0.05    	6.8595e-08
0.1     	0.1     	8.1767e-08
0.1     	0.15    	8.53e-08
0.1     	0.2     	8.7164e-08
0.1     	0.25    	8.8655e-08
0.1     	0.3     	8.9991e-08
0.1     	0.35    	9.1217e-08
0.1     	0.4     	9.2348e-08
0.1     	0.45    	9.3394e-08
0.1     	0.5     	9.4365e-08
0.1     	0.55    	9.5271e-08
0.1     	0.6     	9.6121e-08
0.1     	0.65    	9.6922e-08
0.1     	0.7     	9.7683e-08
0.15    	0       	5.3828e-10
0.15    	0.05    	3.0707e-07
0.15    	0.1     	3.7633e-07
0.15    	0.15    	3.9317e-07
0.15    	0.2     	4.0037e-07
0.15    	0.25    	4.0545e-07
0.15    	0.3     	4.0977e-07
0.15    	0.35    	4.1364e-07
0.15    	0.4     	4.1718e-07
0.15    	0.45    	4.2044e-07
0.15    	0.5     	4.2348e-07
0.15    	0.55    	4.2634e-07
0.15    	0.6     	4.2904e-07
0.15    	0.65    	4.316e-07
0.15    	0.7     	4.3402e-07
0.2     	0       	1.2439e-09
0.2     	0.05    	8.6431e-07
0.2     	0.1     	1.1239e-06
0.2     	0.15    	1.1844e-06
0.2     	0.2     	1.2039e-06
0.2     	0.25    	1.2149e-06
0.2     	0.3     	1.2234e-06
0.2     	0.35    	1.2307e-06
0.2     	0.4     	1.2373e-06
0.2     	0.45    	1.2433e-06
0.2     	0.5     	1.2487e-06
0.2     	0.55    	1.2538e-06
0.2     	0.6     	1.2585e-06
0.2     	0.65    	1.2629e-06
0.2     	0.7     	1.2671e-06
0.25    	0       	2.0084e-09
0.25    	0.05    	1.6129e-06
0.25    	0.1     	2.2668e-06
0.25    	0.15    	2.4409e-06
0.25    	0.2     	2.4874e-06
0.25    	0.25    	2.5071e-06
0.25    	0.3     	2.5202e-06
0.25    	0.35    	2.5308e-06
0.25    	0.4     	2.5399e-06
0.25    	0.45    	2.5481e-06
0.25    	0.5     	2.5565e-06
0.25    	0.55    	2.5633e-06
0.25    	0.6     	2.5695e-06
0.25    	0.65    	2.5752e-06
0.25    	0.7     	2.5805e-06
0.3     	0       	2.7091e-09
0.3     	0.05    	2.3624e-06
0.3     	0.1     	3.5859e-06
0.3     	0.15    	3.98e-06
0.3     	0.2     	4.088e-06
0.3     	0.25    	4.1234e-06
0.3     	0.3     	4.1426e-06
0.3     	0.35    	4.1567e-06
0.3     	0.4     	4.1698e-06
0.3     	0.45    	4.1801e-06
0.3     	0.5     	4.189e-06
0.3     	0.55    	4.197e-06
0.3     	0.6     	4.2043e-06
0.3     	0.65    	4.211e-06
0.3     	0.7     	4.2173e-06
0.35    	0       	3.3245e-09
0.35    	0.05    	3.0272e-06
0.35    	0.1     	4.9084e-06
0.35    	0.15    	5.6621e-06
0.35    	0.2     	5.88e-06
0.35    	0.25    	5.9438e-06
0.35    	0.3     	5.9721e-06
0.35    	0.35    	5.9905e-06
0.35    	0.4     	6.0065e-06
0.35    	0.45    	6.0188e-06
0.35    	0.5     	6.0293e-06
0.35    	0.55    	6.0386e-06
0.35    	0.6     	6.047e-06
0.35    	0.65    	6.0546e-06
0.35    	0.7     	6.0616e-06
0.4     	0       	3.86e-09
0.4     	0.05    	3.5884e-06
0.4     	0.1     	6.1254e-06
0.4     	0.15    	7.3473e-06
0.4     	0.2     	7.7696e-06
0.4     	0.25    	7.8922e-06
0.4     	0.3     	7.9362e-06
0.4     	0.35    	7.9604e-06
0.4     	0.4     	7.978e-06
0.4     	0.45    	7.9923e-06
0.4     	0.5     	8.0058e-06
0.4     	0.55    	8.0168e-06
0.4     	0.6     	8.0262e-06
0.4     	0.65    	8.0347e-06
0.4     	0.7     	8.0424e-06
0.45    	0       	4.3282e-09
0.45    	0.05    	4.0534e-06
0.45    	0.1     	7.1877e-06
0.45    	0.15    	8.9694e-06
0.45    	0.2     	9.6914e-06
0.45    	0.25    	9.9117e-06
0.45    	0.3     	9.9872e-06
0.45    	0.35    	1.0021e-05
0.45    	0.4     	1.0043e-05
0.45    	0.45    	1.0059e-05
0.45    	0.5     	1.0073e-05
0.45    	0.55    	1.0085e-05
0.45    	0.6     	1.0097e-05
0.45    	0.65    	1.0106e-05
0.45    	0.7     	1.0115e-05
0.5     	0       	4.7407e-09
0.5     	0.05    	4.4378e-06
0.5     	0.1     	8.0845e-06
0.5     	0.15    	1.045e-05
0.5     	0.2     	1.1575e-05
0.5     	0.25    	1.1968e-05
0.5     	0.3     	1.2087e-05
0.5     	0.35    	1.2138e-05
0.5     	0.4     	1.2166e-05
0.5     	0.45    	1.2186e-05
0.5     	0.5     	1.2202e-05
0.5     	0.55    	1.2215e-05
0.5     	0.6     	1.2226e-05
0.5     	0.65    	1.2238e-05
0.5     	0.7     	1.2247e-05
0.55    	0       	5.1095e-09
0.55    	0.05    	4.7572e-06
0.55    	0.1     	8.8283e-06
0.55    	0.15    	1.1747e-05
0.55    	0.2     	1.3315e-05
0.55    	0.25    	1.3998e-05
0.55    	0.3     	1.4209e-05
0.55    	0.35    	1.4284e-05
0.55    	0.4     	1.432e-05
0.55    	0.45    	1.4345e-05
0.55    	0.5     	1.4364e-05
0.55    	0.55    	1.4379e-05
0.55    	0.6     	1.4391e-05
0.55    	0.65    	1.4402e-05
0.55    	0.7     	1.4412e-05
0.6     	0       	5.4417e-09
0.6     	0.05    	5.0254e-06
0.6     	0.1     	9.4435e-06
0.6     	0.15    	1.2852e-05
0.6     	0.2     	1.4914e-05
0.6     	0.25    	1.5938e-05
0.6     	0.3     	1.6315e-05
0.6     	0.35    	1.6442e-05
0.6     	0.4     	1.6493e-05
0.6     	0.45    	1.6523e-05
0.6     	0.5     	1.6544e-05
0.6     	0.55    	1.6561e-05
0.6     	0.6     	1.6576e-05
0.6     	0.65    	1.6587e-05
0.6     	0.7     	1.6598e-05
0.65    	0       	5.7473e-09
0.65    	0.05    	5.2538e-06
0.65    	0.1     	9.9571e-06
0.65    	0.15    	1.3763e-05
0.65    	0.2     	1.6315e-05
0.65    	0.25    	1.776e-05
0.65    	0.3     	1.8373e-05
0.65    	0.35    	1.8586e-05
0.65    	0.4     	1.867e-05
0.65    	0.45    	1.8709e-05
0.65    	0.5     	1.8734e-05
0.65    	0.55    	1.8752e-05
0.65    	0.6     	1.8769e-05
0.65    	0.65    	1.8782e-05
0.65    	0.7     	1.8793e-05
0.7     	0       	6.0321e-09
0.7     	0.05    	5.4512e-06
0.7     	0.1     	1.0392e-05
0.7     	0.15    	1.4519e-05
0.7     	0.2     	1.7509e-05
0.7     	0.25    	1.9328e-05
0.7     	0.3     	2.0328e-05
0.7     	0.35    	2.0689e-05
0.7     	0.4     	2.0826e-05
0.7     	0.45    	2.0886e-05
0.7     	0.5     	2.0918e-05
0.7     	0.55    	2.0939e-05
0.7     	0.6     	2.0956e-05
0.7     	0.65    	2.0971e-05
0.7     	0.7     	2.0983e-05
