vg      	vd      	ids     
0       	0       	-6.1374e-12
0       	0.05    	1.058e-09
0       	0.1     	1.2576e-09
0       	0.15    	1.3177e-09
0       	0.2     	1.3546e-09
0       	0.25    	1.3857e-09
0       	0.3     	1.4131e-09
0       	0.35    	1.437e-09
0       	0.4     	1.4583e-09
0       	0.45    	1.4778e-09
0       	0.5     	1.4962e-09
0       	0.55    	1.5138e-09
0       	0.6     	1.5308e-09
0       	0.65    	1.5474e-09
0       	0.7     	1.5637e-09
0.05    	0       	-2.854e-11
0.05    	0.05    	6.3643e-09
0.05    	0.1     	7.582e-09
0.05    	0.15    	7.9472e-09
0.05    	0.2     	8.1588e-09
0.05    	0.25    	8.3259e-09
0.05    	0.3     	8.4697e-09
0.05    	0.35    	8.5994e-09
0.05    	0.4     	8.7204e-09
0.05    	0.45    	8.8349e-09
0.05    	0.5     	8.9444e-09
0.05    	0.55    	9.0498e-09
0.05    	0.6     	9.152e-09
0.05    	0.65    	9.2517e-09
0.05    	0.7     	9.3497e-09
0.1     	0       	-1.3943e-10
0.1     	0.05    	3.7035e-08
0.1     	0.1     	4.4289e-08
0.1     	0.15    	4.6344e-08
0.1     	0.2     	4.7415e-08
0.1     	0.25    	4.8247e-08
0.1     	0.3     	4.8996e-08
0.1     	0.35    	4.9702e-08
0.1     	0.4     	5.0379e-08
0.1     	0.45    	5.103e-08
0.1     	0.5     	5.1657e-08
0.1     	0.55    	5.2262e-08
0.1     	0.6     	5.2847e-08
0.1     	0.65    	5.3414e-08
0.1     	0.7     	5.3968e-08
0.15    	0       	-6.0013e-10
0.15    	0.05    	1.9048e-07
0.15    	0.1     	2.306e-07
0.15    	0.15    	2.4092e-07
0.15    	0.2     	2.458e-07
0.15    	0.25    	2.4956e-07
0.15    	0.3     	2.5298e-07
0.15    	0.35    	2.5621e-07
0.15    	0.4     	2.5929e-07
0.15    	0.45    	2.6223e-07
0.15    	0.5     	2.6501e-07
0.15    	0.55    	2.6761e-07
0.15    	0.6     	2.7004e-07
0.15    	0.65    	2.7229e-07
0.15    	0.7     	2.7437e-07
0.2     	0       	-1.6854e-09
0.2     	0.05    	7.018e-07
0.2     	0.1     	8.8483e-07
0.2     	0.15    	9.2854e-07
0.2     	0.2     	9.4468e-07
0.2     	0.25    	9.5492e-07
0.2     	0.3     	9.6329e-07
0.2     	0.35    	9.7068e-07
0.2     	0.4     	9.7741e-07
0.2     	0.45    	9.836e-07
0.2     	0.5     	9.8937e-07
0.2     	0.55    	9.9476e-07
0.2     	0.6     	9.9984e-07
0.2     	0.65    	1.0046e-06
0.2     	0.7     	1.0092e-06
0.25    	0       	-2.8286e-09
0.25    	0.05    	1.6523e-06
0.25    	0.1     	2.2272e-06
0.25    	0.15    	2.3668e-06
0.25    	0.2     	2.4066e-06
0.25    	0.25    	2.4255e-06
0.25    	0.3     	2.4392e-06
0.25    	0.35    	2.4509e-06
0.25    	0.4     	2.4615e-06
0.25    	0.45    	2.4712e-06
0.25    	0.5     	2.4802e-06
0.25    	0.55    	2.4886e-06
0.25    	0.6     	2.4964e-06
0.25    	0.65    	2.5038e-06
0.25    	0.7     	2.5106e-06
0.3     	0       	-3.45e-09
0.3     	0.05    	2.8114e-06
0.3     	0.1     	4.0811e-06
0.3     	0.15    	4.4336e-06
0.3     	0.2     	4.5253e-06
0.3     	0.25    	4.5592e-06
0.3     	0.3     	4.5793e-06
0.3     	0.35    	4.5971e-06
0.3     	0.4     	4.6105e-06
0.3     	0.45    	4.6224e-06
0.3     	0.5     	4.6333e-06
0.3     	0.55    	4.6433e-06
0.3     	0.6     	4.6525e-06
0.3     	0.65    	4.6611e-06
0.3     	0.7     	4.6692e-06
0.35    	0       	-3.5544e-09
0.35    	0.05    	3.9808e-06
0.35    	0.1     	6.1811e-06
0.35    	0.15    	6.912e-06
0.35    	0.2     	7.1115e-06
0.35    	0.25    	7.1726e-06
0.35    	0.3     	7.2016e-06
0.35    	0.35    	7.2215e-06
0.35    	0.4     	7.2378e-06
0.35    	0.45    	7.252e-06
0.35    	0.5     	7.2665e-06
0.35    	0.55    	7.2783e-06
0.35    	0.6     	7.2889e-06
0.35    	0.65    	7.2986e-06
0.35    	0.7     	7.3076e-06
0.4     	0       	-3.2358e-09
0.4     	0.05    	5.076e-06
0.4     	0.1     	8.3315e-06
0.4     	0.15    	9.6324e-06
0.4     	0.2     	1.0015e-05
0.4     	0.25    	1.0131e-05
0.4     	0.3     	1.0175e-05
0.4     	0.35    	1.0201e-05
0.4     	0.4     	1.022e-05
0.4     	0.45    	1.0236e-05
0.4     	0.5     	1.0251e-05
0.4     	0.55    	1.0264e-05
0.4     	0.6     	1.0276e-05
0.4     	0.65    	1.0287e-05
0.4     	0.7     	1.0297e-05
0.45    	0       	-2.7649e-09
0.45    	0.05    	6.0691e-06
0.45    	0.1     	1.0403e-05
0.45    	0.15    	1.2462e-05
0.45    	0.2     	1.3138e-05
0.45    	0.25    	1.3342e-05
0.45    	0.3     	1.3411e-05
0.45    	0.35    	1.3446e-05
0.45    	0.4     	1.347e-05
0.45    	0.45    	1.3489e-05
0.45    	0.5     	1.3508e-05
0.45    	0.55    	1.3523e-05
0.45    	0.6     	1.3537e-05
0.45    	0.65    	1.3548e-05
0.45    	0.7     	1.3559e-05
0.5     	0       	-2.235e-09
0.5     	0.05    	6.9547e-06
0.5     	0.1     	1.2271e-05
0.5     	0.15    	1.528e-05
0.5     	0.2     	1.6386e-05
0.5     	0.25    	1.6773e-05
0.5     	0.3     	1.6867e-05
0.5     	0.35    	1.6906e-05
0.5     	0.4     	1.695e-05
0.5     	0.45    	1.6966e-05
0.5     	0.5     	1.6977e-05
0.5     	0.55    	1.7005e-05
0.5     	0.6     	1.7015e-05
0.5     	0.65    	1.702e-05
0.5     	0.7     	1.7042e-05
0.55    	0       	-1.979e-09
0.55    	0.05    	7.7808e-06
0.55    	0.1     	1.3984e-05
0.55    	0.15    	1.7929e-05
0.55    	0.2     	1.9714e-05
0.55    	0.25    	2.0271e-05
0.55    	0.3     	2.0485e-05
0.55    	0.35    	2.0552e-05
0.55    	0.4     	2.0581e-05
0.55    	0.45    	2.0612e-05
0.55    	0.5     	2.0621e-05
0.55    	0.55    	2.0644e-05
0.55    	0.6     	2.0663e-05
0.55    	0.65    	2.0667e-05
0.55    	0.7     	2.0684e-05
0.6     	0       	-1.6808e-09
0.6     	0.05    	8.4571e-06
0.6     	0.1     	1.5495e-05
0.6     	0.15    	2.0385e-05
0.6     	0.2     	2.2906e-05
0.6     	0.25    	2.3895e-05
0.6     	0.3     	2.4211e-05
0.6     	0.35    	2.4316e-05
0.6     	0.4     	2.4363e-05
0.6     	0.45    	2.4392e-05
0.6     	0.5     	2.4415e-05
0.6     	0.55    	2.4434e-05
0.6     	0.6     	2.445e-05
0.6     	0.65    	2.4464e-05
0.6     	0.7     	2.4475e-05
0.65    	0       	-1.4178e-09
0.65    	0.05    	9.0525e-06
0.65    	0.1     	1.6816e-05
0.65    	0.15    	2.2589e-05
0.65    	0.2     	2.6005e-05
0.65    	0.25    	2.7461e-05
0.65    	0.3     	2.8031e-05
0.65    	0.35    	2.8196e-05
0.65    	0.4     	2.8259e-05
0.65    	0.45    	2.8292e-05
0.65    	0.5     	2.8331e-05
0.65    	0.55    	2.8345e-05
0.65    	0.6     	2.8358e-05
0.65    	0.65    	2.8384e-05
0.65    	0.7     	2.8391e-05
0.7     	0       	-1.1193e-09
0.7     	0.05    	9.5746e-06
0.7     	0.1     	1.7961e-05
0.7     	0.15    	2.453e-05
0.7     	0.2     	2.885e-05
0.7     	0.25    	3.1016e-05
0.7     	0.3     	3.1857e-05
0.7     	0.35    	3.2152e-05
0.7     	0.4     	3.2246e-05
0.7     	0.45    	3.2306e-05
0.7     	0.5     	3.2326e-05
0.7     	0.55    	3.2343e-05
0.7     	0.6     	3.2358e-05
0.7     	0.65    	3.2386e-05
0.7     	0.7     	3.2394e-05
