vg      	vd      	ids     
0       	0       	4.397e-14
0       	0.05    	4.2604e-11
0       	0.1     	4.8876e-11
0       	0.15    	4.989e-11
0       	0.2     	5.0128e-11
0       	0.25    	5.0244e-11
0       	0.3     	5.0335e-11
0       	0.35    	5.0416e-11
0       	0.4     	5.0491e-11
0       	0.45    	5.0561e-11
0       	0.5     	5.0626e-11
0       	0.55    	5.0687e-11
0       	0.6     	5.0744e-11
0       	0.65    	5.0799e-11
0       	0.7     	5.085e-11
0.05    	0       	3.1347e-13
0.05    	0.05    	2.911e-10
0.05    	0.1     	3.3449e-10
0.05    	0.15    	3.4154e-10
0.05    	0.2     	3.4324e-10
0.05    	0.25    	3.4409e-10
0.05    	0.3     	3.4476e-10
0.05    	0.35    	3.4535e-10
0.05    	0.4     	3.4589e-10
0.05    	0.45    	3.4639e-10
0.05    	0.5     	3.4685e-10
0.05    	0.55    	3.4728e-10
0.05    	0.6     	3.4769e-10
0.05    	0.65    	3.4807e-10
0.05    	0.7     	3.4843e-10
0.1     	0       	2.0781e-12
0.1     	0.05    	1.9862e-09
0.1     	0.1     	2.2836e-09
0.1     	0.15    	2.333e-09
0.1     	0.2     	2.3453e-09
0.1     	0.25    	2.3516e-09
0.1     	0.3     	2.3564e-09
0.1     	0.35    	2.3607e-09
0.1     	0.4     	2.3646e-09
0.1     	0.45    	2.3682e-09
0.1     	0.5     	2.3714e-09
0.1     	0.55    	2.3745e-09
0.1     	0.6     	2.3773e-09
0.1     	0.65    	2.38e-09
0.1     	0.7     	2.3825e-09
0.15    	0       	1.3696e-11
0.15    	0.05    	1.3155e-08
0.15    	0.1     	1.5192e-08
0.15    	0.15    	1.5535e-08
0.15    	0.2     	1.5624e-08
0.15    	0.25    	1.5669e-08
0.15    	0.3     	1.5704e-08
0.15    	0.35    	1.5734e-08
0.15    	0.4     	1.5761e-08
0.15    	0.45    	1.5785e-08
0.15    	0.5     	1.5807e-08
0.15    	0.55    	1.5828e-08
0.15    	0.6     	1.5847e-08
0.15    	0.65    	1.5864e-08
0.15    	0.7     	1.5881e-08
0.2     	0       	6.9541e-11
0.2     	0.05    	7.6549e-08
0.2     	0.1     	9.0057e-08
0.2     	0.15    	9.2414e-08
0.2     	0.2     	9.3008e-08
0.2     	0.25    	9.3296e-08
0.2     	0.3     	9.3508e-08
0.2     	0.35    	9.3687e-08
0.2     	0.4     	9.3843e-08
0.2     	0.45    	9.3982e-08
0.2     	0.5     	9.4108e-08
0.2     	0.55    	9.4223e-08
0.2     	0.6     	9.4329e-08
0.2     	0.65    	9.4427e-08
0.2     	0.7     	9.4518e-08
0.25    	0       	2.1627e-10
0.25    	0.05    	2.9378e-07
0.25    	0.1     	3.6935e-07
0.25    	0.15    	3.8407e-07
0.25    	0.2     	3.8747e-07
0.25    	0.25    	3.8883e-07
0.25    	0.3     	3.8983e-07
0.25    	0.35    	3.9053e-07
0.25    	0.4     	3.9111e-07
0.25    	0.45    	3.9162e-07
0.25    	0.5     	3.9208e-07
0.25    	0.55    	3.9249e-07
0.25    	0.6     	3.9286e-07
0.25    	0.65    	3.932e-07
0.25    	0.7     	3.9352e-07
0.3     	0       	3.8777e-10
0.3     	0.05    	6.3217e-07
0.3     	0.1     	9.0607e-07
0.3     	0.15    	9.7687e-07
0.3     	0.2     	9.9356e-07
0.3     	0.25    	9.9822e-07
0.3     	0.3     	1.0006e-06
0.3     	0.35    	1.0023e-06
0.3     	0.4     	1.0036e-06
0.3     	0.45    	1.0049e-06
0.3     	0.5     	1.0059e-06
0.3     	0.55    	1.0068e-06
0.3     	0.6     	1.0076e-06
0.3     	0.65    	1.0083e-06
0.3     	0.7     	1.009e-06
0.35    	0       	5.268e-10
0.35    	0.05    	9.2532e-07
0.35    	0.1     	1.5055e-06
0.35    	0.15    	1.7441e-06
0.35    	0.2     	1.8097e-06
0.35    	0.25    	1.8257e-06
0.35    	0.3     	1.832e-06
0.35    	0.35    	1.8353e-06
0.35    	0.4     	1.8376e-06
0.35    	0.45    	1.8395e-06
0.35    	0.5     	1.8413e-06
0.35    	0.55    	1.8427e-06
0.35    	0.6     	1.844e-06
0.35    	0.65    	1.8451e-06
0.35    	0.7     	1.8461e-06
0.4     	0       	6.3927e-10
0.4     	0.05    	1.1273e-06
0.4     	0.1     	1.9865e-06
0.4     	0.15    	2.4864e-06
0.4     	0.2     	2.6942e-06
0.4     	0.25    	2.7512e-06
0.4     	0.3     	2.767e-06
0.4     	0.35    	2.7735e-06
0.4     	0.4     	2.7777e-06
0.4     	0.45    	2.7805e-06
0.4     	0.5     	2.7828e-06
0.4     	0.55    	2.7849e-06
0.4     	0.6     	2.7865e-06
0.4     	0.65    	2.788e-06
0.4     	0.7     	2.7894e-06
0.45    	0       	7.3359e-10
0.45    	0.05    	1.2628e-06
0.45    	0.1     	2.3191e-06
0.45    	0.15    	3.0653e-06
0.45    	0.2     	3.4967e-06
0.45    	0.25    	3.6652e-06
0.45    	0.3     	3.721e-06
0.45    	0.35    	3.7369e-06
0.45    	0.4     	3.7444e-06
0.45    	0.45    	3.7485e-06
0.45    	0.5     	3.7515e-06
0.45    	0.55    	3.7542e-06
0.45    	0.6     	3.7562e-06
0.45    	0.65    	3.7579e-06
0.45    	0.7     	3.7596e-06
0.5     	0       	8.1527e-10
0.5     	0.05    	1.3581e-06
0.5     	0.1     	2.5454e-06
0.5     	0.15    	3.4664e-06
0.5     	0.2     	4.0803e-06
0.5     	0.25    	4.4495e-06
0.5     	0.3     	4.6135e-06
0.5     	0.35    	4.6636e-06
0.5     	0.4     	4.6813e-06
0.5     	0.45    	4.6888e-06
0.5     	0.5     	4.6934e-06
0.5     	0.55    	4.6966e-06
0.5     	0.6     	4.699e-06
0.5     	0.65    	4.7011e-06
0.5     	0.7     	4.7028e-06
0.55    	0       	8.878e-10
0.55    	0.05    	1.429e-06
0.55    	0.1     	2.7056e-06
0.55    	0.15    	3.7406e-06
0.55    	0.2     	4.4912e-06
0.55    	0.25    	5.0214e-06
0.55    	0.3     	5.341e-06
0.55    	0.35    	5.4825e-06
0.55    	0.4     	5.5382e-06
0.55    	0.45    	5.5583e-06
0.55    	0.5     	5.5669e-06
0.55    	0.55    	5.572e-06
0.55    	0.6     	5.5752e-06
0.55    	0.65    	5.5775e-06
0.55    	0.7     	5.5794e-06
0.6     	0       	9.5194e-10
0.6     	0.05    	1.4833e-06
0.6     	0.1     	2.8234e-06
0.6     	0.15    	3.9332e-06
0.6     	0.2     	4.7701e-06
0.6     	0.25    	5.4023e-06
0.6     	0.3     	5.826e-06
0.6     	0.35    	6.1e-06 
0.6     	0.4     	6.2437e-06
0.6     	0.45    	6.3068e-06
0.6     	0.5     	6.3331e-06
0.6     	0.55    	6.3451e-06
0.6     	0.6     	6.3511e-06
0.6     	0.65    	6.3544e-06
0.6     	0.7     	6.3563e-06
0.65    	0       	1.0062e-09
0.65    	0.05    	1.5248e-06
0.65    	0.1     	2.9094e-06
0.65    	0.15    	4.0706e-06
0.65    	0.2     	4.9615e-06
0.65    	0.25    	5.6536e-06
0.65    	0.3     	6.1445e-06
0.65    	0.35    	6.4829e-06
0.65    	0.4     	6.7168e-06
0.65    	0.45    	6.8565e-06
0.65    	0.5     	6.9306e-06
0.65    	0.55    	6.9667e-06
0.65    	0.6     	6.9839e-06
0.65    	0.65    	6.9898e-06
0.65    	0.7     	6.9921e-06
0.7     	0       	1.0559e-09
0.7     	0.05    	1.5535e-06
0.7     	0.1     	2.9703e-06
0.7     	0.15    	4.1678e-06
0.7     	0.2     	5.0946e-06
0.7     	0.25    	5.822e-06
0.7     	0.3     	6.3496e-06
0.7     	0.35    	6.7272e-06
0.7     	0.4     	6.9928e-06
0.7     	0.45    	7.1742e-06
0.7     	0.5     	7.2872e-06
0.7     	0.55    	7.3416e-06
0.7     	0.6     	7.3627e-06
0.7     	0.65    	7.3704e-06
0.7     	0.7     	7.3729e-06
